; CANalyzer/CANoe ASC Log File
; Generated by J1939 Test Data Generator
; Date: Thu Jan 22 09:56:12 AM 2026
;
date Thu Jan 22 09:56:12 AM 2026
base hex  timestamps absolute
no internal events logged

    0.000000 1  0CF00400x       Rx   d 8 00 CF 42 19 FF FF FF FF
    0.000000 1  0CF00300x       Rx   d 8 00 C2 52 FF FF FF FF FF
    0.000000 1  18FEF100x       Rx   d 8 FF 19 08 00 00 00 FF FF
    0.000000 1  18FEF200x       Rx   d 8 20 06 FF FF FF FF FF FF
    0.000000 1  18FEF600x       Rx   d 8 FF 71 3C FF FF FF FF FF
    0.000000 1  18FEEF00x       Rx   d 8 FF FF FF 76 FF FF FF FF
    0.000000 1  18FEEE00x       Rx   d 9 82 3C C1 2E FF FF FF 00 FF
    0.000000 1  18FEF700x       Rx   d 8 FF FF FF FF FF FF FB 00
    0.000000 1  18FEF803x       Rx   d 8 FF FF FF FF A0 24 FF FF
    0.000000 1  18FEFC00x       Rx   d 8 FF F9 FF FF FF FF FF FF
    0.000000 1  18FEF500x       Rx   d 9 CA FF FF A0 24 FF FF FF FF
    0.000000 1  18F00503x       Rx   d 8 7E FF FF 7E FF FF FF FF
    0.000000 1  18FEE500x       Rx   d 8 40 0D 03 00 FF FF FF FF
    0.100000 1  0CF00400x       Rx   d 8 00 CD 4E 18 FF FF FF FF
    0.100000 1  0CF00300x       Rx   d 8 00 C8 50 FF FF FF FF FF
    0.100000 1  18FEF100x       Rx   d 8 FF 2C 09 00 00 00 FF FF
    0.100000 1  18FEF200x       Rx   d 8 63 06 FF FF FF FF FF FF
    0.200000 1  0CF00400x       Rx   d 8 00 D3 F4 19 FF FF FF FF
    0.200000 1  0CF00300x       Rx   d 8 00 CF 56 FF FF FF FF FF
    0.200000 1  18FEF100x       Rx   d 8 FF A0 08 00 00 00 FF FF
    0.200000 1  18FEF200x       Rx   d 8 9D 05 FF FF FF FF FF FF
    0.300000 1  0CF00400x       Rx   d 8 00 D5 CE 18 FF FF FF FF
    0.300000 1  0CF00300x       Rx   d 8 00 CA 58 FF FF FF FF FF
    0.300000 1  18FEF100x       Rx   d 8 FF 4A 0C 00 00 00 FF FF
    0.300000 1  18FEF200x       Rx   d 8 54 06 FF FF FF FF FF FF
    0.400000 1  0CF00400x       Rx   d 8 00 D2 5E 1A FF FF FF FF
    0.400000 1  0CF00300x       Rx   d 8 00 D1 55 FF FF FF FF FF
    0.400000 1  18FEF100x       Rx   d 8 FF AC 0B 00 00 00 FF FF
    0.400000 1  18FEF200x       Rx   d 8 97 05 FF FF FF FF FF FF
    0.500000 1  0CF00400x       Rx   d 8 00 D3 6F 19 FF FF FF FF
    0.500000 1  0CF00300x       Rx   d 8 00 C2 56 FF FF FF FF FF
    0.500000 1  18FEF100x       Rx   d 8 FF E7 09 00 00 00 FF FF
    0.500000 1  18FEF200x       Rx   d 8 EE 06 FF FF FF FF FF FF
    0.500000 1  18FEF600x       Rx   d 8 FF 6B 3C FF FF FF FF FF
    0.500000 1  18FEEF00x       Rx   d 8 FF FF FF 79 FF FF FF FF
    0.600000 1  0CF00400x       Rx   d 8 00 D4 67 1A FF FF FF FF
    0.600000 1  0CF00300x       Rx   d 8 00 BF 57 FF FF FF FF FF
    0.600000 1  18FEF100x       Rx   d 8 FF 3C 0C 00 00 00 FF FF
    0.600000 1  18FEF200x       Rx   d 8 56 06 FF FF FF FF FF FF
    0.700000 1  0CF00400x       Rx   d 8 00 CF A8 1A FF FF FF FF
    0.700000 1  0CF00300x       Rx   d 8 00 CE 52 FF FF FF FF FF
    0.700000 1  18FEF100x       Rx   d 8 FF 78 0D 00 00 00 FF FF
    0.700000 1  18FEF200x       Rx   d 8 F1 06 FF FF FF FF FF FF
    0.800000 1  0CF00400x       Rx   d 8 00 D0 34 1B FF FF FF FF
    0.800000 1  0CF00300x       Rx   d 8 00 CB 53 FF FF FF FF FF
    0.800000 1  18FEF100x       Rx   d 8 FF A8 0B 00 00 00 FF FF
    0.800000 1  18FEF200x       Rx   d 8 58 06 FF FF FF FF FF FF
    0.900000 1  0CF00400x       Rx   d 8 00 D0 3E 1A FF FF FF FF
    0.900000 1  0CF00300x       Rx   d 8 00 D1 53 FF FF FF FF FF
    0.900000 1  18FEF100x       Rx   d 8 FF 09 0D 00 00 00 FF FF
    0.900000 1  18FEF200x       Rx   d 8 8A 05 FF FF FF FF FF FF
    1.000000 1  0CF00400x       Rx   d 8 00 D1 24 1A FF FF FF FF
    1.000000 1  0CF00300x       Rx   d 8 00 CF 54 FF FF FF FF FF
    1.000000 1  18FEF100x       Rx   d 8 FF 82 0D 00 00 00 FF FF
    1.000000 1  18FEF200x       Rx   d 8 FC 06 FF FF FF FF FF FF
    1.000000 1  18FEF600x       Rx   d 8 FF 72 3C FF FF FF FF FF
    1.000000 1  18FEEF00x       Rx   d 8 FF FF FF 7D FF FF FF FF
    1.000000 1  18FEEE00x       Rx   d 9 80 3C 89 2E FF FF FF 00 FF
    1.000000 1  18FEF700x       Rx   d 8 FF FF FF FF FF FF FB 00
    1.000000 1  18FEF803x       Rx   d 8 FF FF FF FF A0 24 FF FF
    1.000000 1  18FEFC00x       Rx   d 8 FF F9 FF FF FF FF FF FF
    1.000000 1  18FEF500x       Rx   d 9 CA FF FF A0 24 FF FF FF FF
    1.000000 1  18F00503x       Rx   d 8 7E FF FF 7E FF FF FF FF
    1.100000 1  0CF00400x       Rx   d 8 00 D3 BD 1B FF FF FF FF
    1.100000 1  0CF00300x       Rx   d 8 00 CD 56 FF FF FF FF FF
    1.100000 1  18FEF100x       Rx   d 8 FF 58 0B 00 00 00 FF FF
    1.100000 1  18FEF200x       Rx   d 8 25 06 FF FF FF FF FF FF
    1.200000 1  0CF00400x       Rx   d 8 00 CF 29 1B FF FF FF FF
    1.200000 1  0CF00300x       Rx   d 8 00 D1 52 FF FF FF FF FF
    1.200000 1  18FEF100x       Rx   d 8 FF 6A 0F 00 00 00 FF FF
    1.200000 1  18FEF200x       Rx   d 8 EF 05 FF FF FF FF FF FF
    1.300000 1  0CF00400x       Rx   d 8 00 D4 B2 1B FF FF FF FF
    1.300000 1  0CF00300x       Rx   d 8 00 BF 57 FF FF FF FF FF
    1.300000 1  18FEF100x       Rx   d 8 FF 55 0E 00 00 00 FF FF
    1.300000 1  18FEF200x       Rx   d 8 F9 05 FF FF FF FF FF FF
    1.400000 1  0CF00400x       Rx   d 8 00 D5 B9 1A FF FF FF FF
    1.400000 1  0CF00300x       Rx   d 8 00 D1 58 FF FF FF FF FF
    1.400000 1  18FEF100x       Rx   d 8 FF EA 0F 00 00 00 FF FF
    1.400000 1  18FEF200x       Rx   d 8 9A 05 FF FF FF FF FF FF
    1.500000 1  0CF00400x       Rx   d 8 00 D4 C9 1B FF FF FF FF
    1.500000 1  0CF00300x       Rx   d 8 00 CE 57 FF FF FF FF FF
    1.500000 1  18FEF100x       Rx   d 8 FF C6 0C 00 00 00 FF FF
    1.500000 1  18FEF200x       Rx   d 8 D4 06 FF FF FF FF FF FF
    1.500000 1  18FEF600x       Rx   d 8 FF 6E 3C FF FF FF FF FF
    1.500000 1  18FEEF00x       Rx   d 8 FF FF FF 79 FF FF FF FF
    1.600000 1  0CF00400x       Rx   d 8 00 D4 DB 1B FF FF FF FF
    1.600000 1  0CF00300x       Rx   d 8 00 C8 57 FF FF FF FF FF
    1.600000 1  18FEF100x       Rx   d 8 FF A5 0D 00 00 00 FF FF
    1.600000 1  18FEF200x       Rx   d 8 27 06 FF FF FF FF FF FF
    1.700000 1  0CF00400x       Rx   d 8 00 D0 38 1C FF FF FF FF
    1.700000 1  0CF00300x       Rx   d 8 00 C1 53 FF FF FF FF FF
    1.700000 1  18FEF100x       Rx   d 8 FF 95 0D 00 00 00 FF FF
    1.700000 1  18FEF200x       Rx   d 8 74 06 FF FF FF FF FF FF
    1.800000 1  0CF00400x       Rx   d 8 00 CD DD 1B FF FF FF FF
    1.800000 1  0CF00300x       Rx   d 8 00 D0 50 FF FF FF FF FF
    1.800000 1  18FEF100x       Rx   d 8 FF 05 11 00 00 00 FF FF
    1.800000 1  18FEF200x       Rx   d 8 EE 06 FF FF FF FF FF FF
    1.900000 1  0CF00400x       Rx   d 8 00 D5 B2 1C FF FF FF FF
    1.900000 1  0CF00300x       Rx   d 8 00 CF 58 FF FF FF FF FF
    1.900000 1  18FEF100x       Rx   d 8 FF 97 0F 00 00 00 FF FF
    1.900000 1  18FEF200x       Rx   d 8 32 06 FF FF FF FF FF FF
    2.000000 1  0CF00400x       Rx   d 8 00 CD 2D 1D FF FF FF FF
    2.000000 1  0CF00300x       Rx   d 8 00 D4 50 FF FF FF FF FF
    2.000000 1  18FEF100x       Rx   d 8 FF B1 10 00 00 00 FF FF
    2.000000 1  18FEF200x       Rx   d 8 C4 05 FF FF FF FF FF FF
    2.000000 1  18FEF600x       Rx   d 8 FF 71 3C FF FF FF FF FF
    2.000000 1  18FEEF00x       Rx   d 8 FF FF FF 79 FF FF FF FF
    2.000000 1  18FEEE00x       Rx   d 9 81 3C 81 2E FF FF FF 00 FF
    2.000000 1  18FEF700x       Rx   d 8 FF FF FF FF FF FF FB 00
    2.000000 1  18FEF803x       Rx   d 8 FF FF FF FF A0 24 FF FF
    2.000000 1  18FEFC00x       Rx   d 8 FF F9 FF FF FF FF FF FF
    2.000000 1  18FEF500x       Rx   d 9 CA FF FF A0 24 FF FF FF FF
    2.000000 1  18F00503x       Rx   d 8 7E FF FF 7E FF FF FF FF
    2.100000 1  0CF00400x       Rx   d 8 00 CF D7 1C FF FF FF FF
    2.100000 1  0CF00300x       Rx   d 8 00 C2 52 FF FF FF FF FF
    2.100000 1  18FEF100x       Rx   d 8 FF FC 0F 00 00 00 FF FF
    2.100000 1  18FEF200x       Rx   d 8 8C 05 FF FF FF FF FF FF
    2.200000 1  0CF00400x       Rx   d 8 00 D6 0F 1E FF FF FF FF
    2.200000 1  0CF00300x       Rx   d 8 00 D3 59 FF FF FF FF FF
    2.200000 1  18FEF100x       Rx   d 8 FF F1 11 00 00 00 FF FF
    2.200000 1  18FEF200x       Rx   d 8 18 06 FF FF FF FF FF FF
    2.300000 1  0CF00400x       Rx   d 8 00 CF 7C 1C FF FF FF FF
    2.300000 1  0CF00300x       Rx   d 8 00 D4 52 FF FF FF FF FF
    2.300000 1  18FEF100x       Rx   d 8 FF 6A 10 00 00 00 FF FF
    2.300000 1  18FEF200x       Rx   d 8 06 07 FF FF FF FF FF FF
    2.400000 1  0CF00400x       Rx   d 8 00 CF 9A 1D FF FF FF FF
    2.400000 1  0CF00300x       Rx   d 8 00 BF 52 FF FF FF FF FF
    2.400000 1  18FEF100x       Rx   d 8 FF 12 12 00 00 00 FF FF
    2.400000 1  18FEF200x       Rx   d 8 8E 05 FF FF FF FF FF FF
    2.500000 1  0CF00400x       Rx   d 8 00 CE D8 1D FF FF FF FF
    2.500000 1  0CF00300x       Rx   d 8 00 D0 51 FF FF FF FF FF
    2.500000 1  18FEF100x       Rx   d 8 FF 82 11 00 00 00 FF FF
    2.500000 1  18FEF200x       Rx   d 8 86 06 FF FF FF FF FF FF
    2.500000 1  18FEF600x       Rx   d 8 FF 6A 3C FF FF FF FF FF
    2.500000 1  18FEEF00x       Rx   d 8 FF FF FF 7E FF FF FF FF
    2.600000 1  0CF00400x       Rx   d 8 00 CF 60 1D FF FF FF FF
    2.600000 1  0CF00300x       Rx   d 8 00 D1 52 FF FF FF FF FF
    2.600000 1  18FEF100x       Rx   d 8 FF 47 10 00 00 00 FF FF
    2.600000 1  18FEF200x       Rx   d 8 49 06 FF FF FF FF FF FF
    2.700000 1  0CF00400x       Rx   d 8 00 CF E0 1E FF FF FF FF
    2.700000 1  0CF00300x       Rx   d 8 00 CD 52 FF FF FF FF FF
    2.700000 1  18FEF100x       Rx   d 8 FF EA 10 00 00 00 FF FF
    2.700000 1  18FEF200x       Rx   d 8 A4 06 FF FF FF FF FF FF
    2.800000 1  0CF00400x       Rx   d 8 00 D6 72 1D FF FF FF FF
    2.800000 1  0CF00300x       Rx   d 8 00 D4 59 FF FF FF FF FF
    2.800000 1  18FEF100x       Rx   d 8 FF 3B 12 00 00 00 FF FF
    2.800000 1  18FEF200x       Rx   d 8 D8 06 FF FF FF FF FF FF
    2.900000 1  0CF00400x       Rx   d 8 00 D5 26 1F FF FF FF FF
    2.900000 1  0CF00300x       Rx   d 8 00 BF 58 FF FF FF FF FF
    2.900000 1  18FEF100x       Rx   d 8 FF 2D 12 00 00 00 FF FF
    2.900000 1  18FEF200x       Rx   d 8 7B 05 FF FF FF FF FF FF
    3.000000 1  0CF00400x       Rx   d 8 00 D6 38 1F FF FF FF FF
    3.000000 1  0CF00300x       Rx   d 8 00 CC 59 FF FF FF FF FF
    3.000000 1  18FEF100x       Rx   d 8 FF 32 12 00 00 00 FF FF
    3.000000 1  18FEF200x       Rx   d 8 E4 05 FF FF FF FF FF FF
    3.000000 1  18FEF600x       Rx   d 8 FF 6A 3C FF FF FF FF FF
    3.000000 1  18FEEF00x       Rx   d 8 FF FF FF 7D FF FF FF FF
    3.000000 1  18FEEE00x       Rx   d 9 80 3C 56 2E FF FF FF 00 FF
    3.000000 1  18FEF700x       Rx   d 8 FF FF FF FF FF FF FB 00
    3.000000 1  18FEF803x       Rx   d 8 FF FF FF FF A0 24 FF FF
    3.000000 1  18FEFC00x       Rx   d 8 FF F9 FF FF FF FF FF FF
    3.000000 1  18FEF500x       Rx   d 9 CA FF FF A0 24 FF FF FF FF
    3.000000 1  18F00503x       Rx   d 8 7F FF FF 7F FF FF FF FF
    3.100000 1  0CF00400x       Rx   d 8 00 D3 02 1F FF FF FF FF
    3.100000 1  0CF00300x       Rx   d 8 00 C0 56 FF FF FF FF FF
    3.100000 1  18FEF100x       Rx   d 8 FF 2B 14 00 00 00 FF FF
    3.100000 1  18FEF200x       Rx   d 8 9C 05 FF FF FF FF FF FF
    3.200000 1  0CF00400x       Rx   d 8 00 D4 DB 1E FF FF FF FF
    3.200000 1  0CF00300x       Rx   d 8 00 BB 57 FF FF FF FF FF
    3.200000 1  18FEF100x       Rx   d 8 FF B4 12 00 00 00 FF FF
    3.200000 1  18FEF200x       Rx   d 8 23 06 FF FF FF FF FF FF
    3.300000 1  0CF00400x       Rx   d 8 00 D6 44 1E FF FF FF FF
    3.300000 1  0CF00300x       Rx   d 8 00 D1 59 FF FF FF FF FF
    3.300000 1  18FEF100x       Rx   d 8 FF 33 12 00 00 00 FF FF
    3.300000 1  18FEF200x       Rx   d 8 AA 05 FF FF FF FF FF FF
    3.400000 1  0CF00400x       Rx   d 8 00 D5 03 1F FF FF FF FF
    3.400000 1  0CF00300x       Rx   d 8 00 CF 58 FF FF FF FF FF
    3.400000 1  18FEF100x       Rx   d 8 FF CB 15 00 00 00 FF FF
    3.400000 1  18FEF200x       Rx   d 8 B0 06 FF FF FF FF FF FF
    3.500000 1  0CF00400x       Rx   d 8 00 CE 48 20 FF FF FF FF
    3.500000 1  0CF00300x       Rx   d 8 00 CB 51 FF FF FF FF FF
    3.500000 1  18FEF100x       Rx   d 8 FF 20 14 00 00 00 FF FF
    3.500000 1  18FEF200x       Rx   d 8 D8 06 FF FF FF FF FF FF
    3.500000 1  18FEF600x       Rx   d 8 FF 72 3C FF FF FF FF FF
    3.500000 1  18FEEF00x       Rx   d 8 FF FF FF 81 FF FF FF FF
    3.600000 1  0CF00400x       Rx   d 8 00 D6 DB 1E FF FF FF FF
    3.600000 1  0CF00300x       Rx   d 8 00 C3 59 FF FF FF FF FF
    3.600000 1  18FEF100x       Rx   d 8 FF BF 15 00 00 00 FF FF
    3.600000 1  18FEF200x       Rx   d 8 B2 06 FF FF FF FF FF FF
    3.700000 1  0CF00400x       Rx   d 8 00 CF 33 1F FF FF FF FF
    3.700000 1  0CF00300x       Rx   d 8 00 D0 52 FF FF FF FF FF
    3.700000 1  18FEF100x       Rx   d 8 FF 96 16 00 00 00 FF FF
    3.700000 1  18FEF200x       Rx   d 8 D3 05 FF FF FF FF FF FF
    3.800000 1  0CF00400x       Rx   d 8 00 D5 3B 1F FF FF FF FF
    3.800000 1  0CF00300x       Rx   d 8 00 C3 58 FF FF FF FF FF
    3.800000 1  18FEF100x       Rx   d 8 FF 2C 14 00 00 00 FF FF
    3.800000 1  18FEF200x       Rx   d 8 00 07 FF FF FF FF FF FF
    3.900000 1  0CF00400x       Rx   d 8 00 D6 61 20 FF FF FF FF
    3.900000 1  0CF00300x       Rx   d 8 00 BE 59 FF FF FF FF FF
    3.900000 1  18FEF100x       Rx   d 8 FF 74 17 00 00 00 FF FF
    3.900000 1  18FEF200x       Rx   d 8 25 06 FF FF FF FF FF FF
    4.000000 1  0CF00400x       Rx   d 8 00 D2 ED 20 FF FF FF FF
    4.000000 1  0CF00300x       Rx   d 8 00 CA 55 FF FF FF FF FF
    4.000000 1  18FEF100x       Rx   d 8 FF 41 15 00 00 00 FF FF
    4.000000 1  18FEF200x       Rx   d 8 78 05 FF FF FF FF FF FF
    4.000000 1  18FEF600x       Rx   d 8 FF 6B 3C FF FF FF FF FF
    4.000000 1  18FEEF00x       Rx   d 8 FF FF FF 80 FF FF FF FF
    4.000000 1  18FEEE00x       Rx   d 9 81 3C AE 2E FF FF FF 00 FF
    4.000000 1  18FEF700x       Rx   d 8 FF FF FF FF FF FF FB 00
    4.000000 1  18FEF803x       Rx   d 8 FF FF FF FF A0 24 FF FF
    4.000000 1  18FEFC00x       Rx   d 8 FF F9 FF FF FF FF FF FF
    4.000000 1  18FEF500x       Rx   d 9 CA FF FF A0 24 FF FF FF FF
    4.000000 1  18F00503x       Rx   d 8 7F FF FF 7F FF FF FF FF
    4.100000 1  0CF00400x       Rx   d 8 00 D4 7C 21 FF FF FF FF
    4.100000 1  0CF00300x       Rx   d 8 00 CD 57 FF FF FF FF FF
    4.100000 1  18FEF100x       Rx   d 8 FF 74 16 00 00 00 FF FF
    4.100000 1  18FEF200x       Rx   d 8 FC 05 FF FF FF FF FF FF
    4.200000 1  0CF00400x       Rx   d 8 00 D0 86 20 FF FF FF FF
    4.200000 1  0CF00300x       Rx   d 8 00 CD 53 FF FF FF FF FF
    4.200000 1  18FEF100x       Rx   d 8 FF FD 17 00 00 00 FF FF
    4.200000 1  18FEF200x       Rx   d 8 AA 05 FF FF FF FF FF FF
    4.300000 1  0CF00400x       Rx   d 8 00 D6 E9 20 FF FF FF FF
    4.300000 1  0CF00300x       Rx   d 8 00 CC 59 FF FF FF FF FF
    4.300000 1  18FEF100x       Rx   d 8 FF A9 18 00 00 00 FF FF
    4.300000 1  18FEF200x       Rx   d 8 EA 05 FF FF FF FF FF FF
    4.400000 1  0CF00400x       Rx   d 8 00 D1 1E 21 FF FF FF FF
    4.400000 1  0CF00300x       Rx   d 8 00 CB 54 FF FF FF FF FF
    4.400000 1  18FEF100x       Rx   d 8 FF 85 17 00 00 00 FF FF
    4.400000 1  18FEF200x       Rx   d 8 B6 06 FF FF FF FF FF FF
    4.500000 1  0CF00400x       Rx   d 8 00 D3 D1 20 FF FF FF FF
    4.500000 1  0CF00300x       Rx   d 8 00 C8 56 FF FF FF FF FF
    4.500000 1  18FEF100x       Rx   d 8 FF D6 15 00 00 00 FF FF
    4.500000 1  18FEF200x       Rx   d 8 D1 05 FF FF FF FF FF FF
    4.500000 1  18FEF600x       Rx   d 8 FF 70 3C FF FF FF FF FF
    4.500000 1  18FEEF00x       Rx   d 8 FF FF FF 7F FF FF FF FF
    4.600000 1  0CF00400x       Rx   d 8 00 D1 0F 21 FF FF FF FF
    4.600000 1  0CF00300x       Rx   d 8 00 C1 54 FF FF FF FF FF
    4.600000 1  18FEF100x       Rx   d 8 FF E5 15 00 00 00 FF FF
    4.600000 1  18FEF200x       Rx   d 8 C5 05 FF FF FF FF FF FF
    4.700000 1  0CF00400x       Rx   d 8 00 D3 2E 22 FF FF FF FF
    4.700000 1  0CF00300x       Rx   d 8 00 C1 56 FF FF FF FF FF
    4.700000 1  18FEF100x       Rx   d 8 FF 13 18 00 00 00 FF FF
    4.700000 1  18FEF200x       Rx   d 8 22 06 FF FF FF FF FF FF
    4.800000 1  0CF00400x       Rx   d 8 00 CD 64 21 FF FF FF FF
    4.800000 1  0CF00300x       Rx   d 8 00 C8 50 FF FF FF FF FF
    4.800000 1  18FEF100x       Rx   d 8 FF 3B 1A 00 00 00 FF FF
    4.800000 1  18FEF200x       Rx   d 8 83 06 FF FF FF FF FF FF
    4.900000 1  0CF00400x       Rx   d 8 00 D5 1A 23 FF FF FF FF
    4.900000 1  0CF00300x       Rx   d 8 00 D3 58 FF FF FF FF FF
    4.900000 1  18FEF100x       Rx   d 8 FF 14 19 00 00 00 FF FF
    4.900000 1  18FEF200x       Rx   d 8 53 06 FF FF FF FF FF FF
    5.000000 1  0CF00400x       Rx   d 8 00 CF 1E 23 FF FF FF FF
    5.000000 1  0CF00300x       Rx   d 8 00 C7 52 FF FF FF FF FF
    5.000000 1  18FEF100x       Rx   d 8 FF F9 19 00 00 00 FF FF
    5.000000 1  18FEF200x       Rx   d 8 72 06 FF FF FF FF FF FF
    5.000000 1  18FEF600x       Rx   d 8 FF 70 3C FF FF FF FF FF
    5.000000 1  18FEEF00x       Rx   d 8 FF FF FF 7D FF FF FF FF
    5.000000 1  18FEEE00x       Rx   d 9 80 3C BA 2E FF FF FF 00 FF
    5.000000 1  18FEF700x       Rx   d 8 FF FF FF FF FF FF FB 00
    5.000000 1  18FEF803x       Rx   d 8 FF FF FF FF A0 24 FF FF
    5.000000 1  18FEFC00x       Rx   d 8 FF F9 FF FF FF FF FF FF
    5.000000 1  18FEF500x       Rx   d 9 CA FF FF A0 24 FF FF FF FF
    5.000000 1  18F00503x       Rx   d 8 7F FF FF 7F FF FF FF FF
    5.100000 1  0CF00400x       Rx   d 8 00 CF 23 22 FF FF FF FF
    5.100000 1  0CF00300x       Rx   d 8 00 C2 52 FF FF FF FF FF
    5.100000 1  18FEF100x       Rx   d 8 FF 9C 17 00 00 00 FF FF
    5.100000 1  18FEF200x       Rx   d 8 8D 06 FF FF FF FF FF FF
    5.200000 1  0CF00400x       Rx   d 8 00 D2 23 23 FF FF FF FF
    5.200000 1  0CF00300x       Rx   d 8 00 C5 55 FF FF FF FF FF
    5.200000 1  18FEF100x       Rx   d 8 FF DB 17 00 00 00 FF FF
    5.200000 1  18FEF200x       Rx   d 8 61 06 FF FF FF FF FF FF
    5.300000 1  0CF00400x       Rx   d 8 00 D0 4D 23 FF FF FF FF
    5.300000 1  0CF00300x       Rx   d 8 00 CE 53 FF FF FF FF FF
    5.300000 1  18FEF100x       Rx   d 8 FF 53 1B 00 00 00 FF FF
    5.300000 1  18FEF200x       Rx   d 8 F5 06 FF FF FF FF FF FF
    5.400000 1  0CF00400x       Rx   d 8 00 D3 F9 22 FF FF FF FF
    5.400000 1  0CF00300x       Rx   d 8 00 C9 56 FF FF FF FF FF
    5.400000 1  18FEF100x       Rx   d 8 FF 30 1B 00 00 00 FF FF
    5.400000 1  18FEF200x       Rx   d 8 FE 05 FF FF FF FF FF FF
    5.500000 1  0CF00400x       Rx   d 8 00 D1 A5 23 FF FF FF FF
    5.500000 1  0CF00300x       Rx   d 8 00 BF 54 FF FF FF FF FF
    5.500000 1  18FEF100x       Rx   d 8 FF 1E 1A 00 00 00 FF FF
    5.500000 1  18FEF200x       Rx   d 8 59 06 FF FF FF FF FF FF
    5.500000 1  18FEF600x       Rx   d 8 FF 69 3C FF FF FF FF FF
    5.500000 1  18FEEF00x       Rx   d 8 FF FF FF 7B FF FF FF FF
    5.600000 1  0CF00400x       Rx   d 8 00 D1 9D 22 FF FF FF FF
    5.600000 1  0CF00300x       Rx   d 8 00 BE 54 FF FF FF FF FF
    5.600000 1  18FEF100x       Rx   d 8 FF 5E 1B 00 00 00 FF FF
    5.600000 1  18FEF200x       Rx   d 8 A8 06 FF FF FF FF FF FF
    5.700000 1  0CF00400x       Rx   d 8 00 CF 75 23 FF FF FF FF
    5.700000 1  0CF00300x       Rx   d 8 00 D0 52 FF FF FF FF FF
    5.700000 1  18FEF100x       Rx   d 8 FF 1B 1C 00 00 00 FF FF
    5.700000 1  18FEF200x       Rx   d 8 03 06 FF FF FF FF FF FF
    5.800000 1  0CF00400x       Rx   d 8 00 D4 28 24 FF FF FF FF
    5.800000 1  0CF00300x       Rx   d 8 00 CB 57 FF FF FF FF FF
    5.800000 1  18FEF100x       Rx   d 8 FF 86 1C 00 00 00 FF FF
    5.800000 1  18FEF200x       Rx   d 8 AA 05 FF FF FF FF FF FF
    5.900000 1  0CF00400x       Rx   d 8 00 D3 61 24 FF FF FF FF
    5.900000 1  0CF00300x       Rx   d 8 00 C0 56 FF FF FF FF FF
    5.900000 1  18FEF100x       Rx   d 8 FF F4 1B 00 00 00 FF FF
    5.900000 1  18FEF200x       Rx   d 8 A5 05 FF FF FF FF FF FF
    6.000000 1  0CF00400x       Rx   d 8 00 CD D9 24 FF FF FF FF
    6.000000 1  0CF00300x       Rx   d 8 00 BE 50 FF FF FF FF FF
    6.000000 1  18FEF100x       Rx   d 8 FF DB 1D 00 00 00 FF FF
    6.000000 1  18FEF200x       Rx   d 8 96 06 FF FF FF FF FF FF
    6.000000 1  18FEF600x       Rx   d 8 FF 72 3C FF FF FF FF FF
    6.000000 1  18FEEF00x       Rx   d 8 FF FF FF 7B FF FF FF FF
    6.000000 1  18FEEE00x       Rx   d 9 81 3C C2 2E FF FF FF 00 FF
    6.000000 1  18FEF700x       Rx   d 8 FF FF FF FF FF FF FB 00
    6.000000 1  18FEF803x       Rx   d 8 FF FF FF FF A0 24 FF FF
    6.000000 1  18FEFC00x       Rx   d 8 FF F9 FF FF FF FF FF FF
    6.000000 1  18FEF500x       Rx   d 9 CA FF FF A0 24 FF FF FF FF
    6.000000 1  18F00503x       Rx   d 8 80 FF FF 80 FF FF FF FF
    6.100000 1  0CF00400x       Rx   d 8 00 CE A4 23 FF FF FF FF
    6.100000 1  0CF00300x       Rx   d 8 00 CB 51 FF FF FF FF FF
    6.100000 1  18FEF100x       Rx   d 8 FF 0F 1D 00 00 00 FF FF
    6.100000 1  18FEF200x       Rx   d 8 01 07 FF FF FF FF FF FF
    6.200000 1  0CF00400x       Rx   d 8 00 D0 27 25 FF FF FF FF
    6.200000 1  0CF00300x       Rx   d 8 00 C6 53 FF FF FF FF FF
    6.200000 1  18FEF100x       Rx   d 8 FF FD 1B 00 00 00 FF FF
    6.200000 1  18FEF200x       Rx   d 8 A2 05 FF FF FF FF FF FF
    6.300000 1  0CF00400x       Rx   d 8 00 D4 AD 25 FF FF FF FF
    6.300000 1  0CF00300x       Rx   d 8 00 D0 57 FF FF FF FF FF
    6.300000 1  18FEF100x       Rx   d 8 FF 71 1D 00 00 00 FF FF
    6.300000 1  18FEF200x       Rx   d 8 BB 06 FF FF FF FF FF FF
    6.400000 1  0CF00400x       Rx   d 8 00 D4 12 25 FF FF FF FF
    6.400000 1  0CF00300x       Rx   d 8 00 C6 57 FF FF FF FF FF
    6.400000 1  18FEF100x       Rx   d 8 FF 22 1D 00 00 00 FF FF
    6.400000 1  18FEF200x       Rx   d 8 D8 06 FF FF FF FF FF FF
    6.500000 1  0CF00400x       Rx   d 8 00 D0 B5 24 FF FF FF FF
    6.500000 1  0CF00300x       Rx   d 8 00 CA 53 FF FF FF FF FF
    6.500000 1  18FEF100x       Rx   d 8 FF 5B 1D 00 00 00 FF FF
    6.500000 1  18FEF200x       Rx   d 8 B7 06 FF FF FF FF FF FF
    6.500000 1  18FEF600x       Rx   d 8 FF 6A 3C FF FF FF FF FF
    6.500000 1  18FEEF00x       Rx   d 8 FF FF FF 78 FF FF FF FF
    6.600000 1  0CF00400x       Rx   d 8 00 CF 13 25 FF FF FF FF
    6.600000 1  0CF00300x       Rx   d 8 00 CD 52 FF FF FF FF FF
    6.600000 1  18FEF100x       Rx   d 8 FF 52 1F 00 00 00 FF FF
    6.600000 1  18FEF200x       Rx   d 8 3B 06 FF FF FF FF FF FF
    6.700000 1  0CF00400x       Rx   d 8 00 D1 0B 26 FF FF FF FF
    6.700000 1  0CF00300x       Rx   d 8 00 CB 54 FF FF FF FF FF
    6.700000 1  18FEF100x       Rx   d 8 FF DC 1E 00 00 00 FF FF
    6.700000 1  18FEF200x       Rx   d 8 F2 05 FF FF FF FF FF FF
    6.800000 1  0CF00400x       Rx   d 8 00 D1 E7 25 FF FF FF FF
    6.800000 1  0CF00300x       Rx   d 8 00 C8 54 FF FF FF FF FF
    6.800000 1  18FEF100x       Rx   d 8 FF 4B 1E 00 00 00 FF FF
    6.800000 1  18FEF200x       Rx   d 8 DC 05 FF FF FF FF FF FF
    6.900000 1  0CF00400x       Rx   d 8 00 D2 39 25 FF FF FF FF
    6.900000 1  0CF00300x       Rx   d 8 00 BE 55 FF FF FF FF FF
    6.900000 1  18FEF100x       Rx   d 8 FF 78 1D 00 00 00 FF FF
    6.900000 1  18FEF200x       Rx   d 8 99 06 FF FF FF FF FF FF
    7.000000 1  0CF00400x       Rx   d 8 00 CE 04 27 FF FF FF FF
    7.000000 1  0CF00300x       Rx   d 8 00 C2 51 FF FF FF FF FF
    7.000000 1  18FEF100x       Rx   d 8 FF 19 1F 00 00 00 FF FF
    7.000000 1  18FEF200x       Rx   d 8 4D 06 FF FF FF FF FF FF
    7.000000 1  18FEF600x       Rx   d 8 FF 6A 3C FF FF FF FF FF
    7.000000 1  18FEEF00x       Rx   d 8 FF FF FF 75 FF FF FF FF
    7.000000 1  18FEEE00x       Rx   d 9 80 3C 6B 2E FF FF FF 00 FF
    7.000000 1  18FEF700x       Rx   d 8 FF FF FF FF FF FF FB 00
    7.000000 1  18FEF803x       Rx   d 8 FF FF FF FF A0 24 FF FF
    7.000000 1  18FEFC00x       Rx   d 8 FF F9 FF FF FF FF FF FF
    7.000000 1  18FEF500x       Rx   d 9 CA FF FF A0 24 FF FF FF FF
    7.000000 1  18F00503x       Rx   d 8 80 FF FF 80 FF FF FF FF
    7.100000 1  0CF00400x       Rx   d 8 00 D3 E3 25 FF FF FF FF
    7.100000 1  0CF00300x       Rx   d 8 00 C9 56 FF FF FF FF FF
    7.100000 1  18FEF100x       Rx   d 8 FF 32 21 00 00 00 FF FF
    7.100000 1  18FEF200x       Rx   d 8 5D 06 FF FF FF FF FF FF
    7.200000 1  0CF00400x       Rx   d 8 00 CD 71 26 FF FF FF FF
    7.200000 1  0CF00300x       Rx   d 8 00 C0 50 FF FF FF FF FF
    7.200000 1  18FEF100x       Rx   d 8 FF 5C 1F 00 00 00 FF FF
    7.200000 1  18FEF200x       Rx   d 8 95 05 FF FF FF FF FF FF
    7.300000 1  0CF00400x       Rx   d 8 00 D2 EE 26 FF FF FF FF
    7.300000 1  0CF00300x       Rx   d 8 00 BF 55 FF FF FF FF FF
    7.300000 1  18FEF100x       Rx   d 8 FF 1D 1E 00 00 00 FF FF
    7.300000 1  18FEF200x       Rx   d 8 6A 06 FF FF FF FF FF FF
    7.400000 1  0CF00400x       Rx   d 8 00 D1 6B 27 FF FF FF FF
    7.400000 1  0CF00300x       Rx   d 8 00 C8 54 FF FF FF FF FF
    7.400000 1  18FEF100x       Rx   d 8 FF 1A 1F 00 00 00 FF FF
    7.400000 1  18FEF200x       Rx   d 8 70 06 FF FF FF FF FF FF
    7.500000 1  0CF00400x       Rx   d 8 00 CF 44 27 FF FF FF FF
    7.500000 1  0CF00300x       Rx   d 8 00 D3 52 FF FF FF FF FF
    7.500000 1  18FEF100x       Rx   d 8 FF 75 21 00 00 00 FF FF
    7.500000 1  18FEF200x       Rx   d 8 96 05 FF FF FF FF FF FF
    7.500000 1  18FEF600x       Rx   d 8 FF 6A 3C FF FF FF FF FF
    7.500000 1  18FEEF00x       Rx   d 8 FF FF FF 78 FF FF FF FF
    7.600000 1  0CF00400x       Rx   d 8 00 CF 51 26 FF FF FF FF
    7.600000 1  0CF00300x       Rx   d 8 00 CA 52 FF FF FF FF FF
    7.600000 1  18FEF100x       Rx   d 8 FF 9A 20 00 00 00 FF FF
    7.600000 1  18FEF200x       Rx   d 8 8A 06 FF FF FF FF FF FF
    7.700000 1  0CF00400x       Rx   d 8 00 D3 3B 28 FF FF FF FF
    7.700000 1  0CF00300x       Rx   d 8 00 CB 56 FF FF FF FF FF
    7.700000 1  18FEF100x       Rx   d 8 FF 40 22 00 00 00 FF FF
    7.700000 1  18FEF200x       Rx   d 8 E3 06 FF FF FF FF FF FF
    7.800000 1  0CF00400x       Rx   d 8 00 D0 3C 28 FF FF FF FF
    7.800000 1  0CF00300x       Rx   d 8 00 BF 53 FF FF FF FF FF
    7.800000 1  18FEF100x       Rx   d 8 FF AF 1F 00 00 00 FF FF
    7.800000 1  18FEF200x       Rx   d 8 8B 06 FF FF FF FF FF FF
    7.900000 1  0CF00400x       Rx   d 8 00 D1 2F 28 FF FF FF FF
    7.900000 1  0CF00300x       Rx   d 8 00 C8 54 FF FF FF FF FF
    7.900000 1  18FEF100x       Rx   d 8 FF 78 23 00 00 00 FF FF
    7.900000 1  18FEF200x       Rx   d 8 DC 05 FF FF FF FF FF FF
    8.000000 1  0CF00400x       Rx   d 8 00 D2 3B 27 FF FF FF FF
    8.000000 1  0CF00300x       Rx   d 8 00 D0 55 FF FF FF FF FF
    8.000000 1  18FEF100x       Rx   d 8 FF D8 23 00 00 00 FF FF
    8.000000 1  18FEF200x       Rx   d 8 88 05 FF FF FF FF FF FF
    8.000000 1  18FEF600x       Rx   d 8 FF 6F 3C FF FF FF FF FF
    8.000000 1  18FEEF00x       Rx   d 8 FF FF FF 79 FF FF FF FF
    8.000000 1  18FEEE00x       Rx   d 9 83 3C FF 2E FF FF FF 00 FF
    8.000000 1  18FEF700x       Rx   d 8 FF FF FF FF FF FF FB 00
    8.000000 1  18FEF803x       Rx   d 8 FF FF FF FF A0 24 FF FF
    8.000000 1  18FEFC00x       Rx   d 8 FF F9 FF FF FF FF FF FF
    8.000000 1  18FEF500x       Rx   d 9 CA FF FF A0 24 FF FF FF FF
    8.000000 1  18F00503x       Rx   d 8 80 FF FF 80 FF FF FF FF
    8.100000 1  0CF00400x       Rx   d 8 00 D6 AB 28 FF FF FF FF
    8.100000 1  0CF00300x       Rx   d 8 00 CB 59 FF FF FF FF FF
    8.100000 1  18FEF100x       Rx   d 8 FF 2E 22 00 00 00 FF FF
    8.100000 1  18FEF200x       Rx   d 8 9C 05 FF FF FF FF FF FF
    8.200000 1  0CF00400x       Rx   d 8 00 D5 17 28 FF FF FF FF
    8.200000 1  0CF00300x       Rx   d 8 00 CC 58 FF FF FF FF FF
    8.200000 1  18FEF100x       Rx   d 8 FF EE 21 00 00 00 FF FF
    8.200000 1  18FEF200x       Rx   d 8 BD 06 FF FF FF FF FF FF
    8.300000 1  0CF00400x       Rx   d 8 00 D0 A8 28 FF FF FF FF
    8.300000 1  0CF00300x       Rx   d 8 00 C3 53 FF FF FF FF FF
    8.300000 1  18FEF100x       Rx   d 8 FF B8 22 00 00 00 FF FF
    8.300000 1  18FEF200x       Rx   d 8 7F 06 FF FF FF FF FF FF
    8.400000 1  0CF00400x       Rx   d 8 00 D0 D4 28 FF FF FF FF
    8.400000 1  0CF00300x       Rx   d 8 00 C0 53 FF FF FF FF FF
    8.400000 1  18FEF100x       Rx   d 8 FF DA 22 00 00 00 FF FF
    8.400000 1  18FEF200x       Rx   d 8 53 06 FF FF FF FF FF FF
    8.500000 1  0CF00400x       Rx   d 8 00 CE BD 29 FF FF FF FF
    8.500000 1  0CF00300x       Rx   d 8 00 CC 51 FF FF FF FF FF
    8.500000 1  18FEF100x       Rx   d 8 FF 40 23 00 00 00 FF FF
    8.500000 1  18FEF200x       Rx   d 8 54 06 FF FF FF FF FF FF
    8.500000 1  18FEF600x       Rx   d 8 FF 6B 3C FF FF FF FF FF
    8.500000 1  18FEEF00x       Rx   d 8 FF FF FF 77 FF FF FF FF
    8.600000 1  0CF00400x       Rx   d 8 00 D6 39 29 FF FF FF FF
    8.600000 1  0CF00300x       Rx   d 8 00 D4 59 FF FF FF FF FF
    8.600000 1  18FEF100x       Rx   d 8 FF 2C 22 00 00 00 FF FF
    8.600000 1  18FEF200x       Rx   d 8 96 06 FF FF FF FF FF FF
    8.700000 1  0CF00400x       Rx   d 8 00 D6 54 29 FF FF FF FF
    8.700000 1  0CF00300x       Rx   d 8 00 D0 59 FF FF FF FF FF
    8.700000 1  18FEF100x       Rx   d 8 FF 31 23 00 00 00 FF FF
    8.700000 1  18FEF200x       Rx   d 8 43 06 FF FF FF FF FF FF
    8.800000 1  0CF00400x       Rx   d 8 00 D4 36 2A FF FF FF FF
    8.800000 1  0CF00300x       Rx   d 8 00 C2 57 FF FF FF FF FF
    8.800000 1  18FEF100x       Rx   d 8 FF DB 25 00 00 00 FF FF
    8.800000 1  18FEF200x       Rx   d 8 E9 05 FF FF FF FF FF FF
    8.900000 1  0CF00400x       Rx   d 8 00 D1 4F 29 FF FF FF FF
    8.900000 1  0CF00300x       Rx   d 8 00 D4 54 FF FF FF FF FF
    8.900000 1  18FEF100x       Rx   d 8 FF 0C 25 00 00 00 FF FF
    8.900000 1  18FEF200x       Rx   d 8 51 06 FF FF FF FF FF FF
    9.000000 1  0CF00400x       Rx   d 8 00 D3 CA 29 FF FF FF FF
    9.000000 1  0CF00300x       Rx   d 8 00 C0 56 FF FF FF FF FF
    9.000000 1  18FEF100x       Rx   d 8 FF 49 24 00 00 00 FF FF
    9.000000 1  18FEF200x       Rx   d 8 A1 06 FF FF FF FF FF FF
    9.000000 1  18FEF600x       Rx   d 8 FF 70 3C FF FF FF FF FF
    9.000000 1  18FEEF00x       Rx   d 8 FF FF FF 76 FF FF FF FF
    9.000000 1  18FEEE00x       Rx   d 9 82 3C 6C 2E FF FF FF 00 FF
    9.000000 1  18FEF700x       Rx   d 8 FF FF FF FF FF FF FB 00
    9.000000 1  18FEF803x       Rx   d 8 FF FF FF FF A0 24 FF FF
    9.000000 1  18FEFC00x       Rx   d 8 FF F9 FF FF FF FF FF FF
    9.000000 1  18FEF500x       Rx   d 9 CA FF FF A0 24 FF FF FF FF
    9.000000 1  18F00503x       Rx   d 8 81 FF FF 81 FF FF FF FF
    9.100000 1  0CF00400x       Rx   d 8 00 D3 72 2A FF FF FF FF
    9.100000 1  0CF00300x       Rx   d 8 00 C5 56 FF FF FF FF FF
    9.100000 1  18FEF100x       Rx   d 8 FF 8B 26 00 00 00 FF FF
    9.100000 1  18FEF200x       Rx   d 8 40 06 FF FF FF FF FF FF
    9.200000 1  0CF00400x       Rx   d 8 00 D1 6B 2A FF FF FF FF
    9.200000 1  0CF00300x       Rx   d 8 00 D1 54 FF FF FF FF FF
    9.200000 1  18FEF100x       Rx   d 8 FF 14 27 00 00 00 FF FF
    9.200000 1  18FEF200x       Rx   d 8 7D 06 FF FF FF FF FF FF
    9.300000 1  0CF00400x       Rx   d 8 00 D0 CA 29 FF FF FF FF
    9.300000 1  0CF00300x       Rx   d 8 00 D3 53 FF FF FF FF FF
    9.300000 1  18FEF100x       Rx   d 8 FF C7 25 00 00 00 FF FF
    9.300000 1  18FEF200x       Rx   d 8 CF 06 FF FF FF FF FF FF
    9.400000 1  0CF00400x       Rx   d 8 00 D4 66 2A FF FF FF FF
    9.400000 1  0CF00300x       Rx   d 8 00 CD 57 FF FF FF FF FF
    9.400000 1  18FEF100x       Rx   d 8 FF 77 25 00 00 00 FF FF
    9.400000 1  18FEF200x       Rx   d 8 E8 06 FF FF FF FF FF FF
    9.500000 1  0CF00400x       Rx   d 8 00 CD BE 2B FF FF FF FF
    9.500000 1  0CF00300x       Rx   d 8 00 C6 50 FF FF FF FF FF
    9.500000 1  18FEF100x       Rx   d 8 FF 7C 27 00 00 00 FF FF
    9.500000 1  18FEF200x       Rx   d 8 E1 06 FF FF FF FF FF FF
    9.500000 1  18FEF600x       Rx   d 8 FF 6D 3C FF FF FF FF FF
    9.500000 1  18FEEF00x       Rx   d 8 FF FF FF 7F FF FF FF FF
    9.600000 1  0CF00400x       Rx   d 8 00 D0 26 2A FF FF FF FF
    9.600000 1  0CF00300x       Rx   d 8 00 C2 53 FF FF FF FF FF
    9.600000 1  18FEF100x       Rx   d 8 FF FC 27 00 00 00 FF FF
    9.600000 1  18FEF200x       Rx   d 8 BB 05 FF FF FF FF FF FF
    9.700000 1  0CF00400x       Rx   d 8 00 CF 65 2A FF FF FF FF
    9.700000 1  0CF00300x       Rx   d 8 00 CA 52 FF FF FF FF FF
    9.700000 1  18FEF100x       Rx   d 8 FF 95 28 00 00 00 FF FF
    9.700000 1  18FEF200x       Rx   d 8 DE 05 FF FF FF FF FF FF
    9.800000 1  0CF00400x       Rx   d 8 00 D3 74 2A FF FF FF FF
    9.800000 1  0CF00300x       Rx   d 8 00 D2 56 FF FF FF FF FF
    9.800000 1  18FEF100x       Rx   d 8 FF 9E 28 00 00 00 FF FF
    9.800000 1  18FEF200x       Rx   d 8 77 06 FF FF FF FF FF FF
    9.900000 1  0CF00400x       Rx   d 8 00 CE 6B 2B FF FF FF FF
    9.900000 1  0CF00300x       Rx   d 8 00 D0 51 FF FF FF FF FF
    9.900000 1  18FEF100x       Rx   d 8 FF B3 26 00 00 00 FF FF
    9.900000 1  18FEF200x       Rx   d 8 5D 06 FF FF FF FF FF FF
   10.000000 1  0CF00400x       Rx   d 8 00 D3 AC 2C FF FF FF FF
   10.000000 1  0CF00300x       Rx   d 8 00 D3 56 FF FF FF FF FF
   10.000000 1  18FEF100x       Rx   d 8 FF 2E 27 00 00 00 FF FF
   10.000000 1  18FEF200x       Rx   d 8 8B 05 FF FF FF FF FF FF
   10.000000 1  18FEF600x       Rx   d 8 FF 6F 3C FF FF FF FF FF
   10.000000 1  18FEEF00x       Rx   d 8 FF FF FF 80 FF FF FF FF
   10.000000 1  18FEEE00x       Rx   d 9 81 3C AC 2E FF FF FF 00 FF
   10.000000 1  18FEF700x       Rx   d 8 FF FF FF FF FF FF FB 00
   10.000000 1  18FEF803x       Rx   d 8 FF FF FF FF A0 24 FF FF
   10.000000 1  18FEFC00x       Rx   d 8 FF F9 FF FF FF FF FF FF
   10.000000 1  18FEF500x       Rx   d 9 CA FF FF A0 24 FF FF FF FF
   10.000000 1  18F00503x       Rx   d 8 81 FF FF 81 FF FF FF FF
   10.000000 1  18FEE500x       Rx   d 8 40 0D 03 00 FF FF FF FF
   10.100000 1  0CF00400x       Rx   d 8 00 CF 23 2C FF FF FF FF
   10.100000 1  0CF00300x       Rx   d 8 00 D2 52 FF FF FF FF FF
   10.100000 1  18FEF100x       Rx   d 8 FF 49 28 00 00 00 FF FF
   10.100000 1  18FEF200x       Rx   d 8 70 06 FF FF FF FF FF FF
   10.200000 1  0CF00400x       Rx   d 8 00 D5 75 2C FF FF FF FF
   10.200000 1  0CF00300x       Rx   d 8 00 CB 58 FF FF FF FF FF
   10.200000 1  18FEF100x       Rx   d 8 FF 7B 29 00 00 00 FF FF
   10.200000 1  18FEF200x       Rx   d 8 28 06 FF FF FF FF FF FF
   10.300000 1  0CF00400x       Rx   d 8 00 CF 76 2C FF FF FF FF
   10.300000 1  0CF00300x       Rx   d 8 00 BD 52 FF FF FF FF FF
   10.300000 1  18FEF100x       Rx   d 8 FF D4 29 00 00 00 FF FF
   10.300000 1  18FEF200x       Rx   d 8 FC 06 FF FF FF FF FF FF
   10.400000 1  0CF00400x       Rx   d 8 00 CF 8E 2C FF FF FF FF
   10.400000 1  0CF00300x       Rx   d 8 00 D0 52 FF FF FF FF FF
   10.400000 1  18FEF100x       Rx   d 8 FF DA 2A 00 00 00 FF FF
   10.400000 1  18FEF200x       Rx   d 8 FF 05 FF FF FF FF FF FF
   10.500000 1  0CF00400x       Rx   d 8 00 D6 F7 2B FF FF FF FF
   10.500000 1  0CF00300x       Rx   d 8 00 BF 59 FF FF FF FF FF
   10.500000 1  18FEF100x       Rx   d 8 FF 5A 2B 00 00 00 FF FF
   10.500000 1  18FEF200x       Rx   d 8 B9 06 FF FF FF FF FF FF
   10.500000 1  18FEF600x       Rx   d 8 FF 72 3C FF FF FF FF FF
   10.500000 1  18FEEF00x       Rx   d 8 FF FF FF 84 FF FF FF FF
   10.600000 1  0CF00400x       Rx   d 8 00 D2 9F 2C FF FF FF FF
   10.600000 1  0CF00300x       Rx   d 8 00 BB 55 FF FF FF FF FF
   10.600000 1  18FEF100x       Rx   d 8 FF F6 2A 00 00 00 FF FF
   10.600000 1  18FEF200x       Rx   d 8 C0 06 FF FF FF FF FF FF
   10.700000 1  0CF00400x       Rx   d 8 00 CD E3 2D FF FF FF FF
   10.700000 1  0CF00300x       Rx   d 8 00 C1 50 FF FF FF FF FF
   10.700000 1  18FEF100x       Rx   d 8 FF 88 28 00 00 00 FF FF
   10.700000 1  18FEF200x       Rx   d 8 91 05 FF FF FF FF FF FF
   10.800000 1  0CF00400x       Rx   d 8 00 D1 DB 2D FF FF FF FF
   10.800000 1  0CF00300x       Rx   d 8 00 C3 54 FF FF FF FF FF
   10.800000 1  18FEF100x       Rx   d 8 FF 09 2C 00 00 00 FF FF
   10.800000 1  18FEF200x       Rx   d 8 9E 05 FF FF FF FF FF FF
   10.900000 1  0CF00400x       Rx   d 8 00 D3 29 2E FF FF FF FF
   10.900000 1  0CF00300x       Rx   d 8 00 C6 56 FF FF FF FF FF
   10.900000 1  18FEF100x       Rx   d 8 FF 3E 29 00 00 00 FF FF
   10.900000 1  18FEF200x       Rx   d 8 B5 05 FF FF FF FF FF FF
   11.000000 1  0CF00400x       Rx   d 8 00 D1 77 2D FF FF FF FF
   11.000000 1  0CF00300x       Rx   d 8 00 C7 54 FF FF FF FF FF
   11.000000 1  18FEF100x       Rx   d 8 FF 65 29 00 00 00 FF FF
   11.000000 1  18FEF200x       Rx   d 8 F4 06 FF FF FF FF FF FF
   11.000000 1  18FEF600x       Rx   d 8 FF 6C 3C FF FF FF FF FF
   11.000000 1  18FEEF00x       Rx   d 8 FF FF FF 7C FF FF FF FF
   11.000000 1  18FEEE00x       Rx   d 9 83 3C 46 2E FF FF FF 00 FF
   11.000000 1  18FEF700x       Rx   d 8 FF FF FF FF FF FF FB 00
   11.000000 1  18FEF803x       Rx   d 8 FF FF FF FF A0 24 FF FF
   11.000000 1  18FEFC00x       Rx   d 8 FF F9 FF FF FF FF FF FF
   11.000000 1  18FEF500x       Rx   d 9 CA FF FF A0 24 FF FF FF FF
   11.000000 1  18F00503x       Rx   d 8 81 FF FF 81 FF FF FF FF
   11.100000 1  0CF00400x       Rx   d 8 00 D2 7A 2E FF FF FF FF
   11.100000 1  0CF00300x       Rx   d 8 00 CC 55 FF FF FF FF FF
   11.100000 1  18FEF100x       Rx   d 8 FF B2 29 00 00 00 FF FF
   11.100000 1  18FEF200x       Rx   d 8 A8 05 FF FF FF FF FF FF
   11.200000 1  0CF00400x       Rx   d 8 00 D3 A7 2E FF FF FF FF
   11.200000 1  0CF00300x       Rx   d 8 00 CC 56 FF FF FF FF FF
   11.200000 1  18FEF100x       Rx   d 8 FF 6B 2B 00 00 00 FF FF
   11.200000 1  18FEF200x       Rx   d 8 AA 05 FF FF FF FF FF FF
   11.300000 1  0CF00400x       Rx   d 8 00 CF 4E 2E FF FF FF FF
   11.300000 1  0CF00300x       Rx   d 8 00 CE 52 FF FF FF FF FF
   11.300000 1  18FEF100x       Rx   d 8 FF 2C 2A 00 00 00 FF FF
   11.300000 1  18FEF200x       Rx   d 8 E0 06 FF FF FF FF FF FF
   11.400000 1  0CF00400x       Rx   d 8 00 CE 71 2D FF FF FF FF
   11.400000 1  0CF00300x       Rx   d 8 00 BF 51 FF FF FF FF FF
   11.400000 1  18FEF100x       Rx   d 8 FF A2 2D 00 00 00 FF FF
   11.400000 1  18FEF200x       Rx   d 8 7D 05 FF FF FF FF FF FF
   11.500000 1  0CF00400x       Rx   d 8 00 CE 1B 2F FF FF FF FF
   11.500000 1  0CF00300x       Rx   d 8 00 C3 51 FF FF FF FF FF
   11.500000 1  18FEF100x       Rx   d 8 FF 73 2B 00 00 00 FF FF
   11.500000 1  18FEF200x       Rx   d 8 36 06 FF FF FF FF FF FF
   11.500000 1  18FEF600x       Rx   d 8 FF 6E 3C FF FF FF FF FF
   11.500000 1  18FEEF00x       Rx   d 8 FF FF FF 80 FF FF FF FF
   11.600000 1  0CF00400x       Rx   d 8 00 D2 45 2F FF FF FF FF
   11.600000 1  0CF00300x       Rx   d 8 00 BE 55 FF FF FF FF FF
   11.600000 1  18FEF100x       Rx   d 8 FF DA 2C 00 00 00 FF FF
   11.600000 1  18FEF200x       Rx   d 8 48 06 FF FF FF FF FF FF
   11.700000 1  0CF00400x       Rx   d 8 00 D1 DB 2E FF FF FF FF
   11.700000 1  0CF00300x       Rx   d 8 00 BD 54 FF FF FF FF FF
   11.700000 1  18FEF100x       Rx   d 8 FF F4 2E 00 00 00 FF FF
   11.700000 1  18FEF200x       Rx   d 8 95 05 FF FF FF FF FF FF
   11.800000 1  0CF00400x       Rx   d 8 00 CF 56 2E FF FF FF FF
   11.800000 1  0CF00300x       Rx   d 8 00 BD 52 FF FF FF FF FF
   11.800000 1  18FEF100x       Rx   d 8 FF D5 2D 00 00 00 FF FF
   11.800000 1  18FEF200x       Rx   d 8 4C 06 FF FF FF FF FF FF
   11.900000 1  0CF00400x       Rx   d 8 00 D4 39 2F FF FF FF FF
   11.900000 1  0CF00300x       Rx   d 8 00 BD 57 FF FF FF FF FF
   11.900000 1  18FEF100x       Rx   d 8 FF 1F 2E 00 00 00 FF FF
   11.900000 1  18FEF200x       Rx   d 8 CE 05 FF FF FF FF FF FF
   12.000000 1  0CF00400x       Rx   d 8 00 D1 68 2F FF FF FF FF
   12.000000 1  0CF00300x       Rx   d 8 00 C3 54 FF FF FF FF FF
   12.000000 1  18FEF100x       Rx   d 8 FF E9 2C 00 00 00 FF FF
   12.000000 1  18FEF200x       Rx   d 8 0D 06 FF FF FF FF FF FF
   12.000000 1  18FEF600x       Rx   d 8 FF 6D 3C FF FF FF FF FF
   12.000000 1  18FEEF00x       Rx   d 8 FF FF FF 7F FF FF FF FF
   12.000000 1  18FEEE00x       Rx   d 9 81 3C 52 2E FF FF FF 00 FF
   12.000000 1  18FEF700x       Rx   d 8 FF FF FF FF FF FF FB 00
   12.000000 1  18FEF803x       Rx   d 8 FF FF FF FF A0 24 FF FF
   12.000000 1  18FEFC00x       Rx   d 8 FF F9 FF FF FF FF FF FF
   12.000000 1  18FEF500x       Rx   d 9 CA FF FF A0 24 FF FF FF FF
   12.000000 1  18F00503x       Rx   d 8 82 FF FF 82 FF FF FF FF
   12.100000 1  0CF00400x       Rx   d 8 00 D5 09 2F FF FF FF FF
   12.100000 1  0CF00300x       Rx   d 8 00 BD 58 FF FF FF FF FF
   12.100000 1  18FEF100x       Rx   d 8 FF FD 2F 00 00 00 FF FF
   12.100000 1  18FEF200x       Rx   d 8 56 06 FF FF FF FF FF FF
   12.200000 1  0CF00400x       Rx   d 8 00 CE 09 30 FF FF FF FF
   12.200000 1  0CF00300x       Rx   d 8 00 C3 51 FF FF FF FF FF
   12.200000 1  18FEF100x       Rx   d 8 FF D8 2E 00 00 00 FF FF
   12.200000 1  18FEF200x       Rx   d 8 98 06 FF FF FF FF FF FF
   12.300000 1  0CF00400x       Rx   d 8 00 D2 F0 30 FF FF FF FF
   12.300000 1  0CF00300x       Rx   d 8 00 C4 55 FF FF FF FF FF
   12.300000 1  18FEF100x       Rx   d 8 FF 4D 2F 00 00 00 FF FF
   12.300000 1  18FEF200x       Rx   d 8 CA 06 FF FF FF FF FF FF
   12.400000 1  0CF00400x       Rx   d 8 00 D5 00 30 FF FF FF FF
   12.400000 1  0CF00300x       Rx   d 8 00 C9 58 FF FF FF FF FF
   12.400000 1  18FEF100x       Rx   d 8 FF 40 30 00 00 00 FF FF
   12.400000 1  18FEF200x       Rx   d 8 79 06 FF FF FF FF FF FF
   12.500000 1  0CF00400x       Rx   d 8 00 CF 8C 2F FF FF FF FF
   12.500000 1  0CF00300x       Rx   d 8 00 D0 52 FF FF FF FF FF
   12.500000 1  18FEF100x       Rx   d 8 FF 37 31 00 00 00 FF FF
   12.500000 1  18FEF200x       Rx   d 8 7A 05 FF FF FF FF FF FF
   12.500000 1  18FEF600x       Rx   d 8 FF 6C 3C FF FF FF FF FF
   12.500000 1  18FEEF00x       Rx   d 8 FF FF FF 7A FF FF FF FF
   12.600000 1  0CF00400x       Rx   d 8 00 CE 51 31 FF FF FF FF
   12.600000 1  0CF00300x       Rx   d 8 00 C5 51 FF FF FF FF FF
   12.600000 1  18FEF100x       Rx   d 8 FF 10 30 00 00 00 FF FF
   12.600000 1  18FEF200x       Rx   d 8 1F 06 FF FF FF FF FF FF
   12.700000 1  0CF00400x       Rx   d 8 00 D4 83 30 FF FF FF FF
   12.700000 1  0CF00300x       Rx   d 8 00 CD 57 FF FF FF FF FF
   12.700000 1  18FEF100x       Rx   d 8 FF 94 2F 00 00 00 FF FF
   12.700000 1  18FEF200x       Rx   d 8 6F 06 FF FF FF FF FF FF
   12.800000 1  0CF00400x       Rx   d 8 00 D1 53 31 FF FF FF FF
   12.800000 1  0CF00300x       Rx   d 8 00 CC 54 FF FF FF FF FF
   12.800000 1  18FEF100x       Rx   d 8 FF 7D 2F 00 00 00 FF FF
   12.800000 1  18FEF200x       Rx   d 8 23 06 FF FF FF FF FF FF
   12.900000 1  0CF00400x       Rx   d 8 00 D3 C7 30 FF FF FF FF
   12.900000 1  0CF00300x       Rx   d 8 00 C7 56 FF FF FF FF FF
   12.900000 1  18FEF100x       Rx   d 8 FF 69 31 00 00 00 FF FF
   12.900000 1  18FEF200x       Rx   d 8 F0 05 FF FF FF FF FF FF
   13.000000 1  0CF00400x       Rx   d 8 00 D0 D5 30 FF FF FF FF
   13.000000 1  0CF00300x       Rx   d 8 00 C1 53 FF FF FF FF FF
   13.000000 1  18FEF100x       Rx   d 8 FF 8C 2F 00 00 00 FF FF
   13.000000 1  18FEF200x       Rx   d 8 91 06 FF FF FF FF FF FF
   13.000000 1  18FEF600x       Rx   d 8 FF 6A 3C FF FF FF FF FF
   13.000000 1  18FEEF00x       Rx   d 8 FF FF FF 7B FF FF FF FF
   13.000000 1  18FEEE00x       Rx   d 9 80 3C CF 2E FF FF FF 00 FF
   13.000000 1  18FEF700x       Rx   d 8 FF FF FF FF FF FF FB 00
   13.000000 1  18FEF803x       Rx   d 8 FF FF FF FF A0 24 FF FF
   13.000000 1  18FEFC00x       Rx   d 8 FF F9 FF FF FF FF FF FF
   13.000000 1  18FEF500x       Rx   d 9 CA FF FF A0 24 FF FF FF FF
   13.000000 1  18F00503x       Rx   d 8 82 FF FF 82 FF FF FF FF
   13.100000 1  0CF00400x       Rx   d 8 00 CD 90 31 FF FF FF FF
   13.100000 1  0CF00300x       Rx   d 8 00 CF 50 FF FF FF FF FF
   13.100000 1  18FEF100x       Rx   d 8 FF A2 32 00 00 00 FF FF
   13.100000 1  18FEF200x       Rx   d 8 D0 06 FF FF FF FF FF FF
   13.200000 1  0CF00400x       Rx   d 8 00 D1 E4 31 FF FF FF FF
   13.200000 1  0CF00300x       Rx   d 8 00 CD 54 FF FF FF FF FF
   13.200000 1  18FEF100x       Rx   d 8 FF E4 31 00 00 00 FF FF
   13.200000 1  18FEF200x       Rx   d 8 6F 06 FF FF FF FF FF FF
   13.300000 1  0CF00400x       Rx   d 8 00 D5 8F 32 FF FF FF FF
   13.300000 1  0CF00300x       Rx   d 8 00 BD 58 FF FF FF FF FF
   13.300000 1  18FEF100x       Rx   d 8 FF 94 33 00 00 00 FF FF
   13.300000 1  18FEF200x       Rx   d 8 F4 05 FF FF FF FF FF FF
   13.400000 1  0CF00400x       Rx   d 8 00 D2 D2 31 FF FF FF FF
   13.400000 1  0CF00300x       Rx   d 8 00 BF 55 FF FF FF FF FF
   13.400000 1  18FEF100x       Rx   d 8 FF 88 31 00 00 00 FF FF
   13.400000 1  18FEF200x       Rx   d 8 9A 06 FF FF FF FF FF FF
   13.500000 1  0CF00400x       Rx   d 8 00 CE E9 32 FF FF FF FF
   13.500000 1  0CF00300x       Rx   d 8 00 C1 51 FF FF FF FF FF
   13.500000 1  18FEF100x       Rx   d 8 FF C2 33 00 00 00 FF FF
   13.500000 1  18FEF200x       Rx   d 8 BE 05 FF FF FF FF FF FF
   13.500000 1  18FEF600x       Rx   d 8 FF 70 3C FF FF FF FF FF
   13.500000 1  18FEEF00x       Rx   d 8 FF FF FF 7F FF FF FF FF
   13.600000 1  0CF00400x       Rx   d 8 00 D4 02 33 FF FF FF FF
   13.600000 1  0CF00300x       Rx   d 8 00 CE 57 FF FF FF FF FF
   13.600000 1  18FEF100x       Rx   d 8 FF C6 32 00 00 00 FF FF
   13.600000 1  18FEF200x       Rx   d 8 71 06 FF FF FF FF FF FF
   13.700000 1  0CF00400x       Rx   d 8 00 CD 5E 33 FF FF FF FF
   13.700000 1  0CF00300x       Rx   d 8 00 BF 50 FF FF FF FF FF
   13.700000 1  18FEF100x       Rx   d 8 FF 9B 33 00 00 00 FF FF
   13.700000 1  18FEF200x       Rx   d 8 42 06 FF FF FF FF FF FF
   13.800000 1  0CF00400x       Rx   d 8 00 D5 84 32 FF FF FF FF
   13.800000 1  0CF00300x       Rx   d 8 00 BC 58 FF FF FF FF FF
   13.800000 1  18FEF100x       Rx   d 8 FF 35 33 00 00 00 FF FF
   13.800000 1  18FEF200x       Rx   d 8 42 06 FF FF FF FF FF FF
   13.900000 1  0CF00400x       Rx   d 8 00 D5 FE 32 FF FF FF FF
   13.900000 1  0CF00300x       Rx   d 8 00 CF 58 FF FF FF FF FF
   13.900000 1  18FEF100x       Rx   d 8 FF EA 33 00 00 00 FF FF
   13.900000 1  18FEF200x       Rx   d 8 36 06 FF FF FF FF FF FF
   14.000000 1  0CF00400x       Rx   d 8 00 D5 98 32 FF FF FF FF
   14.000000 1  0CF00300x       Rx   d 8 00 BE 58 FF FF FF FF FF
   14.000000 1  18FEF100x       Rx   d 8 FF 3F 32 00 00 00 FF FF
   14.000000 1  18FEF200x       Rx   d 8 DB 05 FF FF FF FF FF FF
   14.000000 1  18FEF600x       Rx   d 8 FF 6E 3C FF FF FF FF FF
   14.000000 1  18FEEF00x       Rx   d 8 FF FF FF 78 FF FF FF FF
   14.000000 1  18FEEE00x       Rx   d 9 81 3C C9 2E FF FF FF 00 FF
   14.000000 1  18FEF700x       Rx   d 8 FF FF FF FF FF FF FB 00
   14.000000 1  18FEF803x       Rx   d 8 FF FF FF FF A0 24 FF FF
   14.000000 1  18FEFC00x       Rx   d 8 FF F9 FF FF FF FF FF FF
   14.000000 1  18FEF500x       Rx   d 9 CA FF FF A0 24 FF FF FF FF
   14.000000 1  18F00503x       Rx   d 8 82 FF FF 82 FF FF FF FF
   14.100000 1  0CF00400x       Rx   d 8 00 CE 52 33 FF FF FF FF
   14.100000 1  0CF00300x       Rx   d 8 00 C8 51 FF FF FF FF FF
   14.100000 1  18FEF100x       Rx   d 8 FF 0E 34 00 00 00 FF FF
   14.100000 1  18FEF200x       Rx   d 8 67 06 FF FF FF FF FF FF
   14.200000 1  0CF00400x       Rx   d 8 00 CD 2A 34 FF FF FF FF
   14.200000 1  0CF00300x       Rx   d 8 00 BD 50 FF FF FF FF FF
   14.200000 1  18FEF100x       Rx   d 8 FF 30 35 00 00 00 FF FF
   14.200000 1  18FEF200x       Rx   d 8 E2 06 FF FF FF FF FF FF
   14.300000 1  0CF00400x       Rx   d 8 00 CE 83 34 FF FF FF FF
   14.300000 1  0CF00300x       Rx   d 8 00 CA 51 FF FF FF FF FF
   14.300000 1  18FEF100x       Rx   d 8 FF 3B 34 00 00 00 FF FF
   14.300000 1  18FEF200x       Rx   d 8 66 06 FF FF FF FF FF FF
   14.400000 1  0CF00400x       Rx   d 8 00 D4 D2 34 FF FF FF FF
   14.400000 1  0CF00300x       Rx   d 8 00 C4 57 FF FF FF FF FF
   14.400000 1  18FEF100x       Rx   d 8 FF 70 34 00 00 00 FF FF
   14.400000 1  18FEF200x       Rx   d 8 8A 06 FF FF FF FF FF FF
   14.500000 1  0CF00400x       Rx   d 8 00 D0 3C 34 FF FF FF FF
   14.500000 1  0CF00300x       Rx   d 8 00 C6 53 FF FF FF FF FF
   14.500000 1  18FEF100x       Rx   d 8 FF 15 36 00 00 00 FF FF
   14.500000 1  18FEF200x       Rx   d 8 3A 06 FF FF FF FF FF FF
   14.500000 1  18FEF600x       Rx   d 8 FF 6B 3C FF FF FF FF FF
   14.500000 1  18FEEF00x       Rx   d 8 FF FF FF 83 FF FF FF FF
   14.600000 1  0CF00400x       Rx   d 8 00 D5 DC 33 FF FF FF FF
   14.600000 1  0CF00300x       Rx   d 8 00 BD 58 FF FF FF FF FF
   14.600000 1  18FEF100x       Rx   d 8 FF 59 34 00 00 00 FF FF
   14.600000 1  18FEF200x       Rx   d 8 87 05 FF FF FF FF FF FF
   14.700000 1  0CF00400x       Rx   d 8 00 D0 41 34 FF FF FF FF
   14.700000 1  0CF00300x       Rx   d 8 00 BE 53 FF FF FF FF FF
   14.700000 1  18FEF100x       Rx   d 8 FF 2A 37 00 00 00 FF FF
   14.700000 1  18FEF200x       Rx   d 8 BA 05 FF FF FF FF FF FF
   14.800000 1  0CF00400x       Rx   d 8 00 CF A2 34 FF FF FF FF
   14.800000 1  0CF00300x       Rx   d 8 00 CC 52 FF FF FF FF FF
   14.800000 1  18FEF100x       Rx   d 8 FF 0B 36 00 00 00 FF FF
   14.800000 1  18FEF200x       Rx   d 8 4D 06 FF FF FF FF FF FF
   14.900000 1  0CF00400x       Rx   d 8 00 D5 94 34 FF FF FF FF
   14.900000 1  0CF00300x       Rx   d 8 00 C7 58 FF FF FF FF FF
   14.900000 1  18FEF100x       Rx   d 8 FF EF 37 00 00 00 FF FF
   14.900000 1  18FEF200x       Rx   d 8 E8 05 FF FF FF FF FF FF
   15.000000 1  0CF00400x       Rx   d 8 00 D5 E7 34 FF FF FF FF
   15.000000 1  0CF00300x       Rx   d 8 00 D3 58 FF FF FF FF FF
   15.000000 1  18FEF100x       Rx   d 8 FF 1C 37 00 00 00 FF FF
   15.000000 1  18FEF200x       Rx   d 8 D5 06 FF FF FF FF FF FF
   15.000000 1  18FEF600x       Rx   d 8 FF 6B 3C FF FF FF FF FF
   15.000000 1  18FEEF00x       Rx   d 8 FF FF FF 7F FF FF FF FF
   15.000000 1  18FEEE00x       Rx   d 9 83 3C 5A 2E FF FF FF 00 FF
   15.000000 1  18FEF700x       Rx   d 8 FF FF FF FF FF FF FB 00
   15.000000 1  18FEF803x       Rx   d 8 FF FF FF FF A0 24 FF FF
   15.000000 1  18FEFC00x       Rx   d 8 FF F9 FF FF FF FF FF FF
   15.000000 1  18FEF500x       Rx   d 9 CA FF FF A0 24 FF FF FF FF
   15.000000 1  18F00503x       Rx   d 8 83 FF FF 83 FF FF FF FF
   15.100000 1  0CF00400x       Rx   d 8 00 D5 6A 35 FF FF FF FF
   15.100000 1  0CF00300x       Rx   d 8 00 D0 58 FF FF FF FF FF
   15.100000 1  18FEF100x       Rx   d 8 FF B5 35 00 00 00 FF FF
   15.100000 1  18FEF200x       Rx   d 8 B2 05 FF FF FF FF FF FF
   15.200000 1  0CF00400x       Rx   d 8 00 D1 61 35 FF FF FF FF
   15.200000 1  0CF00300x       Rx   d 8 00 C1 54 FF FF FF FF FF
   15.200000 1  18FEF100x       Rx   d 8 FF 62 39 00 00 00 FF FF
   15.200000 1  18FEF200x       Rx   d 8 D6 05 FF FF FF FF FF FF
   15.300000 1  0CF00400x       Rx   d 8 00 D6 9D 36 FF FF FF FF
   15.300000 1  0CF00300x       Rx   d 8 00 BC 59 FF FF FF FF FF
   15.300000 1  18FEF100x       Rx   d 8 FF 66 37 00 00 00 FF FF
   15.300000 1  18FEF200x       Rx   d 8 EA 05 FF FF FF FF FF FF
   15.400000 1  0CF00400x       Rx   d 8 00 D4 7E 36 FF FF FF FF
   15.400000 1  0CF00300x       Rx   d 8 00 BE 57 FF FF FF FF FF
   15.400000 1  18FEF100x       Rx   d 8 FF FB 38 00 00 00 FF FF
   15.400000 1  18FEF200x       Rx   d 8 C5 06 FF FF FF FF FF FF
   15.500000 1  0CF00400x       Rx   d 8 00 CE 27 36 FF FF FF FF
   15.500000 1  0CF00300x       Rx   d 8 00 C8 51 FF FF FF FF FF
   15.500000 1  18FEF100x       Rx   d 8 FF 68 39 00 00 00 FF FF
   15.500000 1  18FEF200x       Rx   d 8 B5 06 FF FF FF FF FF FF
   15.500000 1  18FEF600x       Rx   d 8 FF 69 3C FF FF FF FF FF
   15.500000 1  18FEEF00x       Rx   d 8 FF FF FF 7B FF FF FF FF
   15.600000 1  0CF00400x       Rx   d 8 00 D2 2B 36 FF FF FF FF
   15.600000 1  0CF00300x       Rx   d 8 00 D2 55 FF FF FF FF FF
   15.600000 1  18FEF100x       Rx   d 8 FF 3E 37 00 00 00 FF FF
   15.600000 1  18FEF200x       Rx   d 8 23 06 FF FF FF FF FF FF
   15.700000 1  0CF00400x       Rx   d 8 00 D3 A7 36 FF FF FF FF
   15.700000 1  0CF00300x       Rx   d 8 00 C5 56 FF FF FF FF FF
   15.700000 1  18FEF100x       Rx   d 8 FF 0F 38 00 00 00 FF FF
   15.700000 1  18FEF200x       Rx   d 8 42 06 FF FF FF FF FF FF
   15.800000 1  0CF00400x       Rx   d 8 00 D1 8A 37 FF FF FF FF
   15.800000 1  0CF00300x       Rx   d 8 00 C5 54 FF FF FF FF FF
   15.800000 1  18FEF100x       Rx   d 8 FF 9D 39 00 00 00 FF FF
   15.800000 1  18FEF200x       Rx   d 8 B3 06 FF FF FF FF FF FF
   15.900000 1  0CF00400x       Rx   d 8 00 D4 85 36 FF FF FF FF
   15.900000 1  0CF00300x       Rx   d 8 00 CB 57 FF FF FF FF FF
   15.900000 1  18FEF100x       Rx   d 8 FF A1 3A 00 00 00 FF FF
   15.900000 1  18FEF200x       Rx   d 8 BD 06 FF FF FF FF FF FF
   16.000000 1  0CF00400x       Rx   d 8 00 D3 64 36 FF FF FF FF
   16.000000 1  0CF00300x       Rx   d 8 00 C7 56 FF FF FF FF FF
   16.000000 1  18FEF100x       Rx   d 8 FF 1D 3B 00 00 00 FF FF
   16.000000 1  18FEF200x       Rx   d 8 2F 06 FF FF FF FF FF FF
   16.000000 1  18FEF600x       Rx   d 8 FF 69 3C FF FF FF FF FF
   16.000000 1  18FEEF00x       Rx   d 8 FF FF FF 81 FF FF FF FF
   16.000000 1  18FEEE00x       Rx   d 9 82 3C DB 2E FF FF FF 00 FF
   16.000000 1  18FEF700x       Rx   d 8 FF FF FF FF FF FF FB 00
   16.000000 1  18FEF803x       Rx   d 8 FF FF FF FF A0 24 FF FF
   16.000000 1  18FEFC00x       Rx   d 8 FF F9 FF FF FF FF FF FF
   16.000000 1  18FEF500x       Rx   d 9 CA FF FF A0 24 FF FF FF FF
   16.000000 1  18F00503x       Rx   d 8 83 FF FF 83 FF FF FF FF
   16.100000 1  0CF00400x       Rx   d 8 00 CD CC 36 FF FF FF FF
   16.100000 1  0CF00300x       Rx   d 8 00 C0 50 FF FF FF FF FF
   16.100000 1  18FEF100x       Rx   d 8 FF 79 38 00 00 00 FF FF
   16.100000 1  18FEF200x       Rx   d 8 DD 05 FF FF FF FF FF FF
   16.200000 1  0CF00400x       Rx   d 8 00 D4 D9 37 FF FF FF FF
   16.200000 1  0CF00300x       Rx   d 8 00 C4 57 FF FF FF FF FF
   16.200000 1  18FEF100x       Rx   d 8 FF 5D 39 00 00 00 FF FF
   16.200000 1  18FEF200x       Rx   d 8 DB 06 FF FF FF FF FF FF
   16.300000 1  0CF00400x       Rx   d 8 00 D6 04 38 FF FF FF FF
   16.300000 1  0CF00300x       Rx   d 8 00 C5 59 FF FF FF FF FF
   16.300000 1  18FEF100x       Rx   d 8 FF 7A 3C 00 00 00 FF FF
   16.300000 1  18FEF200x       Rx   d 8 B8 06 FF FF FF FF FF FF
   16.400000 1  0CF00400x       Rx   d 8 00 D5 2C 38 FF FF FF FF
   16.400000 1  0CF00300x       Rx   d 8 00 CA 58 FF FF FF FF FF
   16.400000 1  18FEF100x       Rx   d 8 FF 84 39 00 00 00 FF FF
   16.400000 1  18FEF200x       Rx   d 8 F2 05 FF FF FF FF FF FF
   16.500000 1  0CF00400x       Rx   d 8 00 D0 21 38 FF FF FF FF
   16.500000 1  0CF00300x       Rx   d 8 00 CC 53 FF FF FF FF FF
   16.500000 1  18FEF100x       Rx   d 8 FF 34 3B 00 00 00 FF FF
   16.500000 1  18FEF200x       Rx   d 8 E5 05 FF FF FF FF FF FF
   16.500000 1  18FEF600x       Rx   d 8 FF 6C 3C FF FF FF FF FF
   16.500000 1  18FEEF00x       Rx   d 8 FF FF FF 84 FF FF FF FF
   16.600000 1  0CF00400x       Rx   d 8 00 D3 06 39 FF FF FF FF
   16.600000 1  0CF00300x       Rx   d 8 00 BD 56 FF FF FF FF FF
   16.600000 1  18FEF100x       Rx   d 8 FF 97 3D 00 00 00 FF FF
   16.600000 1  18FEF200x       Rx   d 8 B1 05 FF FF FF FF FF FF
   16.700000 1  0CF00400x       Rx   d 8 00 CD 83 38 FF FF FF FF
   16.700000 1  0CF00300x       Rx   d 8 00 BC 50 FF FF FF FF FF
   16.700000 1  18FEF100x       Rx   d 8 FF 39 3D 00 00 00 FF FF
   16.700000 1  18FEF200x       Rx   d 8 6A 06 FF FF FF FF FF FF
   16.800000 1  0CF00400x       Rx   d 8 00 D4 D5 38 FF FF FF FF
   16.800000 1  0CF00300x       Rx   d 8 00 C4 57 FF FF FF FF FF
   16.800000 1  18FEF100x       Rx   d 8 FF 31 3E 00 00 00 FF FF
   16.800000 1  18FEF200x       Rx   d 8 DB 05 FF FF FF FF FF FF
   16.900000 1  0CF00400x       Rx   d 8 00 D0 F6 37 FF FF FF FF
   16.900000 1  0CF00300x       Rx   d 8 00 C7 53 FF FF FF FF FF
   16.900000 1  18FEF100x       Rx   d 8 FF A4 3D 00 00 00 FF FF
   16.900000 1  18FEF200x       Rx   d 8 06 07 FF FF FF FF FF FF
   17.000000 1  0CF00400x       Rx   d 8 00 CE 79 38 FF FF FF FF
   17.000000 1  0CF00300x       Rx   d 8 00 C7 51 FF FF FF FF FF
   17.000000 1  18FEF100x       Rx   d 8 FF AA 3E 00 00 00 FF FF
   17.000000 1  18FEF200x       Rx   d 8 9B 05 FF FF FF FF FF FF
   17.000000 1  18FEF600x       Rx   d 8 FF 71 3C FF FF FF FF FF
   17.000000 1  18FEEF00x       Rx   d 8 FF FF FF 7C FF FF FF FF
   17.000000 1  18FEEE00x       Rx   d 9 83 3C 96 2E FF FF FF 00 FF
   17.000000 1  18FEF700x       Rx   d 8 FF FF FF FF FF FF FB 00
   17.000000 1  18FEF803x       Rx   d 8 FF FF FF FF A0 24 FF FF
   17.000000 1  18FEFC00x       Rx   d 8 FF F9 FF FF FF FF FF FF
   17.000000 1  18FEF500x       Rx   d 9 CA FF FF A0 24 FF FF FF FF
   17.000000 1  18F00503x       Rx   d 8 83 FF FF 83 FF FF FF FF
   17.100000 1  0CF00400x       Rx   d 8 00 D0 67 39 FF FF FF FF
   17.100000 1  0CF00300x       Rx   d 8 00 C3 53 FF FF FF FF FF
   17.100000 1  18FEF100x       Rx   d 8 FF AE 3E 00 00 00 FF FF
   17.100000 1  18FEF200x       Rx   d 8 94 06 FF FF FF FF FF FF
   17.200000 1  0CF00400x       Rx   d 8 00 D2 0D 3A FF FF FF FF
   17.200000 1  0CF00300x       Rx   d 8 00 CF 55 FF FF FF FF FF
   17.200000 1  18FEF100x       Rx   d 8 FF 26 3E 00 00 00 FF FF
   17.200000 1  18FEF200x       Rx   d 8 82 05 FF FF FF FF FF FF
   17.300000 1  0CF00400x       Rx   d 8 00 D2 89 39 FF FF FF FF
   17.300000 1  0CF00300x       Rx   d 8 00 CF 55 FF FF FF FF FF
   17.300000 1  18FEF100x       Rx   d 8 FF 60 3D 00 00 00 FF FF
   17.300000 1  18FEF200x       Rx   d 8 97 06 FF FF FF FF FF FF
   17.400000 1  0CF00400x       Rx   d 8 00 CD AC 39 FF FF FF FF
   17.400000 1  0CF00300x       Rx   d 8 00 D0 50 FF FF FF FF FF
   17.400000 1  18FEF100x       Rx   d 8 FF 46 3F 00 00 00 FF FF
   17.400000 1  18FEF200x       Rx   d 8 01 06 FF FF FF FF FF FF
   17.500000 1  0CF00400x       Rx   d 8 00 CE 85 3A FF FF FF FF
   17.500000 1  0CF00300x       Rx   d 8 00 CB 51 FF FF FF FF FF
   17.500000 1  18FEF100x       Rx   d 8 FF 9E 3F 00 00 00 FF FF
   17.500000 1  18FEF200x       Rx   d 8 A9 05 FF FF FF FF FF FF
   17.500000 1  18FEF600x       Rx   d 8 FF 72 3C FF FF FF FF FF
   17.500000 1  18FEEF00x       Rx   d 8 FF FF FF 76 FF FF FF FF
   17.600000 1  0CF00400x       Rx   d 8 00 D4 59 39 FF FF FF FF
   17.600000 1  0CF00300x       Rx   d 8 00 C3 57 FF FF FF FF FF
   17.600000 1  18FEF100x       Rx   d 8 FF 75 3D 00 00 00 FF FF
   17.600000 1  18FEF200x       Rx   d 8 DC 05 FF FF FF FF FF FF
   17.700000 1  0CF00400x       Rx   d 8 00 D0 70 3A FF FF FF FF
   17.700000 1  0CF00300x       Rx   d 8 00 BE 53 FF FF FF FF FF
   17.700000 1  18FEF100x       Rx   d 8 FF 4D 3F 00 00 00 FF FF
   17.700000 1  18FEF200x       Rx   d 8 B5 05 FF FF FF FF FF FF
   17.800000 1  0CF00400x       Rx   d 8 00 D5 AC 3A FF FF FF FF
   17.800000 1  0CF00300x       Rx   d 8 00 CA 58 FF FF FF FF FF
   17.800000 1  18FEF100x       Rx   d 8 FF 48 40 00 00 00 FF FF
   17.800000 1  18FEF200x       Rx   d 8 78 06 FF FF FF FF FF FF
   17.900000 1  0CF00400x       Rx   d 8 00 D1 B4 3A FF FF FF FF
   17.900000 1  0CF00300x       Rx   d 8 00 CE 54 FF FF FF FF FF
   17.900000 1  18FEF100x       Rx   d 8 FF 4D 40 00 00 00 FF FF
   17.900000 1  18FEF200x       Rx   d 8 F6 06 FF FF FF FF FF FF
   18.000000 1  0CF00400x       Rx   d 8 00 CF B7 3A FF FF FF FF
   18.000000 1  0CF00300x       Rx   d 8 00 CC 52 FF FF FF FF FF
   18.000000 1  18FEF100x       Rx   d 8 FF 38 41 00 00 00 FF FF
   18.000000 1  18FEF200x       Rx   d 8 C9 05 FF FF FF FF FF FF
   18.000000 1  18FEF600x       Rx   d 8 FF 6D 3C FF FF FF FF FF
   18.000000 1  18FEEF00x       Rx   d 8 FF FF FF 7C FF FF FF FF
   18.000000 1  18FEEE00x       Rx   d 9 80 3C 4B 2E FF FF FF 00 FF
   18.000000 1  18FEF700x       Rx   d 8 FF FF FF FF FF FF FB 00
   18.000000 1  18FEF803x       Rx   d 8 FF FF FF FF A0 24 FF FF
   18.000000 1  18FEFC00x       Rx   d 8 FF F9 FF FF FF FF FF FF
   18.000000 1  18FEF500x       Rx   d 9 CA FF FF A0 24 FF FF FF FF
   18.000000 1  18F00503x       Rx   d 8 84 FF FF 84 FF FF FF FF
   18.100000 1  0CF00400x       Rx   d 8 00 D4 23 3B FF FF FF FF
   18.100000 1  0CF00300x       Rx   d 8 00 CD 57 FF FF FF FF FF
   18.100000 1  18FEF100x       Rx   d 8 FF 8C 3F 00 00 00 FF FF
   18.100000 1  18FEF200x       Rx   d 8 58 06 FF FF FF FF FF FF
   18.200000 1  0CF00400x       Rx   d 8 00 CF C9 3A FF FF FF FF
   18.200000 1  0CF00300x       Rx   d 8 00 C2 52 FF FF FF FF FF
   18.200000 1  18FEF100x       Rx   d 8 FF 77 40 00 00 00 FF FF
   18.200000 1  18FEF200x       Rx   d 8 DB 05 FF FF FF FF FF FF
   18.300000 1  0CF00400x       Rx   d 8 00 D2 FF 3B FF FF FF FF
   18.300000 1  0CF00300x       Rx   d 8 00 C3 55 FF FF FF FF FF
   18.300000 1  18FEF100x       Rx   d 8 FF 89 3F 00 00 00 FF FF
   18.300000 1  18FEF200x       Rx   d 8 3F 06 FF FF FF FF FF FF
   18.400000 1  0CF00400x       Rx   d 8 00 D2 24 3B FF FF FF FF
   18.400000 1  0CF00300x       Rx   d 8 00 D3 55 FF FF FF FF FF
   18.400000 1  18FEF100x       Rx   d 8 FF 4A 3F 00 00 00 FF FF
   18.400000 1  18FEF200x       Rx   d 8 3D 06 FF FF FF FF FF FF
   18.500000 1  0CF00400x       Rx   d 8 00 D2 67 3C FF FF FF FF
   18.500000 1  0CF00300x       Rx   d 8 00 C7 55 FF FF FF FF FF
   18.500000 1  18FEF100x       Rx   d 8 FF 1D 42 00 00 00 FF FF
   18.500000 1  18FEF200x       Rx   d 8 A9 06 FF FF FF FF FF FF
   18.500000 1  18FEF600x       Rx   d 8 FF 71 3C FF FF FF FF FF
   18.500000 1  18FEEF00x       Rx   d 8 FF FF FF 80 FF FF FF FF
   18.600000 1  0CF00400x       Rx   d 8 00 CE 9F 3B FF FF FF FF
   18.600000 1  0CF00300x       Rx   d 8 00 C9 51 FF FF FF FF FF
   18.600000 1  18FEF100x       Rx   d 8 FF 66 41 00 00 00 FF FF
   18.600000 1  18FEF200x       Rx   d 8 E7 05 FF FF FF FF FF FF
   18.700000 1  0CF00400x       Rx   d 8 00 D6 FA 3C FF FF FF FF
   18.700000 1  0CF00300x       Rx   d 8 00 BE 59 FF FF FF FF FF
   18.700000 1  18FEF100x       Rx   d 8 FF D2 42 00 00 00 FF FF
   18.700000 1  18FEF200x       Rx   d 8 A5 06 FF FF FF FF FF FF
   18.800000 1  0CF00400x       Rx   d 8 00 CD AF 3B FF FF FF FF
   18.800000 1  0CF00300x       Rx   d 8 00 C8 50 FF FF FF FF FF
   18.800000 1  18FEF100x       Rx   d 8 FF 6F 42 00 00 00 FF FF
   18.800000 1  18FEF200x       Rx   d 8 6A 06 FF FF FF FF FF FF
   18.900000 1  0CF00400x       Rx   d 8 00 CE 77 3C FF FF FF FF
   18.900000 1  0CF00300x       Rx   d 8 00 CA 51 FF FF FF FF FF
   18.900000 1  18FEF100x       Rx   d 8 FF 03 42 00 00 00 FF FF
   18.900000 1  18FEF200x       Rx   d 8 C3 06 FF FF FF FF FF FF
   19.000000 1  0CF00400x       Rx   d 8 00 D5 AF 3C FF FF FF FF
   19.000000 1  0CF00300x       Rx   d 8 00 C2 58 FF FF FF FF FF
   19.000000 1  18FEF100x       Rx   d 8 FF D5 43 00 00 00 FF FF
   19.000000 1  18FEF200x       Rx   d 8 B6 06 FF FF FF FF FF FF
   19.000000 1  18FEF600x       Rx   d 8 FF 72 3C FF FF FF FF FF
   19.000000 1  18FEEF00x       Rx   d 8 FF FF FF 7E FF FF FF FF
   19.000000 1  18FEEE00x       Rx   d 9 81 3C C1 2E FF FF FF 00 FF
   19.000000 1  18FEF700x       Rx   d 8 FF FF FF FF FF FF FB 00
   19.000000 1  18FEF803x       Rx   d 8 FF FF FF FF A0 24 FF FF
   19.000000 1  18FEFC00x       Rx   d 8 FF F9 FF FF FF FF FF FF
   19.000000 1  18FEF500x       Rx   d 9 CA FF FF A0 24 FF FF FF FF
   19.000000 1  18F00503x       Rx   d 8 84 FF FF 84 FF FF FF FF
   19.100000 1  0CF00400x       Rx   d 8 00 D1 3C 3D FF FF FF FF
   19.100000 1  0CF00300x       Rx   d 8 00 BC 54 FF FF FF FF FF
   19.100000 1  18FEF100x       Rx   d 8 FF 0D 44 00 00 00 FF FF
   19.100000 1  18FEF200x       Rx   d 8 98 06 FF FF FF FF FF FF
   19.200000 1  0CF00400x       Rx   d 8 00 D3 28 3D FF FF FF FF
   19.200000 1  0CF00300x       Rx   d 8 00 CB 56 FF FF FF FF FF
   19.200000 1  18FEF100x       Rx   d 8 FF 48 42 00 00 00 FF FF
   19.200000 1  18FEF200x       Rx   d 8 F3 06 FF FF FF FF FF FF
   19.300000 1  0CF00400x       Rx   d 8 00 CE 74 3C FF FF FF FF
   19.300000 1  0CF00300x       Rx   d 8 00 C3 51 FF FF FF FF FF
   19.300000 1  18FEF100x       Rx   d 8 FF F9 41 00 00 00 FF FF
   19.300000 1  18FEF200x       Rx   d 8 D5 06 FF FF FF FF FF FF
   19.400000 1  0CF00400x       Rx   d 8 00 CF D1 3D FF FF FF FF
   19.400000 1  0CF00300x       Rx   d 8 00 BE 52 FF FF FF FF FF
   19.400000 1  18FEF100x       Rx   d 8 FF 72 42 00 00 00 FF FF
   19.400000 1  18FEF200x       Rx   d 8 BD 05 FF FF FF FF FF FF
   19.500000 1  0CF00400x       Rx   d 8 00 D4 55 3E FF FF FF FF
   19.500000 1  0CF00300x       Rx   d 8 00 C4 57 FF FF FF FF FF
   19.500000 1  18FEF100x       Rx   d 8 FF DE 43 00 00 00 FF FF
   19.500000 1  18FEF200x       Rx   d 8 C4 05 FF FF FF FF FF FF
   19.500000 1  18FEF600x       Rx   d 8 FF 6F 3C FF FF FF FF FF
   19.500000 1  18FEEF00x       Rx   d 8 FF FF FF 7E FF FF FF FF
   19.600000 1  0CF00400x       Rx   d 8 00 D6 46 3D FF FF FF FF
   19.600000 1  0CF00300x       Rx   d 8 00 C1 59 FF FF FF FF FF
   19.600000 1  18FEF100x       Rx   d 8 FF 08 45 00 00 00 FF FF
   19.600000 1  18FEF200x       Rx   d 8 F6 05 FF FF FF FF FF FF
   19.700000 1  0CF00400x       Rx   d 8 00 CF A7 3D FF FF FF FF
   19.700000 1  0CF00300x       Rx   d 8 00 CF 52 FF FF FF FF FF
   19.700000 1  18FEF100x       Rx   d 8 FF D5 46 00 00 00 FF FF
   19.700000 1  18FEF200x       Rx   d 8 BF 06 FF FF FF FF FF FF
   19.800000 1  0CF00400x       Rx   d 8 00 CF FA 3E FF FF FF FF
   19.800000 1  0CF00300x       Rx   d 8 00 C2 52 FF FF FF FF FF
   19.800000 1  18FEF100x       Rx   d 8 FF 9E 46 00 00 00 FF FF
   19.800000 1  18FEF200x       Rx   d 8 37 06 FF FF FF FF FF FF
   19.900000 1  0CF00400x       Rx   d 8 00 D3 C0 3D FF FF FF FF
   19.900000 1  0CF00300x       Rx   d 8 00 D2 56 FF FF FF FF FF
   19.900000 1  18FEF100x       Rx   d 8 FF DA 45 00 00 00 FF FF
   19.900000 1  18FEF200x       Rx   d 8 83 06 FF FF FF FF FF FF
   20.000000 1  0CF00400x       Rx   d 8 00 D1 8E 3E FF FF FF FF
   20.000000 1  0CF00300x       Rx   d 8 00 BC 54 FF FF FF FF FF
   20.000000 1  18FEF100x       Rx   d 8 FF 8D 46 00 00 00 FF FF
   20.000000 1  18FEF200x       Rx   d 8 54 06 FF FF FF FF FF FF
   20.000000 1  18FEF600x       Rx   d 8 FF 70 3C FF FF FF FF FF
   20.000000 1  18FEEF00x       Rx   d 8 FF FF FF 75 FF FF FF FF
   20.000000 1  18FEEE00x       Rx   d 9 82 3C 53 2E FF FF FF 00 FF
   20.000000 1  18FEF700x       Rx   d 8 FF FF FF FF FF FF FB 00
   20.000000 1  18FEF803x       Rx   d 8 FF FF FF FF A0 24 FF FF
   20.000000 1  18FEFC00x       Rx   d 8 FF F9 FF FF FF FF FF FF
   20.000000 1  18FEF500x       Rx   d 9 CA FF FF A0 24 FF FF FF FF
   20.000000 1  18F00503x       Rx   d 8 84 FF FF 84 FF FF FF FF
   20.000000 1  18FEE500x       Rx   d 8 40 0D 03 00 FF FF FF FF
   20.100000 1  0CF00400x       Rx   d 8 00 D5 7D 3F FF FF FF FF
   20.100000 1  0CF00300x       Rx   d 8 00 D2 58 FF FF FF FF FF
   20.100000 1  18FEF100x       Rx   d 8 FF ED 45 00 00 00 FF FF
   20.100000 1  18FEF200x       Rx   d 8 7A 06 FF FF FF FF FF FF
   20.200000 1  0CF00400x       Rx   d 8 00 D2 A3 3F FF FF FF FF
   20.200000 1  0CF00300x       Rx   d 8 00 C9 55 FF FF FF FF FF
   20.200000 1  18FEF100x       Rx   d 8 FF F5 44 00 00 00 FF FF
   20.200000 1  18FEF200x       Rx   d 8 D8 06 FF FF FF FF FF FF
   20.300000 1  0CF00400x       Rx   d 8 00 D0 74 3E FF FF FF FF
   20.300000 1  0CF00300x       Rx   d 8 00 D4 53 FF FF FF FF FF
   20.300000 1  18FEF100x       Rx   d 8 FF 94 48 00 00 00 FF FF
   20.300000 1  18FEF200x       Rx   d 8 D6 06 FF FF FF FF FF FF
   20.400000 1  0CF00400x       Rx   d 8 00 D6 54 3E FF FF FF FF
   20.400000 1  0CF00300x       Rx   d 8 00 BE 59 FF FF FF FF FF
   20.400000 1  18FEF100x       Rx   d 8 FF 78 47 00 00 00 FF FF
   20.400000 1  18FEF200x       Rx   d 8 EF 06 FF FF FF FF FF FF
   20.500000 1  0CF00400x       Rx   d 8 00 CE 18 40 FF FF FF FF
   20.500000 1  0CF00300x       Rx   d 8 00 C0 51 FF FF FF FF FF
   20.500000 1  18FEF100x       Rx   d 8 FF 5F 47 00 00 00 FF FF
   20.500000 1  18FEF200x       Rx   d 8 9E 06 FF FF FF FF FF FF
   20.500000 1  18FEF600x       Rx   d 8 FF 6B 3C FF FF FF FF FF
   20.500000 1  18FEEF00x       Rx   d 8 FF FF FF 78 FF FF FF FF
   20.600000 1  0CF00400x       Rx   d 8 00 CE 2B 40 FF FF FF FF
   20.600000 1  0CF00300x       Rx   d 8 00 CE 51 FF FF FF FF FF
   20.600000 1  18FEF100x       Rx   d 8 FF 12 48 00 00 00 FF FF
   20.600000 1  18FEF200x       Rx   d 8 9A 05 FF FF FF FF FF FF
   20.700000 1  0CF00400x       Rx   d 8 00 D0 21 40 FF FF FF FF
   20.700000 1  0CF00300x       Rx   d 8 00 BF 53 FF FF FF FF FF
   20.700000 1  18FEF100x       Rx   d 8 FF D6 46 00 00 00 FF FF
   20.700000 1  18FEF200x       Rx   d 8 F5 06 FF FF FF FF FF FF
   20.800000 1  0CF00400x       Rx   d 8 00 D3 A0 3F FF FF FF FF
   20.800000 1  0CF00300x       Rx   d 8 00 BB 56 FF FF FF FF FF
   20.800000 1  18FEF100x       Rx   d 8 FF 4A 49 00 00 00 FF FF
   20.800000 1  18FEF200x       Rx   d 8 1A 06 FF FF FF FF FF FF
   20.900000 1  0CF00400x       Rx   d 8 00 D0 31 40 FF FF FF FF
   20.900000 1  0CF00300x       Rx   d 8 00 CD 53 FF FF FF FF FF
   20.900000 1  18FEF100x       Rx   d 8 FF 47 4A 00 00 00 FF FF
   20.900000 1  18FEF200x       Rx   d 8 CF 05 FF FF FF FF FF FF
   21.000000 1  0CF00400x       Rx   d 8 00 D3 B0 3F FF FF FF FF
   21.000000 1  0CF00300x       Rx   d 8 00 CE 56 FF FF FF FF FF
   21.000000 1  18FEF100x       Rx   d 8 FF 9C 47 00 00 00 FF FF
   21.000000 1  18FEF200x       Rx   d 8 81 06 FF FF FF FF FF FF
   21.000000 1  18FEF600x       Rx   d 8 FF 6D 3C FF FF FF FF FF
   21.000000 1  18FEEF00x       Rx   d 8 FF FF FF 7D FF FF FF FF
   21.000000 1  18FEEE00x       Rx   d 9 81 3C A9 2E FF FF FF 00 FF
   21.000000 1  18FEF700x       Rx   d 8 FF FF FF FF FF FF FB 00
   21.000000 1  18FEF803x       Rx   d 8 FF FF FF FF A0 24 FF FF
   21.000000 1  18FEFC00x       Rx   d 8 FF F9 FF FF FF FF FF FF
   21.000000 1  18FEF500x       Rx   d 9 CA FF FF A0 24 FF FF FF FF
   21.000000 1  18F00503x       Rx   d 8 85 FF FF 85 FF FF FF FF
   21.100000 1  0CF00400x       Rx   d 8 00 D5 08 40 FF FF FF FF
   21.100000 1  0CF00300x       Rx   d 8 00 CE 58 FF FF FF FF FF
   21.100000 1  18FEF100x       Rx   d 8 FF 4A 48 00 00 00 FF FF
   21.100000 1  18FEF200x       Rx   d 8 59 06 FF FF FF FF FF FF
   21.200000 1  0CF00400x       Rx   d 8 00 D2 ED 3F FF FF FF FF
   21.200000 1  0CF00300x       Rx   d 8 00 C8 55 FF FF FF FF FF
   21.200000 1  18FEF100x       Rx   d 8 FF CA 49 00 00 00 FF FF
   21.200000 1  18FEF200x       Rx   d 8 CA 05 FF FF FF FF FF FF
   21.300000 1  0CF00400x       Rx   d 8 00 D5 17 41 FF FF FF FF
   21.300000 1  0CF00300x       Rx   d 8 00 C8 58 FF FF FF FF FF
   21.300000 1  18FEF100x       Rx   d 8 FF 43 48 00 00 00 FF FF
   21.300000 1  18FEF200x       Rx   d 8 30 06 FF FF FF FF FF FF
   21.400000 1  0CF00400x       Rx   d 8 00 D5 B3 41 FF FF FF FF
   21.400000 1  0CF00300x       Rx   d 8 00 C5 58 FF FF FF FF FF
   21.400000 1  18FEF100x       Rx   d 8 FF 17 4B 00 00 00 FF FF
   21.400000 1  18FEF200x       Rx   d 8 91 05 FF FF FF FF FF FF
   21.500000 1  0CF00400x       Rx   d 8 00 D6 3D 42 FF FF FF FF
   21.500000 1  0CF00300x       Rx   d 8 00 BD 59 FF FF FF FF FF
   21.500000 1  18FEF100x       Rx   d 8 FF 3D 4C 00 00 00 FF FF
   21.500000 1  18FEF200x       Rx   d 8 FF 06 FF FF FF FF FF FF
   21.500000 1  18FEF600x       Rx   d 8 FF 70 3C FF FF FF FF FF
   21.500000 1  18FEEF00x       Rx   d 8 FF FF FF 80 FF FF FF FF
   21.600000 1  0CF00400x       Rx   d 8 00 D0 C6 41 FF FF FF FF
   21.600000 1  0CF00300x       Rx   d 8 00 D4 53 FF FF FF FF FF
   21.600000 1  18FEF100x       Rx   d 8 FF 7B 4A 00 00 00 FF FF
   21.600000 1  18FEF200x       Rx   d 8 80 06 FF FF FF FF FF FF
   21.700000 1  0CF00400x       Rx   d 8 00 CE C2 41 FF FF FF FF
   21.700000 1  0CF00300x       Rx   d 8 00 C4 51 FF FF FF FF FF
   21.700000 1  18FEF100x       Rx   d 8 FF B6 4B 00 00 00 FF FF
   21.700000 1  18FEF200x       Rx   d 8 79 05 FF FF FF FF FF FF
   21.800000 1  0CF00400x       Rx   d 8 00 D2 FA 40 FF FF FF FF
   21.800000 1  0CF00300x       Rx   d 8 00 CC 55 FF FF FF FF FF
   21.800000 1  18FEF100x       Rx   d 8 FF 97 4A 00 00 00 FF FF
   21.800000 1  18FEF200x       Rx   d 8 E6 05 FF FF FF FF FF FF
   21.900000 1  0CF00400x       Rx   d 8 00 D5 E1 42 FF FF FF FF
   21.900000 1  0CF00300x       Rx   d 8 00 BE 58 FF FF FF FF FF
   21.900000 1  18FEF100x       Rx   d 8 FF 99 4C 00 00 00 FF FF
   21.900000 1  18FEF200x       Rx   d 8 CA 05 FF FF FF FF FF FF
   22.000000 1  0CF00400x       Rx   d 8 00 D4 80 41 FF FF FF FF
   22.000000 1  0CF00300x       Rx   d 8 00 CA 57 FF FF FF FF FF
   22.000000 1  18FEF100x       Rx   d 8 FF 22 4A 00 00 00 FF FF
   22.000000 1  18FEF200x       Rx   d 8 CE 05 FF FF FF FF FF FF
   22.000000 1  18FEF600x       Rx   d 8 FF 6D 3C FF FF FF FF FF
   22.000000 1  18FEEF00x       Rx   d 8 FF FF FF 79 FF FF FF FF
   22.000000 1  18FEEE00x       Rx   d 9 80 3C CE 2E FF FF FF 00 FF
   22.000000 1  18FEF700x       Rx   d 8 FF FF FF FF FF FF FB 00
   22.000000 1  18FEF803x       Rx   d 8 FF FF FF FF A0 24 FF FF
   22.000000 1  18FEFC00x       Rx   d 8 FF F9 FF FF FF FF FF FF
   22.000000 1  18FEF500x       Rx   d 9 CA FF FF A0 24 FF FF FF FF
   22.000000 1  18F00503x       Rx   d 8 85 FF FF 85 FF FF FF FF
   22.100000 1  0CF00400x       Rx   d 8 00 CF 1E 43 FF FF FF FF
   22.100000 1  0CF00300x       Rx   d 8 00 C8 52 FF FF FF FF FF
   22.100000 1  18FEF100x       Rx   d 8 FF 86 4A 00 00 00 FF FF
   22.100000 1  18FEF200x       Rx   d 8 85 06 FF FF FF FF FF FF
   22.200000 1  0CF00400x       Rx   d 8 00 D3 49 42 FF FF FF FF
   22.200000 1  0CF00300x       Rx   d 8 00 BF 56 FF FF FF FF FF
   22.200000 1  18FEF100x       Rx   d 8 FF CE 4B 00 00 00 FF FF
   22.200000 1  18FEF200x       Rx   d 8 D7 06 FF FF FF FF FF FF
   22.300000 1  0CF00400x       Rx   d 8 00 D1 95 43 FF FF FF FF
   22.300000 1  0CF00300x       Rx   d 8 00 C6 54 FF FF FF FF FF
   22.300000 1  18FEF100x       Rx   d 8 FF 67 4D 00 00 00 FF FF
   22.300000 1  18FEF200x       Rx   d 8 F7 05 FF FF FF FF FF FF
   22.400000 1  0CF00400x       Rx   d 8 00 D4 D7 42 FF FF FF FF
   22.400000 1  0CF00300x       Rx   d 8 00 C4 57 FF FF FF FF FF
   22.400000 1  18FEF100x       Rx   d 8 FF CB 4B 00 00 00 FF FF
   22.400000 1  18FEF200x       Rx   d 8 BA 06 FF FF FF FF FF FF
   22.500000 1  0CF00400x       Rx   d 8 00 D2 F7 43 FF FF FF FF
   22.500000 1  0CF00300x       Rx   d 8 00 D3 55 FF FF FF FF FF
   22.500000 1  18FEF100x       Rx   d 8 FF BF 4D 00 00 00 FF FF
   22.500000 1  18FEF200x       Rx   d 8 E8 06 FF FF FF FF FF FF
   22.500000 1  18FEF600x       Rx   d 8 FF 6B 3C FF FF FF FF FF
   22.500000 1  18FEEF00x       Rx   d 8 FF FF FF 7F FF FF FF FF
   22.600000 1  0CF00400x       Rx   d 8 00 CE 06 44 FF FF FF FF
   22.600000 1  0CF00300x       Rx   d 8 00 CD 51 FF FF FF FF FF
   22.600000 1  18FEF100x       Rx   d 8 FF 2B 4C 00 00 00 FF FF
   22.600000 1  18FEF200x       Rx   d 8 C3 05 FF FF FF FF FF FF
   22.700000 1  0CF00400x       Rx   d 8 00 D1 0D 44 FF FF FF FF
   22.700000 1  0CF00300x       Rx   d 8 00 C9 54 FF FF FF FF FF
   22.700000 1  18FEF100x       Rx   d 8 FF FF 4E 00 00 00 FF FF
   22.700000 1  18FEF200x       Rx   d 8 EE 06 FF FF FF FF FF FF
   22.800000 1  0CF00400x       Rx   d 8 00 D1 9D 44 FF FF FF FF
   22.800000 1  0CF00300x       Rx   d 8 00 D4 54 FF FF FF FF FF
   22.800000 1  18FEF100x       Rx   d 8 FF DE 4C 00 00 00 FF FF
   22.800000 1  18FEF200x       Rx   d 8 54 06 FF FF FF FF FF FF
   22.900000 1  0CF00400x       Rx   d 8 00 D0 74 44 FF FF FF FF
   22.900000 1  0CF00300x       Rx   d 8 00 C8 53 FF FF FF FF FF
   22.900000 1  18FEF100x       Rx   d 8 FF 38 4E 00 00 00 FF FF
   22.900000 1  18FEF200x       Rx   d 8 00 07 FF FF FF FF FF FF
   23.000000 1  0CF00400x       Rx   d 8 00 D0 11 44 FF FF FF FF
   23.000000 1  0CF00300x       Rx   d 8 00 D2 53 FF FF FF FF FF
   23.000000 1  18FEF100x       Rx   d 8 FF 5B 50 00 00 00 FF FF
   23.000000 1  18FEF200x       Rx   d 8 E0 05 FF FF FF FF FF FF
   23.000000 1  18FEF600x       Rx   d 8 FF 6B 3C FF FF FF FF FF
   23.000000 1  18FEEF00x       Rx   d 8 FF FF FF 77 FF FF FF FF
   23.000000 1  18FEEE00x       Rx   d 9 81 3C AC 2E FF FF FF 00 FF
   23.000000 1  18FEF700x       Rx   d 8 FF FF FF FF FF FF FB 00
   23.000000 1  18FEF803x       Rx   d 8 FF FF FF FF A0 24 FF FF
   23.000000 1  18FEFC00x       Rx   d 8 FF F9 FF FF FF FF FF FF
   23.000000 1  18FEF500x       Rx   d 9 CA FF FF A0 24 FF FF FF FF
   23.000000 1  18F00503x       Rx   d 8 85 FF FF 85 FF FF FF FF
   23.100000 1  0CF00400x       Rx   d 8 00 CE 20 45 FF FF FF FF
   23.100000 1  0CF00300x       Rx   d 8 00 C5 51 FF FF FF FF FF
   23.100000 1  18FEF100x       Rx   d 8 FF 9D 4F 00 00 00 FF FF
   23.100000 1  18FEF200x       Rx   d 8 7D 06 FF FF FF FF FF FF
   23.200000 1  0CF00400x       Rx   d 8 00 D6 D8 44 FF FF FF FF
   23.200000 1  0CF00300x       Rx   d 8 00 D0 59 FF FF FF FF FF
   23.200000 1  18FEF100x       Rx   d 8 FF A1 4E 00 00 00 FF FF
   23.200000 1  18FEF200x       Rx   d 8 BB 05 FF FF FF FF FF FF
   23.300000 1  0CF00400x       Rx   d 8 00 D2 19 45 FF FF FF FF
   23.300000 1  0CF00300x       Rx   d 8 00 D2 55 FF FF FF FF FF
   23.300000 1  18FEF100x       Rx   d 8 FF DA 4F 00 00 00 FF FF
   23.300000 1  18FEF200x       Rx   d 8 F2 06 FF FF FF FF FF FF
   23.400000 1  0CF00400x       Rx   d 8 00 D5 30 45 FF FF FF FF
   23.400000 1  0CF00300x       Rx   d 8 00 C5 58 FF FF FF FF FF
   23.400000 1  18FEF100x       Rx   d 8 FF 41 51 00 00 00 FF FF
   23.400000 1  18FEF200x       Rx   d 8 0D 06 FF FF FF FF FF FF
   23.500000 1  0CF00400x       Rx   d 8 00 D1 48 45 FF FF FF FF
   23.500000 1  0CF00300x       Rx   d 8 00 CA 54 FF FF FF FF FF
   23.500000 1  18FEF100x       Rx   d 8 FF 2A 51 00 00 00 FF FF
   23.500000 1  18FEF200x       Rx   d 8 4B 06 FF FF FF FF FF FF
   23.500000 1  18FEF600x       Rx   d 8 FF 6E 3C FF FF FF FF FF
   23.500000 1  18FEEF00x       Rx   d 8 FF FF FF 75 FF FF FF FF
   23.600000 1  0CF00400x       Rx   d 8 00 D5 D3 44 FF FF FF FF
   23.600000 1  0CF00300x       Rx   d 8 00 BB 58 FF FF FF FF FF
   23.600000 1  18FEF100x       Rx   d 8 FF B5 52 00 00 00 FF FF
   23.600000 1  18FEF200x       Rx   d 8 9E 05 FF FF FF FF FF FF
   23.700000 1  0CF00400x       Rx   d 8 00 D5 C7 44 FF FF FF FF
   23.700000 1  0CF00300x       Rx   d 8 00 C8 58 FF FF FF FF FF
   23.700000 1  18FEF100x       Rx   d 8 FF DE 4F 00 00 00 FF FF
   23.700000 1  18FEF200x       Rx   d 8 5A 06 FF FF FF FF FF FF
   23.800000 1  0CF00400x       Rx   d 8 00 D5 8B 46 FF FF FF FF
   23.800000 1  0CF00300x       Rx   d 8 00 CC 58 FF FF FF FF FF
   23.800000 1  18FEF100x       Rx   d 8 FF 4D 50 00 00 00 FF FF
   23.800000 1  18FEF200x       Rx   d 8 0F 06 FF FF FF FF FF FF
   23.900000 1  0CF00400x       Rx   d 8 00 CE E9 45 FF FF FF FF
   23.900000 1  0CF00300x       Rx   d 8 00 BB 51 FF FF FF FF FF
   23.900000 1  18FEF100x       Rx   d 8 FF EC 4F 00 00 00 FF FF
   23.900000 1  18FEF200x       Rx   d 8 CF 06 FF FF FF FF FF FF
   24.000000 1  0CF00400x       Rx   d 8 00 CF 3D 45 FF FF FF FF
   24.000000 1  0CF00300x       Rx   d 8 00 BC 52 FF FF FF FF FF
   24.000000 1  18FEF100x       Rx   d 8 FF 1C 52 00 00 00 FF FF
   24.000000 1  18FEF200x       Rx   d 8 95 05 FF FF FF FF FF FF
   24.000000 1  18FEF600x       Rx   d 8 FF 6D 3C FF FF FF FF FF
   24.000000 1  18FEEF00x       Rx   d 8 FF FF FF 76 FF FF FF FF
   24.000000 1  18FEEE00x       Rx   d 9 83 3C EA 2E FF FF FF 00 FF
   24.000000 1  18FEF700x       Rx   d 8 FF FF FF FF FF FF FB 00
   24.000000 1  18FEF803x       Rx   d 8 FF FF FF FF A0 24 FF FF
   24.000000 1  18FEFC00x       Rx   d 8 FF F9 FF FF FF FF FF FF
   24.000000 1  18FEF500x       Rx   d 9 CA FF FF A0 24 FF FF FF FF
   24.000000 1  18F00503x       Rx   d 8 86 FF FF 86 FF FF FF FF
   24.100000 1  0CF00400x       Rx   d 8 00 CD FC 46 FF FF FF FF
   24.100000 1  0CF00300x       Rx   d 8 00 C9 50 FF FF FF FF FF
   24.100000 1  18FEF100x       Rx   d 8 FF E5 53 00 00 00 FF FF
   24.100000 1  18FEF200x       Rx   d 8 A4 06 FF FF FF FF FF FF
   24.200000 1  0CF00400x       Rx   d 8 00 CE C6 46 FF FF FF FF
   24.200000 1  0CF00300x       Rx   d 8 00 BD 51 FF FF FF FF FF
   24.200000 1  18FEF100x       Rx   d 8 FF 31 52 00 00 00 FF FF
   24.200000 1  18FEF200x       Rx   d 8 FC 05 FF FF FF FF FF FF
   24.300000 1  0CF00400x       Rx   d 8 00 D4 0A 47 FF FF FF FF
   24.300000 1  0CF00300x       Rx   d 8 00 D4 57 FF FF FF FF FF
   24.300000 1  18FEF100x       Rx   d 8 FF 75 51 00 00 00 FF FF
   24.300000 1  18FEF200x       Rx   d 8 C7 06 FF FF FF FF FF FF
   24.400000 1  0CF00400x       Rx   d 8 00 D0 73 46 FF FF FF FF
   24.400000 1  0CF00300x       Rx   d 8 00 D3 53 FF FF FF FF FF
   24.400000 1  18FEF100x       Rx   d 8 FF 46 54 00 00 00 FF FF
   24.400000 1  18FEF200x       Rx   d 8 3C 06 FF FF FF FF FF FF
   24.500000 1  0CF00400x       Rx   d 8 00 D3 AA 46 FF FF FF FF
   24.500000 1  0CF00300x       Rx   d 8 00 C6 56 FF FF FF FF FF
   24.500000 1  18FEF100x       Rx   d 8 FF 43 55 00 00 00 FF FF
   24.500000 1  18FEF200x       Rx   d 8 95 06 FF FF FF FF FF FF
   24.500000 1  18FEF600x       Rx   d 8 FF 6F 3C FF FF FF FF FF
   24.500000 1  18FEEF00x       Rx   d 8 FF FF FF 81 FF FF FF FF
   24.600000 1  0CF00400x       Rx   d 8 00 D3 57 46 FF FF FF FF
   24.600000 1  0CF00300x       Rx   d 8 00 CD 56 FF FF FF FF FF
   24.600000 1  18FEF100x       Rx   d 8 FF 6A 52 00 00 00 FF FF
   24.600000 1  18FEF200x       Rx   d 8 F3 05 FF FF FF FF FF FF
   24.700000 1  0CF00400x       Rx   d 8 00 CE 0C 47 FF FF FF FF
   24.700000 1  0CF00300x       Rx   d 8 00 BE 51 FF FF FF FF FF
   24.700000 1  18FEF100x       Rx   d 8 FF 2D 53 00 00 00 FF FF
   24.700000 1  18FEF200x       Rx   d 8 05 06 FF FF FF FF FF FF
   24.800000 1  0CF00400x       Rx   d 8 00 D0 BC 46 FF FF FF FF
   24.800000 1  0CF00300x       Rx   d 8 00 C3 53 FF FF FF FF FF
   24.800000 1  18FEF100x       Rx   d 8 FF CA 54 00 00 00 FF FF
   24.800000 1  18FEF200x       Rx   d 8 E2 06 FF FF FF FF FF FF
   24.900000 1  0CF00400x       Rx   d 8 00 D0 95 48 FF FF FF FF
   24.900000 1  0CF00300x       Rx   d 8 00 BF 53 FF FF FF FF FF
   24.900000 1  18FEF100x       Rx   d 8 FF FC 54 00 00 00 FF FF
   24.900000 1  18FEF200x       Rx   d 8 25 06 FF FF FF FF FF FF
   25.000000 1  0CF00400x       Rx   d 8 00 CF BA 47 FF FF FF FF
   25.000000 1  0CF00300x       Rx   d 8 00 BD 52 FF FF FF FF FF
   25.000000 1  18FEF100x       Rx   d 8 FF EF 54 00 00 00 FF FF
   25.000000 1  18FEF200x       Rx   d 8 A2 05 FF FF FF FF FF FF
   25.000000 1  18FEF600x       Rx   d 8 FF 6E 3C FF FF FF FF FF
   25.000000 1  18FEEF00x       Rx   d 8 FF FF FF 78 FF FF FF FF
   25.000000 1  18FEEE00x       Rx   d 9 80 3C B8 2E FF FF FF 00 FF
   25.000000 1  18FEF700x       Rx   d 8 FF FF FF FF FF FF FB 00
   25.000000 1  18FEF803x       Rx   d 8 FF FF FF FF A0 24 FF FF
   25.000000 1  18FEFC00x       Rx   d 8 FF F9 FF FF FF FF FF FF
   25.000000 1  18FEF500x       Rx   d 9 CA FF FF A0 24 FF FF FF FF
   25.000000 1  18F00503x       Rx   d 8 86 FF FF 86 FF FF FF FF
   25.100000 1  0CF00400x       Rx   d 8 00 D3 B2 47 FF FF FF FF
   25.100000 1  0CF00300x       Rx   d 8 00 C3 56 FF FF FF FF FF
   25.100000 1  18FEF100x       Rx   d 8 FF 18 57 00 00 00 FF FF
   25.100000 1  18FEF200x       Rx   d 8 CF 06 FF FF FF FF FF FF
   25.200000 1  0CF00400x       Rx   d 8 00 D6 23 49 FF FF FF FF
   25.200000 1  0CF00300x       Rx   d 8 00 C3 59 FF FF FF FF FF
   25.200000 1  18FEF100x       Rx   d 8 FF 24 54 00 00 00 FF FF
   25.200000 1  18FEF200x       Rx   d 8 EC 05 FF FF FF FF FF FF
   25.300000 1  0CF00400x       Rx   d 8 00 CF CD 48 FF FF FF FF
   25.300000 1  0CF00300x       Rx   d 8 00 C9 52 FF FF FF FF FF
   25.300000 1  18FEF100x       Rx   d 8 FF DD 55 00 00 00 FF FF
   25.300000 1  18FEF200x       Rx   d 8 59 06 FF FF FF FF FF FF
   25.400000 1  0CF00400x       Rx   d 8 00 D2 CC 48 FF FF FF FF
   25.400000 1  0CF00300x       Rx   d 8 00 CC 55 FF FF FF FF FF
   25.400000 1  18FEF100x       Rx   d 8 FF 61 56 00 00 00 FF FF
   25.400000 1  18FEF200x       Rx   d 8 EC 05 FF FF FF FF FF FF
   25.500000 1  0CF00400x       Rx   d 8 00 D1 2C 49 FF FF FF FF
   25.500000 1  0CF00300x       Rx   d 8 00 CF 54 FF FF FF FF FF
   25.500000 1  18FEF100x       Rx   d 8 FF C6 57 00 00 00 FF FF
   25.500000 1  18FEF200x       Rx   d 8 96 06 FF FF FF FF FF FF
   25.500000 1  18FEF600x       Rx   d 8 FF 6B 3C FF FF FF FF FF
   25.500000 1  18FEEF00x       Rx   d 8 FF FF FF 7F FF FF FF FF
   25.600000 1  0CF00400x       Rx   d 8 00 D1 8A 49 FF FF FF FF
   25.600000 1  0CF00300x       Rx   d 8 00 D4 54 FF FF FF FF FF
   25.600000 1  18FEF100x       Rx   d 8 FF 18 55 00 00 00 FF FF
   25.600000 1  18FEF200x       Rx   d 8 51 06 FF FF FF FF FF FF
   25.700000 1  0CF00400x       Rx   d 8 00 D2 BB 49 FF FF FF FF
   25.700000 1  0CF00300x       Rx   d 8 00 D1 55 FF FF FF FF FF
   25.700000 1  18FEF100x       Rx   d 8 FF 89 56 00 00 00 FF FF
   25.700000 1  18FEF200x       Rx   d 8 06 06 FF FF FF FF FF FF
   25.800000 1  0CF00400x       Rx   d 8 00 D3 A6 49 FF FF FF FF
   25.800000 1  0CF00300x       Rx   d 8 00 D4 56 FF FF FF FF FF
   25.800000 1  18FEF100x       Rx   d 8 FF 93 55 00 00 00 FF FF
   25.800000 1  18FEF200x       Rx   d 8 7C 05 FF FF FF FF FF FF
   25.900000 1  0CF00400x       Rx   d 8 00 D2 1C 49 FF FF FF FF
   25.900000 1  0CF00300x       Rx   d 8 00 C8 55 FF FF FF FF FF
   25.900000 1  18FEF100x       Rx   d 8 FF BE 57 00 00 00 FF FF
   25.900000 1  18FEF200x       Rx   d 8 63 06 FF FF FF FF FF FF
   26.000000 1  0CF00400x       Rx   d 8 00 CE C0 49 FF FF FF FF
   26.000000 1  0CF00300x       Rx   d 8 00 BC 51 FF FF FF FF FF
   26.000000 1  18FEF100x       Rx   d 8 FF 61 57 00 00 00 FF FF
   26.000000 1  18FEF200x       Rx   d 8 B0 05 FF FF FF FF FF FF
   26.000000 1  18FEF600x       Rx   d 8 FF 6A 3C FF FF FF FF FF
   26.000000 1  18FEEF00x       Rx   d 8 FF FF FF 83 FF FF FF FF
   26.000000 1  18FEEE00x       Rx   d 9 81 3C F8 2E FF FF FF 00 FF
   26.000000 1  18FEF700x       Rx   d 8 FF FF FF FF FF FF FB 00
   26.000000 1  18FEF803x       Rx   d 8 FF FF FF FF A0 24 FF FF
   26.000000 1  18FEFC00x       Rx   d 8 FF F9 FF FF FF FF FF FF
   26.000000 1  18FEF500x       Rx   d 9 CA FF FF A0 24 FF FF FF FF
   26.000000 1  18F00503x       Rx   d 8 86 FF FF 86 FF FF FF FF
   26.100000 1  0CF00400x       Rx   d 8 00 D1 95 49 FF FF FF FF
   26.100000 1  0CF00300x       Rx   d 8 00 C0 54 FF FF FF FF FF
   26.100000 1  18FEF100x       Rx   d 8 FF 1F 58 00 00 00 FF FF
   26.100000 1  18FEF200x       Rx   d 8 F0 05 FF FF FF FF FF FF
   26.200000 1  0CF00400x       Rx   d 8 00 D3 B4 4A FF FF FF FF
   26.200000 1  0CF00300x       Rx   d 8 00 D0 56 FF FF FF FF FF
   26.200000 1  18FEF100x       Rx   d 8 FF 0F 57 00 00 00 FF FF
   26.200000 1  18FEF200x       Rx   d 8 BD 05 FF FF FF FF FF FF
   26.300000 1  0CF00400x       Rx   d 8 00 CF AC 49 FF FF FF FF
   26.300000 1  0CF00300x       Rx   d 8 00 D3 52 FF FF FF FF FF
   26.300000 1  18FEF100x       Rx   d 8 FF 23 59 00 00 00 FF FF
   26.300000 1  18FEF200x       Rx   d 8 83 05 FF FF FF FF FF FF
   26.400000 1  0CF00400x       Rx   d 8 00 D0 B6 4A FF FF FF FF
   26.400000 1  0CF00300x       Rx   d 8 00 CA 53 FF FF FF FF FF
   26.400000 1  18FEF100x       Rx   d 8 FF FD 57 00 00 00 FF FF
   26.400000 1  18FEF200x       Rx   d 8 91 05 FF FF FF FF FF FF
   26.500000 1  0CF00400x       Rx   d 8 00 D0 F0 49 FF FF FF FF
   26.500000 1  0CF00300x       Rx   d 8 00 C0 53 FF FF FF FF FF
   26.500000 1  18FEF100x       Rx   d 8 FF FC 5A 00 00 00 FF FF
   26.500000 1  18FEF200x       Rx   d 8 77 06 FF FF FF FF FF FF
   26.500000 1  18FEF600x       Rx   d 8 FF 71 3C FF FF FF FF FF
   26.500000 1  18FEEF00x       Rx   d 8 FF FF FF 7D FF FF FF FF
   26.600000 1  0CF00400x       Rx   d 8 00 D0 0E 4B FF FF FF FF
   26.600000 1  0CF00300x       Rx   d 8 00 CA 53 FF FF FF FF FF
   26.600000 1  18FEF100x       Rx   d 8 FF 3E 5A 00 00 00 FF FF
   26.600000 1  18FEF200x       Rx   d 8 EE 05 FF FF FF FF FF FF
   26.700000 1  0CF00400x       Rx   d 8 00 CE 46 4B FF FF FF FF
   26.700000 1  0CF00300x       Rx   d 8 00 BE 51 FF FF FF FF FF
   26.700000 1  18FEF100x       Rx   d 8 FF 70 58 00 00 00 FF FF
   26.700000 1  18FEF200x       Rx   d 8 1F 06 FF FF FF FF FF FF
   26.800000 1  0CF00400x       Rx   d 8 00 D3 92 4A FF FF FF FF
   26.800000 1  0CF00300x       Rx   d 8 00 C0 56 FF FF FF FF FF
   26.800000 1  18FEF100x       Rx   d 8 FF EF 59 00 00 00 FF FF
   26.800000 1  18FEF200x       Rx   d 8 3B 06 FF FF FF FF FF FF
   26.900000 1  0CF00400x       Rx   d 8 00 CD C3 4A FF FF FF FF
   26.900000 1  0CF00300x       Rx   d 8 00 C6 50 FF FF FF FF FF
   26.900000 1  18FEF100x       Rx   d 8 FF F5 59 00 00 00 FF FF
   26.900000 1  18FEF200x       Rx   d 8 F9 06 FF FF FF FF FF FF
   27.000000 1  0CF00400x       Rx   d 8 00 D1 A2 4B FF FF FF FF
   27.000000 1  0CF00300x       Rx   d 8 00 CC 54 FF FF FF FF FF
   27.000000 1  18FEF100x       Rx   d 8 FF FA 5A 00 00 00 FF FF
   27.000000 1  18FEF200x       Rx   d 8 A8 06 FF FF FF FF FF FF
   27.000000 1  18FEF600x       Rx   d 8 FF 69 3C FF FF FF FF FF
   27.000000 1  18FEEF00x       Rx   d 8 FF FF FF 75 FF FF FF FF
   27.000000 1  18FEEE00x       Rx   d 9 83 3C 9D 2E FF FF FF 00 FF
   27.000000 1  18FEF700x       Rx   d 8 FF FF FF FF FF FF FB 00
   27.000000 1  18FEF803x       Rx   d 8 FF FF FF FF A0 24 FF FF
   27.000000 1  18FEFC00x       Rx   d 8 FF F9 FF FF FF FF FF FF
   27.000000 1  18FEF500x       Rx   d 9 CA FF FF A0 24 FF FF FF FF
   27.000000 1  18F00503x       Rx   d 8 87 FF FF 87 FF FF FF FF
   27.100000 1  0CF00400x       Rx   d 8 00 CE 6C 4B FF FF FF FF
   27.100000 1  0CF00300x       Rx   d 8 00 C8 51 FF FF FF FF FF
   27.100000 1  18FEF100x       Rx   d 8 FF 66 5A 00 00 00 FF FF
   27.100000 1  18FEF200x       Rx   d 8 A5 05 FF FF FF FF FF FF
   27.200000 1  0CF00400x       Rx   d 8 00 D0 46 4B FF FF FF FF
   27.200000 1  0CF00300x       Rx   d 8 00 D0 53 FF FF FF FF FF
   27.200000 1  18FEF100x       Rx   d 8 FF B3 5C 00 00 00 FF FF
   27.200000 1  18FEF200x       Rx   d 8 03 07 FF FF FF FF FF FF
   27.300000 1  0CF00400x       Rx   d 8 00 CF 71 4B FF FF FF FF
   27.300000 1  0CF00300x       Rx   d 8 00 CE 52 FF FF FF FF FF
   27.300000 1  18FEF100x       Rx   d 8 FF 38 5D 00 00 00 FF FF
   27.300000 1  18FEF200x       Rx   d 8 27 06 FF FF FF FF FF FF
   27.400000 1  0CF00400x       Rx   d 8 00 D5 4D 4D FF FF FF FF
   27.400000 1  0CF00300x       Rx   d 8 00 C1 58 FF FF FF FF FF
   27.400000 1  18FEF100x       Rx   d 8 FF 4D 5D 00 00 00 FF FF
   27.400000 1  18FEF200x       Rx   d 8 BA 05 FF FF FF FF FF FF
   27.500000 1  0CF00400x       Rx   d 8 00 CD E2 4B FF FF FF FF
   27.500000 1  0CF00300x       Rx   d 8 00 C0 50 FF FF FF FF FF
   27.500000 1  18FEF100x       Rx   d 8 FF 53 5B 00 00 00 FF FF
   27.500000 1  18FEF200x       Rx   d 8 91 06 FF FF FF FF FF FF
   27.500000 1  18FEF600x       Rx   d 8 FF 6E 3C FF FF FF FF FF
   27.500000 1  18FEEF00x       Rx   d 8 FF FF FF 7A FF FF FF FF
   27.600000 1  0CF00400x       Rx   d 8 00 D6 5A 4C FF FF FF FF
   27.600000 1  0CF00300x       Rx   d 8 00 D0 59 FF FF FF FF FF
   27.600000 1  18FEF100x       Rx   d 8 FF DE 5B 00 00 00 FF FF
   27.600000 1  18FEF200x       Rx   d 8 E7 06 FF FF FF FF FF FF
   27.700000 1  0CF00400x       Rx   d 8 00 D5 DC 4D FF FF FF FF
   27.700000 1  0CF00300x       Rx   d 8 00 BE 58 FF FF FF FF FF
   27.700000 1  18FEF100x       Rx   d 8 FF 91 5E 00 00 00 FF FF
   27.700000 1  18FEF200x       Rx   d 8 86 06 FF FF FF FF FF FF
   27.800000 1  0CF00400x       Rx   d 8 00 D1 1A 4D FF FF FF FF
   27.800000 1  0CF00300x       Rx   d 8 00 C2 54 FF FF FF FF FF
   27.800000 1  18FEF100x       Rx   d 8 FF B5 5D 00 00 00 FF FF
   27.800000 1  18FEF200x       Rx   d 8 46 06 FF FF FF FF FF FF
   27.900000 1  0CF00400x       Rx   d 8 00 D6 E5 4C FF FF FF FF
   27.900000 1  0CF00300x       Rx   d 8 00 C4 59 FF FF FF FF FF
   27.900000 1  18FEF100x       Rx   d 8 FF 72 5F 00 00 00 FF FF
   27.900000 1  18FEF200x       Rx   d 8 9C 06 FF FF FF FF FF FF
   28.000000 1  0CF00400x       Rx   d 8 00 CD 6C 4D FF FF FF FF
   28.000000 1  0CF00300x       Rx   d 8 00 C4 50 FF FF FF FF FF
   28.000000 1  18FEF100x       Rx   d 8 FF A8 5E 00 00 00 FF FF
   28.000000 1  18FEF200x       Rx   d 8 E3 05 FF FF FF FF FF FF
   28.000000 1  18FEF600x       Rx   d 8 FF 6D 3C FF FF FF FF FF
   28.000000 1  18FEEF00x       Rx   d 8 FF FF FF 78 FF FF FF FF
   28.000000 1  18FEEE00x       Rx   d 9 82 3C 69 2E FF FF FF 00 FF
   28.000000 1  18FEF700x       Rx   d 8 FF FF FF FF FF FF FB 00
   28.000000 1  18FEF803x       Rx   d 8 FF FF FF FF A0 24 FF FF
   28.000000 1  18FEFC00x       Rx   d 8 FF F9 FF FF FF FF FF FF
   28.000000 1  18FEF500x       Rx   d 9 CA FF FF A0 24 FF FF FF FF
   28.000000 1  18F00503x       Rx   d 8 87 FF FF 87 FF FF FF FF
   28.100000 1  0CF00400x       Rx   d 8 00 D2 4D 4E FF FF FF FF
   28.100000 1  0CF00300x       Rx   d 8 00 C9 55 FF FF FF FF FF
   28.100000 1  18FEF100x       Rx   d 8 FF A6 5D 00 00 00 FF FF
   28.100000 1  18FEF200x       Rx   d 8 9F 05 FF FF FF FF FF FF
   28.200000 1  0CF00400x       Rx   d 8 00 D5 68 4E FF FF FF FF
   28.200000 1  0CF00300x       Rx   d 8 00 BE 58 FF FF FF FF FF
   28.200000 1  18FEF100x       Rx   d 8 FF 70 5E 00 00 00 FF FF
   28.200000 1  18FEF200x       Rx   d 8 8B 06 FF FF FF FF FF FF
   28.300000 1  0CF00400x       Rx   d 8 00 D6 5F 4D FF FF FF FF
   28.300000 1  0CF00300x       Rx   d 8 00 BF 59 FF FF FF FF FF
   28.300000 1  18FEF100x       Rx   d 8 FF 7F 5F 00 00 00 FF FF
   28.300000 1  18FEF200x       Rx   d 8 E1 06 FF FF FF FF FF FF
   28.400000 1  0CF00400x       Rx   d 8 00 D3 9F 4D FF FF FF FF
   28.400000 1  0CF00300x       Rx   d 8 00 C3 56 FF FF FF FF FF
   28.400000 1  18FEF100x       Rx   d 8 FF C9 5E 00 00 00 FF FF
   28.400000 1  18FEF200x       Rx   d 8 36 06 FF FF FF FF FF FF
   28.500000 1  0CF00400x       Rx   d 8 00 CD BF 4D FF FF FF FF
   28.500000 1  0CF00300x       Rx   d 8 00 CC 50 FF FF FF FF FF
   28.500000 1  18FEF100x       Rx   d 8 FF 67 5E 00 00 00 FF FF
   28.500000 1  18FEF200x       Rx   d 8 AC 05 FF FF FF FF FF FF
   28.500000 1  18FEF600x       Rx   d 8 FF 72 3C FF FF FF FF FF
   28.500000 1  18FEEF00x       Rx   d 8 FF FF FF 7B FF FF FF FF
   28.600000 1  0CF00400x       Rx   d 8 00 CE D1 4D FF FF FF FF
   28.600000 1  0CF00300x       Rx   d 8 00 CD 51 FF FF FF FF FF
   28.600000 1  18FEF100x       Rx   d 8 FF 55 5F 00 00 00 FF FF
   28.600000 1  18FEF200x       Rx   d 8 A5 06 FF FF FF FF FF FF
   28.700000 1  0CF00400x       Rx   d 8 00 D2 1F 4E FF FF FF FF
   28.700000 1  0CF00300x       Rx   d 8 00 BF 55 FF FF FF FF FF
   28.700000 1  18FEF100x       Rx   d 8 FF 12 62 00 00 00 FF FF
   28.700000 1  18FEF200x       Rx   d 8 73 06 FF FF FF FF FF FF
   28.800000 1  0CF00400x       Rx   d 8 00 D5 58 4E FF FF FF FF
   28.800000 1  0CF00300x       Rx   d 8 00 CC 58 FF FF FF FF FF
   28.800000 1  18FEF100x       Rx   d 8 FF 0B 60 00 00 00 FF FF
   28.800000 1  18FEF200x       Rx   d 8 11 06 FF FF FF FF FF FF
   28.900000 1  0CF00400x       Rx   d 8 00 CF 0E 50 FF FF FF FF
   28.900000 1  0CF00300x       Rx   d 8 00 BE 52 FF FF FF FF FF
   28.900000 1  18FEF100x       Rx   d 8 FF F5 5F 00 00 00 FF FF
   28.900000 1  18FEF200x       Rx   d 8 AF 06 FF FF FF FF FF FF
   29.000000 1  0CF00400x       Rx   d 8 00 D0 BB 4F FF FF FF FF
   29.000000 1  0CF00300x       Rx   d 8 00 CB 53 FF FF FF FF FF
   29.000000 1  18FEF100x       Rx   d 8 FF 64 62 00 00 00 FF FF
   29.000000 1  18FEF200x       Rx   d 8 8D 05 FF FF FF FF FF FF
   29.000000 1  18FEF600x       Rx   d 8 FF 70 3C FF FF FF FF FF
   29.000000 1  18FEEF00x       Rx   d 8 FF FF FF 79 FF FF FF FF
   29.000000 1  18FEEE00x       Rx   d 9 82 3C A1 2E FF FF FF 00 FF
   29.000000 1  18FEF700x       Rx   d 8 FF FF FF FF FF FF FB 00
   29.000000 1  18FEF803x       Rx   d 8 FF FF FF FF A0 24 FF FF
   29.000000 1  18FEFC00x       Rx   d 8 FF F9 FF FF FF FF FF FF
   29.000000 1  18FEF500x       Rx   d 9 CA FF FF A0 24 FF FF FF FF
   29.000000 1  18F00503x       Rx   d 8 87 FF FF 87 FF FF FF FF
   29.100000 1  0CF00400x       Rx   d 8 00 CE 4E 50 FF FF FF FF
   29.100000 1  0CF00300x       Rx   d 8 00 C7 51 FF FF FF FF FF
   29.100000 1  18FEF100x       Rx   d 8 FF 1E 63 00 00 00 FF FF
   29.100000 1  18FEF200x       Rx   d 8 02 07 FF FF FF FF FF FF
   29.200000 1  0CF00400x       Rx   d 8 00 D2 90 50 FF FF FF FF
   29.200000 1  0CF00300x       Rx   d 8 00 D1 55 FF FF FF FF FF
   29.200000 1  18FEF100x       Rx   d 8 FF 20 60 00 00 00 FF FF
   29.200000 1  18FEF200x       Rx   d 8 AC 06 FF FF FF FF FF FF
   29.300000 1  0CF00400x       Rx   d 8 00 CD 08 4F FF FF FF FF
   29.300000 1  0CF00300x       Rx   d 8 00 C2 50 FF FF FF FF FF
   29.300000 1  18FEF100x       Rx   d 8 FF 2B 60 00 00 00 FF FF
   29.300000 1  18FEF200x       Rx   d 8 40 06 FF FF FF FF FF FF
   29.400000 1  0CF00400x       Rx   d 8 00 D2 F7 4F FF FF FF FF
   29.400000 1  0CF00300x       Rx   d 8 00 BD 55 FF FF FF FF FF
   29.400000 1  18FEF100x       Rx   d 8 FF 01 63 00 00 00 FF FF
   29.400000 1  18FEF200x       Rx   d 8 C9 05 FF FF FF FF FF FF
   29.500000 1  0CF00400x       Rx   d 8 00 D3 E3 50 FF FF FF FF
   29.500000 1  0CF00300x       Rx   d 8 00 C5 56 FF FF FF FF FF
   29.500000 1  18FEF100x       Rx   d 8 FF A5 62 00 00 00 FF FF
   29.500000 1  18FEF200x       Rx   d 8 9B 06 FF FF FF FF FF FF
   29.500000 1  18FEF600x       Rx   d 8 FF 69 3C FF FF FF FF FF
   29.500000 1  18FEEF00x       Rx   d 8 FF FF FF 7F FF FF FF FF
   29.600000 1  0CF00400x       Rx   d 8 00 D1 26 51 FF FF FF FF
   29.600000 1  0CF00300x       Rx   d 8 00 BD 54 FF FF FF FF FF
   29.600000 1  18FEF100x       Rx   d 8 FF 08 61 00 00 00 FF FF
   29.600000 1  18FEF200x       Rx   d 8 A0 06 FF FF FF FF FF FF
   29.700000 1  0CF00400x       Rx   d 8 00 CE F9 4F FF FF FF FF
   29.700000 1  0CF00300x       Rx   d 8 00 CD 51 FF FF FF FF FF
   29.700000 1  18FEF100x       Rx   d 8 FF EE 63 00 00 00 FF FF
   29.700000 1  18FEF200x       Rx   d 8 BA 05 FF FF FF FF FF FF
   29.800000 1  0CF00400x       Rx   d 8 00 D5 2C 50 FF FF FF FF
   29.800000 1  0CF00300x       Rx   d 8 00 C2 58 FF FF FF FF FF
   29.800000 1  18FEF100x       Rx   d 8 FF 86 64 00 00 00 FF FF
   29.800000 1  18FEF200x       Rx   d 8 91 05 FF FF FF FF FF FF
   29.900000 1  0CF00400x       Rx   d 8 00 D1 75 51 FF FF FF FF
   29.900000 1  0CF00300x       Rx   d 8 00 BD 54 FF FF FF FF FF
   29.900000 1  18FEF100x       Rx   d 8 FF 01 64 00 00 00 FF FF
   29.900000 1  18FEF200x       Rx   d 8 DE 05 FF FF FF FF FF FF
