; CANalyzer/CANoe ASC Log File
; Generated by J1939 Test Data Generator
; Date: Thu Jan 22 09:56:12 AM 2026
;
date Thu Jan 22 09:56:12 AM 2026
base hex  timestamps absolute
no internal events logged

    0.000000 1  0CF00400x       Rx   d 8 00 7D 6C 06 FF FF FF FF
    0.000000 1  0CF00300x       Rx   d 8 00 00 00 FF FF FF FF FF
    0.000000 1  18FEF100x       Rx   d 8 FF 00 00 00 00 00 FF FF
    0.000000 1  18FEF200x       Rx   d 8 00 00 FF FF FF FF FF FF
    0.000000 1  18FEF600x       Rx   d 8 FF 32 3C FF FF FF FF FF
    0.000000 1  18FEEF00x       Rx   d 8 FF FF FF 23 FF FF FF FF
    0.000000 1  18FEEE00x       Rx   d 9 1E 3C 40 20 FF FF FF 00 FF
    0.000000 1  18FEF700x       Rx   d 8 FF FF FF FF FF FF CF 00
    0.000000 1  18FEF803x       Rx   d 8 FF FF FF FF A0 24 FF FF
    0.000000 1  18FEFC00x       Rx   d 8 FF FA FF FF FF FF FF FF
    0.000000 1  18FEF500x       Rx   d 9 CA FF FF A0 24 FF FF FF FF
    0.000000 1  18F00503x       Rx   d 8 7D FF FF 7D FF FF FF FF
    0.000000 1  18FEE500x       Rx   d 8 40 0D 03 00 FF FF FF FF
    0.100000 1  0CF00400x       Rx   d 8 00 7D E7 05 FF FF FF FF
    0.100000 1  0CF00300x       Rx   d 8 00 00 00 FF FF FF FF FF
    0.100000 1  18FEF100x       Rx   d 8 FF 00 00 00 00 00 FF FF
    0.100000 1  18FEF200x       Rx   d 8 00 00 FF FF FF FF FF FF
    0.200000 1  0CF00400x       Rx   d 8 00 7D BD 06 FF FF FF FF
    0.200000 1  0CF00300x       Rx   d 8 00 00 00 FF FF FF FF FF
    0.200000 1  18FEF100x       Rx   d 8 FF 00 00 00 00 00 FF FF
    0.200000 1  18FEF200x       Rx   d 8 00 00 FF FF FF FF FF FF
    0.300000 1  0CF00400x       Rx   d 8 00 7D A9 05 FF FF FF FF
    0.300000 1  0CF00300x       Rx   d 8 00 00 00 FF FF FF FF FF
    0.300000 1  18FEF100x       Rx   d 8 FF 00 00 00 00 00 FF FF
    0.300000 1  18FEF200x       Rx   d 8 00 00 FF FF FF FF FF FF
    0.400000 1  0CF00400x       Rx   d 8 00 7D A8 05 FF FF FF FF
    0.400000 1  0CF00300x       Rx   d 8 00 00 00 FF FF FF FF FF
    0.400000 1  18FEF100x       Rx   d 8 FF 00 00 00 00 00 FF FF
    0.400000 1  18FEF200x       Rx   d 8 00 00 FF FF FF FF FF FF
    0.500000 1  0CF00400x       Rx   d 8 00 7D 4E 06 FF FF FF FF
    0.500000 1  0CF00300x       Rx   d 8 00 00 00 FF FF FF FF FF
    0.500000 1  18FEF100x       Rx   d 8 FF 00 00 00 00 00 FF FF
    0.500000 1  18FEF200x       Rx   d 8 00 00 FF FF FF FF FF FF
    0.500000 1  18FEF600x       Rx   d 8 FF 32 3C FF FF FF FF FF
    0.500000 1  18FEEF00x       Rx   d 8 FF FF FF 24 FF FF FF FF
    0.600000 1  0CF00400x       Rx   d 8 00 7D A3 06 FF FF FF FF
    0.600000 1  0CF00300x       Rx   d 8 00 00 00 FF FF FF FF FF
    0.600000 1  18FEF100x       Rx   d 8 FF 00 00 00 00 00 FF FF
    0.600000 1  18FEF200x       Rx   d 8 00 00 FF FF FF FF FF FF
    0.700000 1  0CF00400x       Rx   d 8 00 7D 7F 06 FF FF FF FF
    0.700000 1  0CF00300x       Rx   d 8 00 00 00 FF FF FF FF FF
    0.700000 1  18FEF100x       Rx   d 8 FF 00 00 00 00 00 FF FF
    0.700000 1  18FEF200x       Rx   d 8 00 00 FF FF FF FF FF FF
    0.800000 1  0CF00400x       Rx   d 8 00 7D D2 06 FF FF FF FF
    0.800000 1  0CF00300x       Rx   d 8 00 00 00 FF FF FF FF FF
    0.800000 1  18FEF100x       Rx   d 8 FF 00 00 00 00 00 FF FF
    0.800000 1  18FEF200x       Rx   d 8 00 00 FF FF FF FF FF FF
    0.900000 1  0CF00400x       Rx   d 8 00 7D BE 05 FF FF FF FF
    0.900000 1  0CF00300x       Rx   d 8 00 00 00 FF FF FF FF FF
    0.900000 1  18FEF100x       Rx   d 8 FF 00 00 00 00 00 FF FF
    0.900000 1  18FEF200x       Rx   d 8 00 00 FF FF FF FF FF FF
    1.000000 1  0CF00400x       Rx   d 8 00 7D A2 06 FF FF FF FF
    1.000000 1  0CF00300x       Rx   d 8 00 00 00 FF FF FF FF FF
    1.000000 1  18FEF100x       Rx   d 8 FF 00 00 00 00 00 FF FF
    1.000000 1  18FEF200x       Rx   d 8 00 00 FF FF FF FF FF FF
    1.000000 1  18FEF600x       Rx   d 8 FF 32 3C FF FF FF FF FF
    1.000000 1  18FEEF00x       Rx   d 8 FF FF FF 26 FF FF FF FF
    1.000000 1  18FEEE00x       Rx   d 9 1E 3C 49 20 FF FF FF 00 FF
    1.000000 1  18FEF700x       Rx   d 8 FF FF FF FF FF FF D2 00
    1.000000 1  18FEF803x       Rx   d 8 FF FF FF FF A0 24 FF FF
    1.000000 1  18FEFC00x       Rx   d 8 FF FA FF FF FF FF FF FF
    1.000000 1  18FEF500x       Rx   d 9 CA FF FF A0 24 FF FF FF FF
    1.000000 1  18F00503x       Rx   d 8 7D FF FF 7D FF FF FF FF
    1.100000 1  0CF00400x       Rx   d 8 00 7D D7 06 FF FF FF FF
    1.100000 1  0CF00300x       Rx   d 8 00 00 00 FF FF FF FF FF
    1.100000 1  18FEF100x       Rx   d 8 FF 00 00 00 00 00 FF FF
    1.100000 1  18FEF200x       Rx   d 8 00 00 FF FF FF FF FF FF
    1.200000 1  0CF00400x       Rx   d 8 00 7D A9 06 FF FF FF FF
    1.200000 1  0CF00300x       Rx   d 8 00 00 00 FF FF FF FF FF
    1.200000 1  18FEF100x       Rx   d 8 FF 00 00 00 00 00 FF FF
    1.200000 1  18FEF200x       Rx   d 8 00 00 FF FF FF FF FF FF
    1.300000 1  0CF00400x       Rx   d 8 00 7D 58 06 FF FF FF FF
    1.300000 1  0CF00300x       Rx   d 8 00 00 00 FF FF FF FF FF
    1.300000 1  18FEF100x       Rx   d 8 FF 00 00 00 00 00 FF FF
    1.300000 1  18FEF200x       Rx   d 8 00 00 FF FF FF FF FF FF
    1.400000 1  0CF00400x       Rx   d 8 00 7D E8 05 FF FF FF FF
    1.400000 1  0CF00300x       Rx   d 8 00 00 00 FF FF FF FF FF
    1.400000 1  18FEF100x       Rx   d 8 FF 00 00 00 00 00 FF FF
    1.400000 1  18FEF200x       Rx   d 8 00 00 FF FF FF FF FF FF
    1.500000 1  0CF00400x       Rx   d 8 00 7D EA 05 FF FF FF FF
    1.500000 1  0CF00300x       Rx   d 8 00 00 00 FF FF FF FF FF
    1.500000 1  18FEF100x       Rx   d 8 FF 00 00 00 00 00 FF FF
    1.500000 1  18FEF200x       Rx   d 8 00 00 FF FF FF FF FF FF
    1.500000 1  18FEF600x       Rx   d 8 FF 32 3C FF FF FF FF FF
    1.500000 1  18FEEF00x       Rx   d 8 FF FF FF 23 FF FF FF FF
    1.600000 1  0CF00400x       Rx   d 8 00 7D 6B 06 FF FF FF FF
    1.600000 1  0CF00300x       Rx   d 8 00 00 00 FF FF FF FF FF
    1.600000 1  18FEF100x       Rx   d 8 FF 00 00 00 00 00 FF FF
    1.600000 1  18FEF200x       Rx   d 8 00 00 FF FF FF FF FF FF
    1.700000 1  0CF00400x       Rx   d 8 00 7D E3 05 FF FF FF FF
    1.700000 1  0CF00300x       Rx   d 8 00 00 00 FF FF FF FF FF
    1.700000 1  18FEF100x       Rx   d 8 FF 00 00 00 00 00 FF FF
    1.700000 1  18FEF200x       Rx   d 8 00 00 FF FF FF FF FF FF
    1.800000 1  0CF00400x       Rx   d 8 00 7D 6F 06 FF FF FF FF
    1.800000 1  0CF00300x       Rx   d 8 00 00 00 FF FF FF FF FF
    1.800000 1  18FEF100x       Rx   d 8 FF 00 00 00 00 00 FF FF
    1.800000 1  18FEF200x       Rx   d 8 00 00 FF FF FF FF FF FF
    1.900000 1  0CF00400x       Rx   d 8 00 7D 89 06 FF FF FF FF
    1.900000 1  0CF00300x       Rx   d 8 00 00 00 FF FF FF FF FF
    1.900000 1  18FEF100x       Rx   d 8 FF 00 00 00 00 00 FF FF
    1.900000 1  18FEF200x       Rx   d 8 00 00 FF FF FF FF FF FF
    2.000000 1  0CF00400x       Rx   d 8 00 7D 95 1C FF FF FF FF
    2.000000 1  0CF00300x       Rx   d 8 00 00 00 FF FF FF FF FF
    2.000000 1  18FEF100x       Rx   d 8 FF 00 00 00 00 00 FF FF
    2.000000 1  18FEF200x       Rx   d 8 00 00 FF FF FF FF FF FF
    2.000000 1  18FEF600x       Rx   d 8 FF 32 3C FF FF FF FF FF
    2.000000 1  18FEEF00x       Rx   d 8 FF FF FF 26 FF FF FF FF
    2.000000 1  18FEEE00x       Rx   d 9 1E 3C 53 20 FF FF FF 00 FF
    2.000000 1  18FEF700x       Rx   d 8 FF FF FF FF FF FF 18 01
    2.000000 1  18FEF803x       Rx   d 8 FF FF FF FF A0 24 FF FF
    2.000000 1  18FEFC00x       Rx   d 8 FF FA FF FF FF FF FF FF
    2.000000 1  18FEF500x       Rx   d 9 CA FF FF A0 24 FF FF FF FF
    2.000000 1  18F00503x       Rx   d 8 7D FF FF 7D FF FF FF FF
    2.100000 1  0CF00400x       Rx   d 8 00 7D 4B 1C FF FF FF FF
    2.100000 1  0CF00300x       Rx   d 8 00 00 00 FF FF FF FF FF
    2.100000 1  18FEF100x       Rx   d 8 FF 00 00 00 00 00 FF FF
    2.100000 1  18FEF200x       Rx   d 8 00 00 FF FF FF FF FF FF
    2.200000 1  0CF00400x       Rx   d 8 00 7D DD 1B FF FF FF FF
    2.200000 1  0CF00300x       Rx   d 8 00 00 00 FF FF FF FF FF
    2.200000 1  18FEF100x       Rx   d 8 FF 00 00 00 00 00 FF FF
    2.200000 1  18FEF200x       Rx   d 8 00 00 FF FF FF FF FF FF
    2.300000 1  0CF00400x       Rx   d 8 00 7D E6 1B FF FF FF FF
    2.300000 1  0CF00300x       Rx   d 8 00 00 00 FF FF FF FF FF
    2.300000 1  18FEF100x       Rx   d 8 FF 00 00 00 00 00 FF FF
    2.300000 1  18FEF200x       Rx   d 8 00 00 FF FF FF FF FF FF
    2.400000 1  0CF00400x       Rx   d 8 00 7D 78 1C FF FF FF FF
    2.400000 1  0CF00300x       Rx   d 8 00 00 00 FF FF FF FF FF
    2.400000 1  18FEF100x       Rx   d 8 FF 00 00 00 00 00 FF FF
    2.400000 1  18FEF200x       Rx   d 8 00 00 FF FF FF FF FF FF
    2.500000 1  0CF00400x       Rx   d 8 00 7D 04 1C FF FF FF FF
    2.500000 1  0CF00300x       Rx   d 8 00 00 00 FF FF FF FF FF
    2.500000 1  18FEF100x       Rx   d 8 FF 00 00 00 00 00 FF FF
    2.500000 1  18FEF200x       Rx   d 8 00 00 FF FF FF FF FF FF
    2.500000 1  18FEF600x       Rx   d 8 FF 32 3C FF FF FF FF FF
    2.500000 1  18FEEF00x       Rx   d 8 FF FF FF 27 FF FF FF FF
    2.600000 1  0CF00400x       Rx   d 8 00 7D E4 1B FF FF FF FF
    2.600000 1  0CF00300x       Rx   d 8 00 00 00 FF FF FF FF FF
    2.600000 1  18FEF100x       Rx   d 8 FF 00 00 00 00 00 FF FF
    2.600000 1  18FEF200x       Rx   d 8 00 00 FF FF FF FF FF FF
    2.700000 1  0CF00400x       Rx   d 8 00 7D E3 1B FF FF FF FF
    2.700000 1  0CF00300x       Rx   d 8 00 00 00 FF FF FF FF FF
    2.700000 1  18FEF100x       Rx   d 8 FF 00 00 00 00 00 FF FF
    2.700000 1  18FEF200x       Rx   d 8 00 00 FF FF FF FF FF FF
    2.800000 1  0CF00400x       Rx   d 8 00 7D 03 1C FF FF FF FF
    2.800000 1  0CF00300x       Rx   d 8 00 00 00 FF FF FF FF FF
    2.800000 1  18FEF100x       Rx   d 8 FF 00 00 00 00 00 FF FF
    2.800000 1  18FEF200x       Rx   d 8 00 00 FF FF FF FF FF FF
    2.900000 1  0CF00400x       Rx   d 8 00 7D 1D 1C FF FF FF FF
    2.900000 1  0CF00300x       Rx   d 8 00 00 00 FF FF FF FF FF
    2.900000 1  18FEF100x       Rx   d 8 FF 00 00 00 00 00 FF FF
    2.900000 1  18FEF200x       Rx   d 8 00 00 FF FF FF FF FF FF
    3.000000 1  0CF00400x       Rx   d 8 00 7D BC 1B FF FF FF FF
    3.000000 1  0CF00300x       Rx   d 8 00 00 00 FF FF FF FF FF
    3.000000 1  18FEF100x       Rx   d 8 FF 00 00 00 00 00 FF FF
    3.000000 1  18FEF200x       Rx   d 8 00 00 FF FF FF FF FF FF
    3.000000 1  18FEF600x       Rx   d 8 FF 32 3C FF FF FF FF FF
    3.000000 1  18FEEF00x       Rx   d 8 FF FF FF 26 FF FF FF FF
    3.000000 1  18FEEE00x       Rx   d 9 1E 3C 5C 20 FF FF FF 00 FF
    3.000000 1  18FEF700x       Rx   d 8 FF FF FF FF FF FF 1A 01
    3.000000 1  18FEF803x       Rx   d 8 FF FF FF FF A0 24 FF FF
    3.000000 1  18FEFC00x       Rx   d 8 FF FA FF FF FF FF FF FF
    3.000000 1  18FEF500x       Rx   d 9 CA FF FF A0 24 FF FF FF FF
    3.000000 1  18F00503x       Rx   d 8 7D FF FF 7D FF FF FF FF
    3.100000 1  0CF00400x       Rx   d 8 00 7D 07 1C FF FF FF FF
    3.100000 1  0CF00300x       Rx   d 8 00 00 00 FF FF FF FF FF
    3.100000 1  18FEF100x       Rx   d 8 FF 00 00 00 00 00 FF FF
    3.100000 1  18FEF200x       Rx   d 8 00 00 FF FF FF FF FF FF
    3.200000 1  0CF00400x       Rx   d 8 00 7D 90 1C FF FF FF FF
    3.200000 1  0CF00300x       Rx   d 8 00 00 00 FF FF FF FF FF
    3.200000 1  18FEF100x       Rx   d 8 FF 00 00 00 00 00 FF FF
    3.200000 1  18FEF200x       Rx   d 8 00 00 FF FF FF FF FF FF
    3.300000 1  0CF00400x       Rx   d 8 00 7D 6F 1C FF FF FF FF
    3.300000 1  0CF00300x       Rx   d 8 00 00 00 FF FF FF FF FF
    3.300000 1  18FEF100x       Rx   d 8 FF 00 00 00 00 00 FF FF
    3.300000 1  18FEF200x       Rx   d 8 00 00 FF FF FF FF FF FF
    3.400000 1  0CF00400x       Rx   d 8 00 7D 44 1C FF FF FF FF
    3.400000 1  0CF00300x       Rx   d 8 00 00 00 FF FF FF FF FF
    3.400000 1  18FEF100x       Rx   d 8 FF 00 00 00 00 00 FF FF
    3.400000 1  18FEF200x       Rx   d 8 00 00 FF FF FF FF FF FF
    3.500000 1  0CF00400x       Rx   d 8 00 7D 39 1C FF FF FF FF
    3.500000 1  0CF00300x       Rx   d 8 00 00 00 FF FF FF FF FF
    3.500000 1  18FEF100x       Rx   d 8 FF 00 00 00 00 00 FF FF
    3.500000 1  18FEF200x       Rx   d 8 00 00 FF FF FF FF FF FF
    3.500000 1  18FEF600x       Rx   d 8 FF 32 3C FF FF FF FF FF
    3.500000 1  18FEEF00x       Rx   d 8 FF FF FF 23 FF FF FF FF
    3.600000 1  0CF00400x       Rx   d 8 00 7D 0C 1C FF FF FF FF
    3.600000 1  0CF00300x       Rx   d 8 00 00 00 FF FF FF FF FF
    3.600000 1  18FEF100x       Rx   d 8 FF 00 00 00 00 00 FF FF
    3.600000 1  18FEF200x       Rx   d 8 00 00 FF FF FF FF FF FF
    3.700000 1  0CF00400x       Rx   d 8 00 7D DE 1B FF FF FF FF
    3.700000 1  0CF00300x       Rx   d 8 00 00 00 FF FF FF FF FF
    3.700000 1  18FEF100x       Rx   d 8 FF 00 00 00 00 00 FF FF
    3.700000 1  18FEF200x       Rx   d 8 00 00 FF FF FF FF FF FF
    3.800000 1  0CF00400x       Rx   d 8 00 7D 79 1C FF FF FF FF
    3.800000 1  0CF00300x       Rx   d 8 00 00 00 FF FF FF FF FF
    3.800000 1  18FEF100x       Rx   d 8 FF 00 00 00 00 00 FF FF
    3.800000 1  18FEF200x       Rx   d 8 00 00 FF FF FF FF FF FF
    3.900000 1  0CF00400x       Rx   d 8 00 7D 37 1C FF FF FF FF
    3.900000 1  0CF00300x       Rx   d 8 00 00 00 FF FF FF FF FF
    3.900000 1  18FEF100x       Rx   d 8 FF 00 00 00 00 00 FF FF
    3.900000 1  18FEF200x       Rx   d 8 00 00 FF FF FF FF FF FF
    4.000000 1  0CF00400x       Rx   d 8 00 7D 54 1C FF FF FF FF
    4.000000 1  0CF00300x       Rx   d 8 00 00 00 FF FF FF FF FF
    4.000000 1  18FEF100x       Rx   d 8 FF 00 00 00 00 00 FF FF
    4.000000 1  18FEF200x       Rx   d 8 00 00 FF FF FF FF FF FF
    4.000000 1  18FEF600x       Rx   d 8 FF 32 3C FF FF FF FF FF
    4.000000 1  18FEEF00x       Rx   d 8 FF FF FF 25 FF FF FF FF
    4.000000 1  18FEEE00x       Rx   d 9 1F 3C 66 20 FF FF FF 00 FF
    4.000000 1  18FEF700x       Rx   d 8 FF FF FF FF FF FF 1A 01
    4.000000 1  18FEF803x       Rx   d 8 FF FF FF FF A0 24 FF FF
    4.000000 1  18FEFC00x       Rx   d 8 FF FA FF FF FF FF FF FF
    4.000000 1  18FEF500x       Rx   d 9 CA FF FF A0 24 FF FF FF FF
    4.000000 1  18F00503x       Rx   d 8 7D FF FF 7D FF FF FF FF
    4.100000 1  0CF00400x       Rx   d 8 00 7D 1C 1C FF FF FF FF
    4.100000 1  0CF00300x       Rx   d 8 00 00 00 FF FF FF FF FF
    4.100000 1  18FEF100x       Rx   d 8 FF 00 00 00 00 00 FF FF
    4.100000 1  18FEF200x       Rx   d 8 00 00 FF FF FF FF FF FF
    4.200000 1  0CF00400x       Rx   d 8 00 7D A0 1B FF FF FF FF
    4.200000 1  0CF00300x       Rx   d 8 00 00 00 FF FF FF FF FF
    4.200000 1  18FEF100x       Rx   d 8 FF 00 00 00 00 00 FF FF
    4.200000 1  18FEF200x       Rx   d 8 00 00 FF FF FF FF FF FF
    4.300000 1  0CF00400x       Rx   d 8 00 7D 63 1C FF FF FF FF
    4.300000 1  0CF00300x       Rx   d 8 00 00 00 FF FF FF FF FF
    4.300000 1  18FEF100x       Rx   d 8 FF 00 00 00 00 00 FF FF
    4.300000 1  18FEF200x       Rx   d 8 00 00 FF FF FF FF FF FF
    4.400000 1  0CF00400x       Rx   d 8 00 7D 6D 1C FF FF FF FF
    4.400000 1  0CF00300x       Rx   d 8 00 00 00 FF FF FF FF FF
    4.400000 1  18FEF100x       Rx   d 8 FF 00 00 00 00 00 FF FF
    4.400000 1  18FEF200x       Rx   d 8 00 00 FF FF FF FF FF FF
    4.500000 1  0CF00400x       Rx   d 8 00 7D 0F 1C FF FF FF FF
    4.500000 1  0CF00300x       Rx   d 8 00 00 00 FF FF FF FF FF
    4.500000 1  18FEF100x       Rx   d 8 FF 00 00 00 00 00 FF FF
    4.500000 1  18FEF200x       Rx   d 8 00 00 FF FF FF FF FF FF
    4.500000 1  18FEF600x       Rx   d 8 FF 32 3C FF FF FF FF FF
    4.500000 1  18FEEF00x       Rx   d 8 FF FF FF 23 FF FF FF FF
    4.600000 1  0CF00400x       Rx   d 8 00 7D 51 1C FF FF FF FF
    4.600000 1  0CF00300x       Rx   d 8 00 00 00 FF FF FF FF FF
    4.600000 1  18FEF100x       Rx   d 8 FF 00 00 00 00 00 FF FF
    4.600000 1  18FEF200x       Rx   d 8 00 00 FF FF FF FF FF FF
    4.700000 1  0CF00400x       Rx   d 8 00 7D 1D 1C FF FF FF FF
    4.700000 1  0CF00300x       Rx   d 8 00 00 00 FF FF FF FF FF
    4.700000 1  18FEF100x       Rx   d 8 FF 00 00 00 00 00 FF FF
    4.700000 1  18FEF200x       Rx   d 8 00 00 FF FF FF FF FF FF
    4.800000 1  0CF00400x       Rx   d 8 00 7D FE 1B FF FF FF FF
    4.800000 1  0CF00300x       Rx   d 8 00 00 00 FF FF FF FF FF
    4.800000 1  18FEF100x       Rx   d 8 FF 00 00 00 00 00 FF FF
    4.800000 1  18FEF200x       Rx   d 8 00 00 FF FF FF FF FF FF
    4.900000 1  0CF00400x       Rx   d 8 00 7D 47 1C FF FF FF FF
    4.900000 1  0CF00300x       Rx   d 8 00 00 00 FF FF FF FF FF
    4.900000 1  18FEF100x       Rx   d 8 FF 00 00 00 00 00 FF FF
    4.900000 1  18FEF200x       Rx   d 8 00 00 FF FF FF FF FF FF
    5.000000 1  0CF00400x       Rx   d 8 00 7D 86 1C FF FF FF FF
    5.000000 1  0CF00300x       Rx   d 8 00 00 00 FF FF FF FF FF
    5.000000 1  18FEF100x       Rx   d 8 FF 00 00 00 00 00 FF FF
    5.000000 1  18FEF200x       Rx   d 8 00 00 FF FF FF FF FF FF
    5.000000 1  18FEF600x       Rx   d 8 FF 32 3C FF FF FF FF FF
    5.000000 1  18FEEF00x       Rx   d 8 FF FF FF 26 FF FF FF FF
    5.000000 1  18FEEE00x       Rx   d 9 1F 3C 70 20 FF FF FF 00 FF
    5.000000 1  18FEF700x       Rx   d 8 FF FF FF FF FF FF 17 01
    5.000000 1  18FEF803x       Rx   d 8 FF FF FF FF A0 24 FF FF
    5.000000 1  18FEFC00x       Rx   d 8 FF FA FF FF FF FF FF FF
    5.000000 1  18FEF500x       Rx   d 9 CA FF FF A0 24 FF FF FF FF
    5.000000 1  18F00503x       Rx   d 8 7D FF FF 7D FF FF FF FF
    5.100000 1  0CF00400x       Rx   d 8 00 7D 13 1C FF FF FF FF
    5.100000 1  0CF00300x       Rx   d 8 00 00 00 FF FF FF FF FF
    5.100000 1  18FEF100x       Rx   d 8 FF 00 00 00 00 00 FF FF
    5.100000 1  18FEF200x       Rx   d 8 00 00 FF FF FF FF FF FF
    5.200000 1  0CF00400x       Rx   d 8 00 7D E8 1B FF FF FF FF
    5.200000 1  0CF00300x       Rx   d 8 00 00 00 FF FF FF FF FF
    5.200000 1  18FEF100x       Rx   d 8 FF 00 00 00 00 00 FF FF
    5.200000 1  18FEF200x       Rx   d 8 00 00 FF FF FF FF FF FF
    5.300000 1  0CF00400x       Rx   d 8 00 7D CB 1B FF FF FF FF
    5.300000 1  0CF00300x       Rx   d 8 00 00 00 FF FF FF FF FF
    5.300000 1  18FEF100x       Rx   d 8 FF 00 00 00 00 00 FF FF
    5.300000 1  18FEF200x       Rx   d 8 00 00 FF FF FF FF FF FF
    5.400000 1  0CF00400x       Rx   d 8 00 7D CC 1B FF FF FF FF
    5.400000 1  0CF00300x       Rx   d 8 00 00 00 FF FF FF FF FF
    5.400000 1  18FEF100x       Rx   d 8 FF 00 00 00 00 00 FF FF
    5.400000 1  18FEF200x       Rx   d 8 00 00 FF FF FF FF FF FF
    5.500000 1  0CF00400x       Rx   d 8 00 7D A6 1B FF FF FF FF
    5.500000 1  0CF00300x       Rx   d 8 00 00 00 FF FF FF FF FF
    5.500000 1  18FEF100x       Rx   d 8 FF 00 00 00 00 00 FF FF
    5.500000 1  18FEF200x       Rx   d 8 00 00 FF FF FF FF FF FF
    5.500000 1  18FEF600x       Rx   d 8 FF 32 3C FF FF FF FF FF
    5.500000 1  18FEEF00x       Rx   d 8 FF FF FF 24 FF FF FF FF
    5.600000 1  0CF00400x       Rx   d 8 00 7D C8 1B FF FF FF FF
    5.600000 1  0CF00300x       Rx   d 8 00 00 00 FF FF FF FF FF
    5.600000 1  18FEF100x       Rx   d 8 FF 00 00 00 00 00 FF FF
    5.600000 1  18FEF200x       Rx   d 8 00 00 FF FF FF FF FF FF
    5.700000 1  0CF00400x       Rx   d 8 00 7D 1D 1C FF FF FF FF
    5.700000 1  0CF00300x       Rx   d 8 00 00 00 FF FF FF FF FF
    5.700000 1  18FEF100x       Rx   d 8 FF 00 00 00 00 00 FF FF
    5.700000 1  18FEF200x       Rx   d 8 00 00 FF FF FF FF FF FF
    5.800000 1  0CF00400x       Rx   d 8 00 7D 55 1C FF FF FF FF
    5.800000 1  0CF00300x       Rx   d 8 00 00 00 FF FF FF FF FF
    5.800000 1  18FEF100x       Rx   d 8 FF 00 00 00 00 00 FF FF
    5.800000 1  18FEF200x       Rx   d 8 00 00 FF FF FF FF FF FF
    5.900000 1  0CF00400x       Rx   d 8 00 7D FA 1B FF FF FF FF
    5.900000 1  0CF00300x       Rx   d 8 00 00 00 FF FF FF FF FF
    5.900000 1  18FEF100x       Rx   d 8 FF 00 00 00 00 00 FF FF
    5.900000 1  18FEF200x       Rx   d 8 00 00 FF FF FF FF FF FF
    6.000000 1  0CF00400x       Rx   d 8 00 7D 41 1C FF FF FF FF
    6.000000 1  0CF00300x       Rx   d 8 00 00 00 FF FF FF FF FF
    6.000000 1  18FEF100x       Rx   d 8 FF 00 00 00 00 00 FF FF
    6.000000 1  18FEF200x       Rx   d 8 00 00 FF FF FF FF FF FF
    6.000000 1  18FEF600x       Rx   d 8 FF 32 3C FF FF FF FF FF
    6.000000 1  18FEEF00x       Rx   d 8 FF FF FF 26 FF FF FF FF
    6.000000 1  18FEEE00x       Rx   d 9 1F 3C 79 20 FF FF FF 00 FF
    6.000000 1  18FEF700x       Rx   d 8 FF FF FF FF FF FF 1B 01
    6.000000 1  18FEF803x       Rx   d 8 FF FF FF FF A0 24 FF FF
    6.000000 1  18FEFC00x       Rx   d 8 FF FA FF FF FF FF FF FF
    6.000000 1  18FEF500x       Rx   d 9 CA FF FF A0 24 FF FF FF FF
    6.000000 1  18F00503x       Rx   d 8 7D FF FF 7D FF FF FF FF
    6.100000 1  0CF00400x       Rx   d 8 00 7D A9 1B FF FF FF FF
    6.100000 1  0CF00300x       Rx   d 8 00 00 00 FF FF FF FF FF
    6.100000 1  18FEF100x       Rx   d 8 FF 00 00 00 00 00 FF FF
    6.100000 1  18FEF200x       Rx   d 8 00 00 FF FF FF FF FF FF
    6.200000 1  0CF00400x       Rx   d 8 00 7D 60 1C FF FF FF FF
    6.200000 1  0CF00300x       Rx   d 8 00 00 00 FF FF FF FF FF
    6.200000 1  18FEF100x       Rx   d 8 FF 00 00 00 00 00 FF FF
    6.200000 1  18FEF200x       Rx   d 8 00 00 FF FF FF FF FF FF
    6.300000 1  0CF00400x       Rx   d 8 00 7D FC 1B FF FF FF FF
    6.300000 1  0CF00300x       Rx   d 8 00 00 00 FF FF FF FF FF
    6.300000 1  18FEF100x       Rx   d 8 FF 00 00 00 00 00 FF FF
    6.300000 1  18FEF200x       Rx   d 8 00 00 FF FF FF FF FF FF
    6.400000 1  0CF00400x       Rx   d 8 00 7D CC 1B FF FF FF FF
    6.400000 1  0CF00300x       Rx   d 8 00 00 00 FF FF FF FF FF
    6.400000 1  18FEF100x       Rx   d 8 FF 00 00 00 00 00 FF FF
    6.400000 1  18FEF200x       Rx   d 8 00 00 FF FF FF FF FF FF
    6.500000 1  0CF00400x       Rx   d 8 00 7D 5E 1C FF FF FF FF
    6.500000 1  0CF00300x       Rx   d 8 00 00 00 FF FF FF FF FF
    6.500000 1  18FEF100x       Rx   d 8 FF 00 00 00 00 00 FF FF
    6.500000 1  18FEF200x       Rx   d 8 00 00 FF FF FF FF FF FF
    6.500000 1  18FEF600x       Rx   d 8 FF 32 3C FF FF FF FF FF
    6.500000 1  18FEEF00x       Rx   d 8 FF FF FF 26 FF FF FF FF
    6.600000 1  0CF00400x       Rx   d 8 00 7D 7F 1C FF FF FF FF
    6.600000 1  0CF00300x       Rx   d 8 00 00 00 FF FF FF FF FF
    6.600000 1  18FEF100x       Rx   d 8 FF 00 00 00 00 00 FF FF
    6.600000 1  18FEF200x       Rx   d 8 00 00 FF FF FF FF FF FF
    6.700000 1  0CF00400x       Rx   d 8 00 7D 6D 1C FF FF FF FF
    6.700000 1  0CF00300x       Rx   d 8 00 00 00 FF FF FF FF FF
    6.700000 1  18FEF100x       Rx   d 8 FF 00 00 00 00 00 FF FF
    6.700000 1  18FEF200x       Rx   d 8 00 00 FF FF FF FF FF FF
    6.800000 1  0CF00400x       Rx   d 8 00 7D 02 1C FF FF FF FF
    6.800000 1  0CF00300x       Rx   d 8 00 00 00 FF FF FF FF FF
    6.800000 1  18FEF100x       Rx   d 8 FF 00 00 00 00 00 FF FF
    6.800000 1  18FEF200x       Rx   d 8 00 00 FF FF FF FF FF FF
    6.900000 1  0CF00400x       Rx   d 8 00 7D 9B 1B FF FF FF FF
    6.900000 1  0CF00300x       Rx   d 8 00 00 00 FF FF FF FF FF
    6.900000 1  18FEF100x       Rx   d 8 FF 00 00 00 00 00 FF FF
    6.900000 1  18FEF200x       Rx   d 8 00 00 FF FF FF FF FF FF
    7.000000 1  0CF00400x       Rx   d 8 00 7D CC 1B FF FF FF FF
    7.000000 1  0CF00300x       Rx   d 8 00 00 00 FF FF FF FF FF
    7.000000 1  18FEF100x       Rx   d 8 FF 00 00 00 00 00 FF FF
    7.000000 1  18FEF200x       Rx   d 8 00 00 FF FF FF FF FF FF
    7.000000 1  18FEF600x       Rx   d 8 FF 32 3C FF FF FF FF FF
    7.000000 1  18FEEF00x       Rx   d 8 FF FF FF 27 FF FF FF FF
    7.000000 1  18FEEE00x       Rx   d 9 20 3C 83 20 FF FF FF 00 FF
    7.000000 1  18FEF700x       Rx   d 8 FF FF FF FF FF FF 17 01
    7.000000 1  18FEF803x       Rx   d 8 FF FF FF FF A0 24 FF FF
    7.000000 1  18FEFC00x       Rx   d 8 FF FA FF FF FF FF FF FF
    7.000000 1  18FEF500x       Rx   d 9 CA FF FF A0 24 FF FF FF FF
    7.000000 1  18F00503x       Rx   d 8 7D FF FF 7D FF FF FF FF
    7.100000 1  0CF00400x       Rx   d 8 00 7D F2 1B FF FF FF FF
    7.100000 1  0CF00300x       Rx   d 8 00 00 00 FF FF FF FF FF
    7.100000 1  18FEF100x       Rx   d 8 FF 00 00 00 00 00 FF FF
    7.100000 1  18FEF200x       Rx   d 8 00 00 FF FF FF FF FF FF
    7.200000 1  0CF00400x       Rx   d 8 00 7D 11 1C FF FF FF FF
    7.200000 1  0CF00300x       Rx   d 8 00 00 00 FF FF FF FF FF
    7.200000 1  18FEF100x       Rx   d 8 FF 00 00 00 00 00 FF FF
    7.200000 1  18FEF200x       Rx   d 8 00 00 FF FF FF FF FF FF
    7.300000 1  0CF00400x       Rx   d 8 00 7D D2 1B FF FF FF FF
    7.300000 1  0CF00300x       Rx   d 8 00 00 00 FF FF FF FF FF
    7.300000 1  18FEF100x       Rx   d 8 FF 00 00 00 00 00 FF FF
    7.300000 1  18FEF200x       Rx   d 8 00 00 FF FF FF FF FF FF
    7.400000 1  0CF00400x       Rx   d 8 00 7D 0D 1C FF FF FF FF
    7.400000 1  0CF00300x       Rx   d 8 00 00 00 FF FF FF FF FF
    7.400000 1  18FEF100x       Rx   d 8 FF 00 00 00 00 00 FF FF
    7.400000 1  18FEF200x       Rx   d 8 00 00 FF FF FF FF FF FF
    7.500000 1  0CF00400x       Rx   d 8 00 7D 16 1C FF FF FF FF
    7.500000 1  0CF00300x       Rx   d 8 00 00 00 FF FF FF FF FF
    7.500000 1  18FEF100x       Rx   d 8 FF 00 00 00 00 00 FF FF
    7.500000 1  18FEF200x       Rx   d 8 00 00 FF FF FF FF FF FF
    7.500000 1  18FEF600x       Rx   d 8 FF 32 3C FF FF FF FF FF
    7.500000 1  18FEEF00x       Rx   d 8 FF FF FF 25 FF FF FF FF
    7.600000 1  0CF00400x       Rx   d 8 00 7D AF 1B FF FF FF FF
    7.600000 1  0CF00300x       Rx   d 8 00 00 00 FF FF FF FF FF
    7.600000 1  18FEF100x       Rx   d 8 FF 00 00 00 00 00 FF FF
    7.600000 1  18FEF200x       Rx   d 8 00 00 FF FF FF FF FF FF
    7.700000 1  0CF00400x       Rx   d 8 00 7D B6 1B FF FF FF FF
    7.700000 1  0CF00300x       Rx   d 8 00 00 00 FF FF FF FF FF
    7.700000 1  18FEF100x       Rx   d 8 FF 00 00 00 00 00 FF FF
    7.700000 1  18FEF200x       Rx   d 8 00 00 FF FF FF FF FF FF
    7.800000 1  0CF00400x       Rx   d 8 00 7D C1 1B FF FF FF FF
    7.800000 1  0CF00300x       Rx   d 8 00 00 00 FF FF FF FF FF
    7.800000 1  18FEF100x       Rx   d 8 FF 00 00 00 00 00 FF FF
    7.800000 1  18FEF200x       Rx   d 8 00 00 FF FF FF FF FF FF
    7.900000 1  0CF00400x       Rx   d 8 00 7D C3 1B FF FF FF FF
    7.900000 1  0CF00300x       Rx   d 8 00 00 00 FF FF FF FF FF
    7.900000 1  18FEF100x       Rx   d 8 FF 00 00 00 00 00 FF FF
    7.900000 1  18FEF200x       Rx   d 8 00 00 FF FF FF FF FF FF
    8.000000 1  0CF00400x       Rx   d 8 00 7D EC 1B FF FF FF FF
    8.000000 1  0CF00300x       Rx   d 8 00 00 00 FF FF FF FF FF
    8.000000 1  18FEF100x       Rx   d 8 FF 00 00 00 00 00 FF FF
    8.000000 1  18FEF200x       Rx   d 8 00 00 FF FF FF FF FF FF
    8.000000 1  18FEF600x       Rx   d 8 FF 32 3C FF FF FF FF FF
    8.000000 1  18FEEF00x       Rx   d 8 FF FF FF 26 FF FF FF FF
    8.000000 1  18FEEE00x       Rx   d 9 20 3C 8C 20 FF FF FF 00 FF
    8.000000 1  18FEF700x       Rx   d 8 FF FF FF FF FF FF 18 01
    8.000000 1  18FEF803x       Rx   d 8 FF FF FF FF A0 24 FF FF
    8.000000 1  18FEFC00x       Rx   d 8 FF FA FF FF FF FF FF FF
    8.000000 1  18FEF500x       Rx   d 9 CA FF FF A0 24 FF FF FF FF
    8.000000 1  18F00503x       Rx   d 8 7D FF FF 7D FF FF FF FF
    8.100000 1  0CF00400x       Rx   d 8 00 7D 67 1C FF FF FF FF
    8.100000 1  0CF00300x       Rx   d 8 00 00 00 FF FF FF FF FF
    8.100000 1  18FEF100x       Rx   d 8 FF 00 00 00 00 00 FF FF
    8.100000 1  18FEF200x       Rx   d 8 00 00 FF FF FF FF FF FF
    8.200000 1  0CF00400x       Rx   d 8 00 7D C0 1B FF FF FF FF
    8.200000 1  0CF00300x       Rx   d 8 00 00 00 FF FF FF FF FF
    8.200000 1  18FEF100x       Rx   d 8 FF 00 00 00 00 00 FF FF
    8.200000 1  18FEF200x       Rx   d 8 00 00 FF FF FF FF FF FF
    8.300000 1  0CF00400x       Rx   d 8 00 7D CE 1B FF FF FF FF
    8.300000 1  0CF00300x       Rx   d 8 00 00 00 FF FF FF FF FF
    8.300000 1  18FEF100x       Rx   d 8 FF 00 00 00 00 00 FF FF
    8.300000 1  18FEF200x       Rx   d 8 00 00 FF FF FF FF FF FF
    8.400000 1  0CF00400x       Rx   d 8 00 7D 97 1B FF FF FF FF
    8.400000 1  0CF00300x       Rx   d 8 00 00 00 FF FF FF FF FF
    8.400000 1  18FEF100x       Rx   d 8 FF 00 00 00 00 00 FF FF
    8.400000 1  18FEF200x       Rx   d 8 00 00 FF FF FF FF FF FF
    8.500000 1  0CF00400x       Rx   d 8 00 7D 74 1C FF FF FF FF
    8.500000 1  0CF00300x       Rx   d 8 00 00 00 FF FF FF FF FF
    8.500000 1  18FEF100x       Rx   d 8 FF 00 00 00 00 00 FF FF
    8.500000 1  18FEF200x       Rx   d 8 00 00 FF FF FF FF FF FF
    8.500000 1  18FEF600x       Rx   d 8 FF 32 3C FF FF FF FF FF
    8.500000 1  18FEEF00x       Rx   d 8 FF FF FF 23 FF FF FF FF
    8.600000 1  0CF00400x       Rx   d 8 00 7D C4 1B FF FF FF FF
    8.600000 1  0CF00300x       Rx   d 8 00 00 00 FF FF FF FF FF
    8.600000 1  18FEF100x       Rx   d 8 FF 00 00 00 00 00 FF FF
    8.600000 1  18FEF200x       Rx   d 8 00 00 FF FF FF FF FF FF
    8.700000 1  0CF00400x       Rx   d 8 00 7D 57 1C FF FF FF FF
    8.700000 1  0CF00300x       Rx   d 8 00 00 00 FF FF FF FF FF
    8.700000 1  18FEF100x       Rx   d 8 FF 00 00 00 00 00 FF FF
    8.700000 1  18FEF200x       Rx   d 8 00 00 FF FF FF FF FF FF
    8.800000 1  0CF00400x       Rx   d 8 00 7D 4B 1C FF FF FF FF
    8.800000 1  0CF00300x       Rx   d 8 00 00 00 FF FF FF FF FF
    8.800000 1  18FEF100x       Rx   d 8 FF 00 00 00 00 00 FF FF
    8.800000 1  18FEF200x       Rx   d 8 00 00 FF FF FF FF FF FF
    8.900000 1  0CF00400x       Rx   d 8 00 7D 70 1C FF FF FF FF
    8.900000 1  0CF00300x       Rx   d 8 00 00 00 FF FF FF FF FF
    8.900000 1  18FEF100x       Rx   d 8 FF 00 00 00 00 00 FF FF
    8.900000 1  18FEF200x       Rx   d 8 00 00 FF FF FF FF FF FF
    9.000000 1  0CF00400x       Rx   d 8 00 7D 46 1C FF FF FF FF
    9.000000 1  0CF00300x       Rx   d 8 00 00 00 FF FF FF FF FF
    9.000000 1  18FEF100x       Rx   d 8 FF 00 00 00 00 00 FF FF
    9.000000 1  18FEF200x       Rx   d 8 00 00 FF FF FF FF FF FF
    9.000000 1  18FEF600x       Rx   d 8 FF 32 3C FF FF FF FF FF
    9.000000 1  18FEEF00x       Rx   d 8 FF FF FF 25 FF FF FF FF
    9.000000 1  18FEEE00x       Rx   d 9 20 3C 96 20 FF FF FF 00 FF
    9.000000 1  18FEF700x       Rx   d 8 FF FF FF FF FF FF 19 01
    9.000000 1  18FEF803x       Rx   d 8 FF FF FF FF A0 24 FF FF
    9.000000 1  18FEFC00x       Rx   d 8 FF FA FF FF FF FF FF FF
    9.000000 1  18FEF500x       Rx   d 9 CA FF FF A0 24 FF FF FF FF
    9.000000 1  18F00503x       Rx   d 8 7D FF FF 7D FF FF FF FF
    9.100000 1  0CF00400x       Rx   d 8 00 7D 63 1C FF FF FF FF
    9.100000 1  0CF00300x       Rx   d 8 00 00 00 FF FF FF FF FF
    9.100000 1  18FEF100x       Rx   d 8 FF 00 00 00 00 00 FF FF
    9.100000 1  18FEF200x       Rx   d 8 00 00 FF FF FF FF FF FF
    9.200000 1  0CF00400x       Rx   d 8 00 7D 9B 1B FF FF FF FF
    9.200000 1  0CF00300x       Rx   d 8 00 00 00 FF FF FF FF FF
    9.200000 1  18FEF100x       Rx   d 8 FF 00 00 00 00 00 FF FF
    9.200000 1  18FEF200x       Rx   d 8 00 00 FF FF FF FF FF FF
    9.300000 1  0CF00400x       Rx   d 8 00 7D 12 1C FF FF FF FF
    9.300000 1  0CF00300x       Rx   d 8 00 00 00 FF FF FF FF FF
    9.300000 1  18FEF100x       Rx   d 8 FF 00 00 00 00 00 FF FF
    9.300000 1  18FEF200x       Rx   d 8 00 00 FF FF FF FF FF FF
    9.400000 1  0CF00400x       Rx   d 8 00 7D 18 1C FF FF FF FF
    9.400000 1  0CF00300x       Rx   d 8 00 00 00 FF FF FF FF FF
    9.400000 1  18FEF100x       Rx   d 8 FF 00 00 00 00 00 FF FF
    9.400000 1  18FEF200x       Rx   d 8 00 00 FF FF FF FF FF FF
    9.500000 1  0CF00400x       Rx   d 8 00 7D 59 1C FF FF FF FF
    9.500000 1  0CF00300x       Rx   d 8 00 00 00 FF FF FF FF FF
    9.500000 1  18FEF100x       Rx   d 8 FF 00 00 00 00 00 FF FF
    9.500000 1  18FEF200x       Rx   d 8 00 00 FF FF FF FF FF FF
    9.500000 1  18FEF600x       Rx   d 8 FF 32 3C FF FF FF FF FF
    9.500000 1  18FEEF00x       Rx   d 8 FF FF FF 27 FF FF FF FF
    9.600000 1  0CF00400x       Rx   d 8 00 7D E5 1B FF FF FF FF
    9.600000 1  0CF00300x       Rx   d 8 00 00 00 FF FF FF FF FF
    9.600000 1  18FEF100x       Rx   d 8 FF 00 00 00 00 00 FF FF
    9.600000 1  18FEF200x       Rx   d 8 00 00 FF FF FF FF FF FF
    9.700000 1  0CF00400x       Rx   d 8 00 7D 38 1C FF FF FF FF
    9.700000 1  0CF00300x       Rx   d 8 00 00 00 FF FF FF FF FF
    9.700000 1  18FEF100x       Rx   d 8 FF 00 00 00 00 00 FF FF
    9.700000 1  18FEF200x       Rx   d 8 00 00 FF FF FF FF FF FF
    9.800000 1  0CF00400x       Rx   d 8 00 7D 30 1C FF FF FF FF
    9.800000 1  0CF00300x       Rx   d 8 00 00 00 FF FF FF FF FF
    9.800000 1  18FEF100x       Rx   d 8 FF 00 00 00 00 00 FF FF
    9.800000 1  18FEF200x       Rx   d 8 00 00 FF FF FF FF FF FF
    9.900000 1  0CF00400x       Rx   d 8 00 7D 80 1B FF FF FF FF
    9.900000 1  0CF00300x       Rx   d 8 00 00 00 FF FF FF FF FF
    9.900000 1  18FEF100x       Rx   d 8 FF 00 00 00 00 00 FF FF
    9.900000 1  18FEF200x       Rx   d 8 00 00 FF FF FF FF FF FF
   10.000000 1  0CF00400x       Rx   d 8 00 7D 56 1C FF FF FF FF
   10.000000 1  0CF00300x       Rx   d 8 00 00 00 FF FF FF FF FF
   10.000000 1  18FEF100x       Rx   d 8 FF 00 00 00 00 00 FF FF
   10.000000 1  18FEF200x       Rx   d 8 00 00 FF FF FF FF FF FF
   10.000000 1  18FEF600x       Rx   d 8 FF 32 3C FF FF FF FF FF
   10.000000 1  18FEEF00x       Rx   d 8 FF FF FF 26 FF FF FF FF
   10.000000 1  18FEEE00x       Rx   d 9 21 3C A0 20 FF FF FF 00 FF
   10.000000 1  18FEF700x       Rx   d 8 FF FF FF FF FF FF 1A 01
   10.000000 1  18FEF803x       Rx   d 8 FF FF FF FF A0 24 FF FF
   10.000000 1  18FEFC00x       Rx   d 8 FF FA FF FF FF FF FF FF
   10.000000 1  18FEF500x       Rx   d 9 CA FF FF A0 24 FF FF FF FF
   10.000000 1  18F00503x       Rx   d 8 7D FF FF 7D FF FF FF FF
   10.000000 1  18FEE500x       Rx   d 8 40 0D 03 00 FF FF FF FF
   10.100000 1  0CF00400x       Rx   d 8 00 7D 08 1C FF FF FF FF
   10.100000 1  0CF00300x       Rx   d 8 00 00 00 FF FF FF FF FF
   10.100000 1  18FEF100x       Rx   d 8 FF 00 00 00 00 00 FF FF
   10.100000 1  18FEF200x       Rx   d 8 00 00 FF FF FF FF FF FF
   10.200000 1  0CF00400x       Rx   d 8 00 7D C6 1B FF FF FF FF
   10.200000 1  0CF00300x       Rx   d 8 00 00 00 FF FF FF FF FF
   10.200000 1  18FEF100x       Rx   d 8 FF 00 00 00 00 00 FF FF
   10.200000 1  18FEF200x       Rx   d 8 00 00 FF FF FF FF FF FF
   10.300000 1  0CF00400x       Rx   d 8 00 7D 4A 1C FF FF FF FF
   10.300000 1  0CF00300x       Rx   d 8 00 00 00 FF FF FF FF FF
   10.300000 1  18FEF100x       Rx   d 8 FF 00 00 00 00 00 FF FF
   10.300000 1  18FEF200x       Rx   d 8 00 00 FF FF FF FF FF FF
   10.400000 1  0CF00400x       Rx   d 8 00 7D B7 1B FF FF FF FF
   10.400000 1  0CF00300x       Rx   d 8 00 00 00 FF FF FF FF FF
   10.400000 1  18FEF100x       Rx   d 8 FF 00 00 00 00 00 FF FF
   10.400000 1  18FEF200x       Rx   d 8 00 00 FF FF FF FF FF FF
   10.500000 1  0CF00400x       Rx   d 8 00 7D 4E 1C FF FF FF FF
   10.500000 1  0CF00300x       Rx   d 8 00 00 00 FF FF FF FF FF
   10.500000 1  18FEF100x       Rx   d 8 FF 00 00 00 00 00 FF FF
   10.500000 1  18FEF200x       Rx   d 8 00 00 FF FF FF FF FF FF
   10.500000 1  18FEF600x       Rx   d 8 FF 32 3C FF FF FF FF FF
   10.500000 1  18FEEF00x       Rx   d 8 FF FF FF 25 FF FF FF FF
   10.600000 1  0CF00400x       Rx   d 8 00 7D 9F 1B FF FF FF FF
   10.600000 1  0CF00300x       Rx   d 8 00 00 00 FF FF FF FF FF
   10.600000 1  18FEF100x       Rx   d 8 FF 00 00 00 00 00 FF FF
   10.600000 1  18FEF200x       Rx   d 8 00 00 FF FF FF FF FF FF
   10.700000 1  0CF00400x       Rx   d 8 00 7D 63 1C FF FF FF FF
   10.700000 1  0CF00300x       Rx   d 8 00 00 00 FF FF FF FF FF
   10.700000 1  18FEF100x       Rx   d 8 FF 00 00 00 00 00 FF FF
   10.700000 1  18FEF200x       Rx   d 8 00 00 FF FF FF FF FF FF
   10.800000 1  0CF00400x       Rx   d 8 00 7D 7F 1B FF FF FF FF
   10.800000 1  0CF00300x       Rx   d 8 00 00 00 FF FF FF FF FF
   10.800000 1  18FEF100x       Rx   d 8 FF 00 00 00 00 00 FF FF
   10.800000 1  18FEF200x       Rx   d 8 00 00 FF FF FF FF FF FF
   10.900000 1  0CF00400x       Rx   d 8 00 7D 57 1C FF FF FF FF
   10.900000 1  0CF00300x       Rx   d 8 00 00 00 FF FF FF FF FF
   10.900000 1  18FEF100x       Rx   d 8 FF 00 00 00 00 00 FF FF
   10.900000 1  18FEF200x       Rx   d 8 00 00 FF FF FF FF FF FF
   11.000000 1  0CF00400x       Rx   d 8 00 7D 3A 1C FF FF FF FF
   11.000000 1  0CF00300x       Rx   d 8 00 00 00 FF FF FF FF FF
   11.000000 1  18FEF100x       Rx   d 8 FF 00 00 00 00 00 FF FF
   11.000000 1  18FEF200x       Rx   d 8 00 00 FF FF FF FF FF FF
   11.000000 1  18FEF600x       Rx   d 8 FF 32 3C FF FF FF FF FF
   11.000000 1  18FEEF00x       Rx   d 8 FF FF FF 25 FF FF FF FF
   11.000000 1  18FEEE00x       Rx   d 9 21 3C A9 20 FF FF FF 00 FF
   11.000000 1  18FEF700x       Rx   d 8 FF FF FF FF FF FF 1A 01
   11.000000 1  18FEF803x       Rx   d 8 FF FF FF FF A0 24 FF FF
   11.000000 1  18FEFC00x       Rx   d 8 FF FA FF FF FF FF FF FF
   11.000000 1  18FEF500x       Rx   d 9 CA FF FF A0 24 FF FF FF FF
   11.000000 1  18F00503x       Rx   d 8 7D FF FF 7D FF FF FF FF
   11.100000 1  0CF00400x       Rx   d 8 00 7D 91 1B FF FF FF FF
   11.100000 1  0CF00300x       Rx   d 8 00 00 00 FF FF FF FF FF
   11.100000 1  18FEF100x       Rx   d 8 FF 00 00 00 00 00 FF FF
   11.100000 1  18FEF200x       Rx   d 8 00 00 FF FF FF FF FF FF
   11.200000 1  0CF00400x       Rx   d 8 00 7D AC 1B FF FF FF FF
   11.200000 1  0CF00300x       Rx   d 8 00 00 00 FF FF FF FF FF
   11.200000 1  18FEF100x       Rx   d 8 FF 00 00 00 00 00 FF FF
   11.200000 1  18FEF200x       Rx   d 8 00 00 FF FF FF FF FF FF
   11.300000 1  0CF00400x       Rx   d 8 00 7D BF 1B FF FF FF FF
   11.300000 1  0CF00300x       Rx   d 8 00 00 00 FF FF FF FF FF
   11.300000 1  18FEF100x       Rx   d 8 FF 00 00 00 00 00 FF FF
   11.300000 1  18FEF200x       Rx   d 8 00 00 FF FF FF FF FF FF
   11.400000 1  0CF00400x       Rx   d 8 00 7D 7B 1B FF FF FF FF
   11.400000 1  0CF00300x       Rx   d 8 00 00 00 FF FF FF FF FF
   11.400000 1  18FEF100x       Rx   d 8 FF 00 00 00 00 00 FF FF
   11.400000 1  18FEF200x       Rx   d 8 00 00 FF FF FF FF FF FF
   11.500000 1  0CF00400x       Rx   d 8 00 7D 44 1C FF FF FF FF
   11.500000 1  0CF00300x       Rx   d 8 00 00 00 FF FF FF FF FF
   11.500000 1  18FEF100x       Rx   d 8 FF 00 00 00 00 00 FF FF
   11.500000 1  18FEF200x       Rx   d 8 00 00 FF FF FF FF FF FF
   11.500000 1  18FEF600x       Rx   d 8 FF 32 3C FF FF FF FF FF
   11.500000 1  18FEEF00x       Rx   d 8 FF FF FF 28 FF FF FF FF
   11.600000 1  0CF00400x       Rx   d 8 00 7D 0E 1C FF FF FF FF
   11.600000 1  0CF00300x       Rx   d 8 00 00 00 FF FF FF FF FF
   11.600000 1  18FEF100x       Rx   d 8 FF 00 00 00 00 00 FF FF
   11.600000 1  18FEF200x       Rx   d 8 00 00 FF FF FF FF FF FF
   11.700000 1  0CF00400x       Rx   d 8 00 7D F4 1B FF FF FF FF
   11.700000 1  0CF00300x       Rx   d 8 00 00 00 FF FF FF FF FF
   11.700000 1  18FEF100x       Rx   d 8 FF 00 00 00 00 00 FF FF
   11.700000 1  18FEF200x       Rx   d 8 00 00 FF FF FF FF FF FF
   11.800000 1  0CF00400x       Rx   d 8 00 7D 5C 1C FF FF FF FF
   11.800000 1  0CF00300x       Rx   d 8 00 00 00 FF FF FF FF FF
   11.800000 1  18FEF100x       Rx   d 8 FF 00 00 00 00 00 FF FF
   11.800000 1  18FEF200x       Rx   d 8 00 00 FF FF FF FF FF FF
   11.900000 1  0CF00400x       Rx   d 8 00 7D B2 1B FF FF FF FF
   11.900000 1  0CF00300x       Rx   d 8 00 00 00 FF FF FF FF FF
   11.900000 1  18FEF100x       Rx   d 8 FF 00 00 00 00 00 FF FF
   11.900000 1  18FEF200x       Rx   d 8 00 00 FF FF FF FF FF FF
   12.000000 1  0CF00400x       Rx   d 8 00 7D 21 1C FF FF FF FF
   12.000000 1  0CF00300x       Rx   d 8 00 00 00 FF FF FF FF FF
   12.000000 1  18FEF100x       Rx   d 8 FF 00 00 00 00 00 FF FF
   12.000000 1  18FEF200x       Rx   d 8 00 00 FF FF FF FF FF FF
   12.000000 1  18FEF600x       Rx   d 8 FF 32 3C FF FF FF FF FF
   12.000000 1  18FEEF00x       Rx   d 8 FF FF FF 25 FF FF FF FF
   12.000000 1  18FEEE00x       Rx   d 9 21 3C B3 20 FF FF FF 00 FF
   12.000000 1  18FEF700x       Rx   d 8 FF FF FF FF FF FF 18 01
   12.000000 1  18FEF803x       Rx   d 8 FF FF FF FF A0 24 FF FF
   12.000000 1  18FEFC00x       Rx   d 8 FF FA FF FF FF FF FF FF
   12.000000 1  18FEF500x       Rx   d 9 CA FF FF A0 24 FF FF FF FF
   12.000000 1  18F00503x       Rx   d 8 7D FF FF 7D FF FF FF FF
   12.100000 1  0CF00400x       Rx   d 8 00 7D EC 1B FF FF FF FF
   12.100000 1  0CF00300x       Rx   d 8 00 00 00 FF FF FF FF FF
   12.100000 1  18FEF100x       Rx   d 8 FF 00 00 00 00 00 FF FF
   12.100000 1  18FEF200x       Rx   d 8 00 00 FF FF FF FF FF FF
   12.200000 1  0CF00400x       Rx   d 8 00 7D AE 1B FF FF FF FF
   12.200000 1  0CF00300x       Rx   d 8 00 00 00 FF FF FF FF FF
   12.200000 1  18FEF100x       Rx   d 8 FF 00 00 00 00 00 FF FF
   12.200000 1  18FEF200x       Rx   d 8 00 00 FF FF FF FF FF FF
   12.300000 1  0CF00400x       Rx   d 8 00 7D 4F 1C FF FF FF FF
   12.300000 1  0CF00300x       Rx   d 8 00 00 00 FF FF FF FF FF
   12.300000 1  18FEF100x       Rx   d 8 FF 00 00 00 00 00 FF FF
   12.300000 1  18FEF200x       Rx   d 8 00 00 FF FF FF FF FF FF
   12.400000 1  0CF00400x       Rx   d 8 00 7D 22 1C FF FF FF FF
   12.400000 1  0CF00300x       Rx   d 8 00 00 00 FF FF FF FF FF
   12.400000 1  18FEF100x       Rx   d 8 FF 00 00 00 00 00 FF FF
   12.400000 1  18FEF200x       Rx   d 8 00 00 FF FF FF FF FF FF
   12.500000 1  0CF00400x       Rx   d 8 00 7D 80 1B FF FF FF FF
   12.500000 1  0CF00300x       Rx   d 8 00 00 00 FF FF FF FF FF
   12.500000 1  18FEF100x       Rx   d 8 FF 00 00 00 00 00 FF FF
   12.500000 1  18FEF200x       Rx   d 8 00 00 FF FF FF FF FF FF
   12.500000 1  18FEF600x       Rx   d 8 FF 32 3C FF FF FF FF FF
   12.500000 1  18FEEF00x       Rx   d 8 FF FF FF 27 FF FF FF FF
   12.600000 1  0CF00400x       Rx   d 8 00 7D BA 1B FF FF FF FF
   12.600000 1  0CF00300x       Rx   d 8 00 00 00 FF FF FF FF FF
   12.600000 1  18FEF100x       Rx   d 8 FF 00 00 00 00 00 FF FF
   12.600000 1  18FEF200x       Rx   d 8 00 00 FF FF FF FF FF FF
   12.700000 1  0CF00400x       Rx   d 8 00 7D B7 1B FF FF FF FF
   12.700000 1  0CF00300x       Rx   d 8 00 00 00 FF FF FF FF FF
   12.700000 1  18FEF100x       Rx   d 8 FF 00 00 00 00 00 FF FF
   12.700000 1  18FEF200x       Rx   d 8 00 00 FF FF FF FF FF FF
   12.800000 1  0CF00400x       Rx   d 8 00 7D CE 1B FF FF FF FF
   12.800000 1  0CF00300x       Rx   d 8 00 00 00 FF FF FF FF FF
   12.800000 1  18FEF100x       Rx   d 8 FF 00 00 00 00 00 FF FF
   12.800000 1  18FEF200x       Rx   d 8 00 00 FF FF FF FF FF FF
   12.900000 1  0CF00400x       Rx   d 8 00 7D D2 1B FF FF FF FF
   12.900000 1  0CF00300x       Rx   d 8 00 00 00 FF FF FF FF FF
   12.900000 1  18FEF100x       Rx   d 8 FF 00 00 00 00 00 FF FF
   12.900000 1  18FEF200x       Rx   d 8 00 00 FF FF FF FF FF FF
   13.000000 1  0CF00400x       Rx   d 8 00 7D 46 1C FF FF FF FF
   13.000000 1  0CF00300x       Rx   d 8 00 00 00 FF FF FF FF FF
   13.000000 1  18FEF100x       Rx   d 8 FF 00 00 00 00 00 FF FF
   13.000000 1  18FEF200x       Rx   d 8 00 00 FF FF FF FF FF FF
   13.000000 1  18FEF600x       Rx   d 8 FF 32 3C FF FF FF FF FF
   13.000000 1  18FEEF00x       Rx   d 8 FF FF FF 26 FF FF FF FF
   13.000000 1  18FEEE00x       Rx   d 9 21 3C BC 20 FF FF FF 00 FF
   13.000000 1  18FEF700x       Rx   d 8 FF FF FF FF FF FF 16 01
   13.000000 1  18FEF803x       Rx   d 8 FF FF FF FF A0 24 FF FF
   13.000000 1  18FEFC00x       Rx   d 8 FF FA FF FF FF FF FF FF
   13.000000 1  18FEF500x       Rx   d 9 CA FF FF A0 24 FF FF FF FF
   13.000000 1  18F00503x       Rx   d 8 7D FF FF 7D FF FF FF FF
   13.100000 1  0CF00400x       Rx   d 8 00 7D F0 1B FF FF FF FF
   13.100000 1  0CF00300x       Rx   d 8 00 00 00 FF FF FF FF FF
   13.100000 1  18FEF100x       Rx   d 8 FF 00 00 00 00 00 FF FF
   13.100000 1  18FEF200x       Rx   d 8 00 00 FF FF FF FF FF FF
   13.200000 1  0CF00400x       Rx   d 8 00 7D D3 1B FF FF FF FF
   13.200000 1  0CF00300x       Rx   d 8 00 00 00 FF FF FF FF FF
   13.200000 1  18FEF100x       Rx   d 8 FF 00 00 00 00 00 FF FF
   13.200000 1  18FEF200x       Rx   d 8 00 00 FF FF FF FF FF FF
   13.300000 1  0CF00400x       Rx   d 8 00 7D DB 1B FF FF FF FF
   13.300000 1  0CF00300x       Rx   d 8 00 00 00 FF FF FF FF FF
   13.300000 1  18FEF100x       Rx   d 8 FF 00 00 00 00 00 FF FF
   13.300000 1  18FEF200x       Rx   d 8 00 00 FF FF FF FF FF FF
   13.400000 1  0CF00400x       Rx   d 8 00 7D DC 1B FF FF FF FF
   13.400000 1  0CF00300x       Rx   d 8 00 00 00 FF FF FF FF FF
   13.400000 1  18FEF100x       Rx   d 8 FF 00 00 00 00 00 FF FF
   13.400000 1  18FEF200x       Rx   d 8 00 00 FF FF FF FF FF FF
   13.500000 1  0CF00400x       Rx   d 8 00 7D 93 1B FF FF FF FF
   13.500000 1  0CF00300x       Rx   d 8 00 00 00 FF FF FF FF FF
   13.500000 1  18FEF100x       Rx   d 8 FF 00 00 00 00 00 FF FF
   13.500000 1  18FEF200x       Rx   d 8 00 00 FF FF FF FF FF FF
   13.500000 1  18FEF600x       Rx   d 8 FF 32 3C FF FF FF FF FF
   13.500000 1  18FEEF00x       Rx   d 8 FF FF FF 24 FF FF FF FF
   13.600000 1  0CF00400x       Rx   d 8 00 7D 02 1C FF FF FF FF
   13.600000 1  0CF00300x       Rx   d 8 00 00 00 FF FF FF FF FF
   13.600000 1  18FEF100x       Rx   d 8 FF 00 00 00 00 00 FF FF
   13.600000 1  18FEF200x       Rx   d 8 00 00 FF FF FF FF FF FF
   13.700000 1  0CF00400x       Rx   d 8 00 7D 1D 1C FF FF FF FF
   13.700000 1  0CF00300x       Rx   d 8 00 00 00 FF FF FF FF FF
   13.700000 1  18FEF100x       Rx   d 8 FF 00 00 00 00 00 FF FF
   13.700000 1  18FEF200x       Rx   d 8 00 00 FF FF FF FF FF FF
   13.800000 1  0CF00400x       Rx   d 8 00 7D 98 1B FF FF FF FF
   13.800000 1  0CF00300x       Rx   d 8 00 00 00 FF FF FF FF FF
   13.800000 1  18FEF100x       Rx   d 8 FF 00 00 00 00 00 FF FF
   13.800000 1  18FEF200x       Rx   d 8 00 00 FF FF FF FF FF FF
   13.900000 1  0CF00400x       Rx   d 8 00 7D DA 1B FF FF FF FF
   13.900000 1  0CF00300x       Rx   d 8 00 00 00 FF FF FF FF FF
   13.900000 1  18FEF100x       Rx   d 8 FF 00 00 00 00 00 FF FF
   13.900000 1  18FEF200x       Rx   d 8 00 00 FF FF FF FF FF FF
   14.000000 1  0CF00400x       Rx   d 8 00 7D CB 1B FF FF FF FF
   14.000000 1  0CF00300x       Rx   d 8 00 00 00 FF FF FF FF FF
   14.000000 1  18FEF100x       Rx   d 8 FF 00 00 00 00 00 FF FF
   14.000000 1  18FEF200x       Rx   d 8 00 00 FF FF FF FF FF FF
   14.000000 1  18FEF600x       Rx   d 8 FF 32 3C FF FF FF FF FF
   14.000000 1  18FEEF00x       Rx   d 8 FF FF FF 27 FF FF FF FF
   14.000000 1  18FEEE00x       Rx   d 9 22 3C C6 20 FF FF FF 00 FF
   14.000000 1  18FEF700x       Rx   d 8 FF FF FF FF FF FF 15 01
   14.000000 1  18FEF803x       Rx   d 8 FF FF FF FF A0 24 FF FF
   14.000000 1  18FEFC00x       Rx   d 8 FF FA FF FF FF FF FF FF
   14.000000 1  18FEF500x       Rx   d 9 CA FF FF A0 24 FF FF FF FF
   14.000000 1  18F00503x       Rx   d 8 7D FF FF 7D FF FF FF FF
   14.100000 1  0CF00400x       Rx   d 8 00 7D 0E 1C FF FF FF FF
   14.100000 1  0CF00300x       Rx   d 8 00 00 00 FF FF FF FF FF
   14.100000 1  18FEF100x       Rx   d 8 FF 00 00 00 00 00 FF FF
   14.100000 1  18FEF200x       Rx   d 8 00 00 FF FF FF FF FF FF
   14.200000 1  0CF00400x       Rx   d 8 00 7D 04 1C FF FF FF FF
   14.200000 1  0CF00300x       Rx   d 8 00 00 00 FF FF FF FF FF
   14.200000 1  18FEF100x       Rx   d 8 FF 00 00 00 00 00 FF FF
   14.200000 1  18FEF200x       Rx   d 8 00 00 FF FF FF FF FF FF
   14.300000 1  0CF00400x       Rx   d 8 00 7D 1F 1C FF FF FF FF
   14.300000 1  0CF00300x       Rx   d 8 00 00 00 FF FF FF FF FF
   14.300000 1  18FEF100x       Rx   d 8 FF 00 00 00 00 00 FF FF
   14.300000 1  18FEF200x       Rx   d 8 00 00 FF FF FF FF FF FF
   14.400000 1  0CF00400x       Rx   d 8 00 7D 90 1B FF FF FF FF
   14.400000 1  0CF00300x       Rx   d 8 00 00 00 FF FF FF FF FF
   14.400000 1  18FEF100x       Rx   d 8 FF 00 00 00 00 00 FF FF
   14.400000 1  18FEF200x       Rx   d 8 00 00 FF FF FF FF FF FF
   14.500000 1  0CF00400x       Rx   d 8 00 7D 71 1B FF FF FF FF
   14.500000 1  0CF00300x       Rx   d 8 00 00 00 FF FF FF FF FF
   14.500000 1  18FEF100x       Rx   d 8 FF 00 00 00 00 00 FF FF
   14.500000 1  18FEF200x       Rx   d 8 00 00 FF FF FF FF FF FF
   14.500000 1  18FEF600x       Rx   d 8 FF 32 3C FF FF FF FF FF
   14.500000 1  18FEEF00x       Rx   d 8 FF FF FF 25 FF FF FF FF
   14.600000 1  0CF00400x       Rx   d 8 00 7D D2 1B FF FF FF FF
   14.600000 1  0CF00300x       Rx   d 8 00 00 00 FF FF FF FF FF
   14.600000 1  18FEF100x       Rx   d 8 FF 00 00 00 00 00 FF FF
   14.600000 1  18FEF200x       Rx   d 8 00 00 FF FF FF FF FF FF
   14.700000 1  0CF00400x       Rx   d 8 00 7D 51 1C FF FF FF FF
   14.700000 1  0CF00300x       Rx   d 8 00 00 00 FF FF FF FF FF
   14.700000 1  18FEF100x       Rx   d 8 FF 00 00 00 00 00 FF FF
   14.700000 1  18FEF200x       Rx   d 8 00 00 FF FF FF FF FF FF
   14.800000 1  0CF00400x       Rx   d 8 00 7D 39 1C FF FF FF FF
   14.800000 1  0CF00300x       Rx   d 8 00 00 00 FF FF FF FF FF
   14.800000 1  18FEF100x       Rx   d 8 FF 00 00 00 00 00 FF FF
   14.800000 1  18FEF200x       Rx   d 8 00 00 FF FF FF FF FF FF
   14.900000 1  0CF00400x       Rx   d 8 00 7D DC 1B FF FF FF FF
   14.900000 1  0CF00300x       Rx   d 8 00 00 00 FF FF FF FF FF
   14.900000 1  18FEF100x       Rx   d 8 FF 00 00 00 00 00 FF FF
   14.900000 1  18FEF200x       Rx   d 8 00 00 FF FF FF FF FF FF
   15.000000 1  0CF00400x       Rx   d 8 00 7D 39 1C FF FF FF FF
   15.000000 1  0CF00300x       Rx   d 8 00 00 00 FF FF FF FF FF
   15.000000 1  18FEF100x       Rx   d 8 FF 00 00 00 00 00 FF FF
   15.000000 1  18FEF200x       Rx   d 8 00 00 FF FF FF FF FF FF
   15.000000 1  18FEF600x       Rx   d 8 FF 32 3C FF FF FF FF FF
   15.000000 1  18FEEF00x       Rx   d 8 FF FF FF 27 FF FF FF FF
   15.000000 1  18FEEE00x       Rx   d 9 22 3C D0 20 FF FF FF 00 FF
   15.000000 1  18FEF700x       Rx   d 8 FF FF FF FF FF FF 17 01
   15.000000 1  18FEF803x       Rx   d 8 FF FF FF FF A0 24 FF FF
   15.000000 1  18FEFC00x       Rx   d 8 FF FA FF FF FF FF FF FF
   15.000000 1  18FEF500x       Rx   d 9 CA FF FF A0 24 FF FF FF FF
   15.000000 1  18F00503x       Rx   d 8 7D FF FF 7D FF FF FF FF
   15.100000 1  0CF00400x       Rx   d 8 00 7D A0 1B FF FF FF FF
   15.100000 1  0CF00300x       Rx   d 8 00 00 00 FF FF FF FF FF
   15.100000 1  18FEF100x       Rx   d 8 FF 00 00 00 00 00 FF FF
   15.100000 1  18FEF200x       Rx   d 8 00 00 FF FF FF FF FF FF
   15.200000 1  0CF00400x       Rx   d 8 00 7D 19 1C FF FF FF FF
   15.200000 1  0CF00300x       Rx   d 8 00 00 00 FF FF FF FF FF
   15.200000 1  18FEF100x       Rx   d 8 FF 00 00 00 00 00 FF FF
   15.200000 1  18FEF200x       Rx   d 8 00 00 FF FF FF FF FF FF
   15.300000 1  0CF00400x       Rx   d 8 00 7D A2 1B FF FF FF FF
   15.300000 1  0CF00300x       Rx   d 8 00 00 00 FF FF FF FF FF
   15.300000 1  18FEF100x       Rx   d 8 FF 00 00 00 00 00 FF FF
   15.300000 1  18FEF200x       Rx   d 8 00 00 FF FF FF FF FF FF
   15.400000 1  0CF00400x       Rx   d 8 00 7D A1 1B FF FF FF FF
   15.400000 1  0CF00300x       Rx   d 8 00 00 00 FF FF FF FF FF
   15.400000 1  18FEF100x       Rx   d 8 FF 00 00 00 00 00 FF FF
   15.400000 1  18FEF200x       Rx   d 8 00 00 FF FF FF FF FF FF
   15.500000 1  0CF00400x       Rx   d 8 00 7D 81 1B FF FF FF FF
   15.500000 1  0CF00300x       Rx   d 8 00 00 00 FF FF FF FF FF
   15.500000 1  18FEF100x       Rx   d 8 FF 00 00 00 00 00 FF FF
   15.500000 1  18FEF200x       Rx   d 8 00 00 FF FF FF FF FF FF
   15.500000 1  18FEF600x       Rx   d 8 FF 32 3C FF FF FF FF FF
   15.500000 1  18FEEF00x       Rx   d 8 FF FF FF 25 FF FF FF FF
   15.600000 1  0CF00400x       Rx   d 8 00 7D 09 1C FF FF FF FF
   15.600000 1  0CF00300x       Rx   d 8 00 00 00 FF FF FF FF FF
   15.600000 1  18FEF100x       Rx   d 8 FF 00 00 00 00 00 FF FF
   15.600000 1  18FEF200x       Rx   d 8 00 00 FF FF FF FF FF FF
   15.700000 1  0CF00400x       Rx   d 8 00 7D E1 1B FF FF FF FF
   15.700000 1  0CF00300x       Rx   d 8 00 00 00 FF FF FF FF FF
   15.700000 1  18FEF100x       Rx   d 8 FF 00 00 00 00 00 FF FF
   15.700000 1  18FEF200x       Rx   d 8 00 00 FF FF FF FF FF FF
   15.800000 1  0CF00400x       Rx   d 8 00 7D C3 1B FF FF FF FF
   15.800000 1  0CF00300x       Rx   d 8 00 00 00 FF FF FF FF FF
   15.800000 1  18FEF100x       Rx   d 8 FF 00 00 00 00 00 FF FF
   15.800000 1  18FEF200x       Rx   d 8 00 00 FF FF FF FF FF FF
   15.900000 1  0CF00400x       Rx   d 8 00 7D 04 1C FF FF FF FF
   15.900000 1  0CF00300x       Rx   d 8 00 00 00 FF FF FF FF FF
   15.900000 1  18FEF100x       Rx   d 8 FF 00 00 00 00 00 FF FF
   15.900000 1  18FEF200x       Rx   d 8 00 00 FF FF FF FF FF FF
   16.000000 1  0CF00400x       Rx   d 8 00 7D B8 1B FF FF FF FF
   16.000000 1  0CF00300x       Rx   d 8 00 00 00 FF FF FF FF FF
   16.000000 1  18FEF100x       Rx   d 8 FF 00 00 00 00 00 FF FF
   16.000000 1  18FEF200x       Rx   d 8 00 00 FF FF FF FF FF FF
   16.000000 1  18FEF600x       Rx   d 8 FF 32 3C FF FF FF FF FF
   16.000000 1  18FEEF00x       Rx   d 8 FF FF FF 24 FF FF FF FF
   16.000000 1  18FEEE00x       Rx   d 9 22 3C D9 20 FF FF FF 00 FF
   16.000000 1  18FEF700x       Rx   d 8 FF FF FF FF FF FF 16 01
   16.000000 1  18FEF803x       Rx   d 8 FF FF FF FF A0 24 FF FF
   16.000000 1  18FEFC00x       Rx   d 8 FF FA FF FF FF FF FF FF
   16.000000 1  18FEF500x       Rx   d 9 CA FF FF A0 24 FF FF FF FF
   16.000000 1  18F00503x       Rx   d 8 7D FF FF 7D FF FF FF FF
   16.100000 1  0CF00400x       Rx   d 8 00 7D 11 1C FF FF FF FF
   16.100000 1  0CF00300x       Rx   d 8 00 00 00 FF FF FF FF FF
   16.100000 1  18FEF100x       Rx   d 8 FF 00 00 00 00 00 FF FF
   16.100000 1  18FEF200x       Rx   d 8 00 00 FF FF FF FF FF FF
   16.200000 1  0CF00400x       Rx   d 8 00 7D C0 1B FF FF FF FF
   16.200000 1  0CF00300x       Rx   d 8 00 00 00 FF FF FF FF FF
   16.200000 1  18FEF100x       Rx   d 8 FF 00 00 00 00 00 FF FF
   16.200000 1  18FEF200x       Rx   d 8 00 00 FF FF FF FF FF FF
   16.300000 1  0CF00400x       Rx   d 8 00 7D EC 1B FF FF FF FF
   16.300000 1  0CF00300x       Rx   d 8 00 00 00 FF FF FF FF FF
   16.300000 1  18FEF100x       Rx   d 8 FF 00 00 00 00 00 FF FF
   16.300000 1  18FEF200x       Rx   d 8 00 00 FF FF FF FF FF FF
   16.400000 1  0CF00400x       Rx   d 8 00 7D C3 1B FF FF FF FF
   16.400000 1  0CF00300x       Rx   d 8 00 00 00 FF FF FF FF FF
   16.400000 1  18FEF100x       Rx   d 8 FF 00 00 00 00 00 FF FF
   16.400000 1  18FEF200x       Rx   d 8 00 00 FF FF FF FF FF FF
   16.500000 1  0CF00400x       Rx   d 8 00 7D FD 1B FF FF FF FF
   16.500000 1  0CF00300x       Rx   d 8 00 00 00 FF FF FF FF FF
   16.500000 1  18FEF100x       Rx   d 8 FF 00 00 00 00 00 FF FF
   16.500000 1  18FEF200x       Rx   d 8 00 00 FF FF FF FF FF FF
   16.500000 1  18FEF600x       Rx   d 8 FF 32 3C FF FF FF FF FF
   16.500000 1  18FEEF00x       Rx   d 8 FF FF FF 26 FF FF FF FF
   16.600000 1  0CF00400x       Rx   d 8 00 7D CA 1B FF FF FF FF
   16.600000 1  0CF00300x       Rx   d 8 00 00 00 FF FF FF FF FF
   16.600000 1  18FEF100x       Rx   d 8 FF 00 00 00 00 00 FF FF
   16.600000 1  18FEF200x       Rx   d 8 00 00 FF FF FF FF FF FF
   16.700000 1  0CF00400x       Rx   d 8 00 7D 60 1B FF FF FF FF
   16.700000 1  0CF00300x       Rx   d 8 00 00 00 FF FF FF FF FF
   16.700000 1  18FEF100x       Rx   d 8 FF 00 00 00 00 00 FF FF
   16.700000 1  18FEF200x       Rx   d 8 00 00 FF FF FF FF FF FF
   16.800000 1  0CF00400x       Rx   d 8 00 7D 5F 1B FF FF FF FF
   16.800000 1  0CF00300x       Rx   d 8 00 00 00 FF FF FF FF FF
   16.800000 1  18FEF100x       Rx   d 8 FF 00 00 00 00 00 FF FF
   16.800000 1  18FEF200x       Rx   d 8 00 00 FF FF FF FF FF FF
   16.900000 1  0CF00400x       Rx   d 8 00 7D C7 1B FF FF FF FF
   16.900000 1  0CF00300x       Rx   d 8 00 00 00 FF FF FF FF FF
   16.900000 1  18FEF100x       Rx   d 8 FF 00 00 00 00 00 FF FF
   16.900000 1  18FEF200x       Rx   d 8 00 00 FF FF FF FF FF FF
   17.000000 1  0CF00400x       Rx   d 8 00 7D 8A 1B FF FF FF FF
   17.000000 1  0CF00300x       Rx   d 8 00 00 00 FF FF FF FF FF
   17.000000 1  18FEF100x       Rx   d 8 FF 00 00 00 00 00 FF FF
   17.000000 1  18FEF200x       Rx   d 8 00 00 FF FF FF FF FF FF
   17.000000 1  18FEF600x       Rx   d 8 FF 32 3C FF FF FF FF FF
   17.000000 1  18FEEF00x       Rx   d 8 FF FF FF 25 FF FF FF FF
   17.000000 1  18FEEE00x       Rx   d 9 23 3C E3 20 FF FF FF 00 FF
   17.000000 1  18FEF700x       Rx   d 8 FF FF FF FF FF FF 1A 01
   17.000000 1  18FEF803x       Rx   d 8 FF FF FF FF A0 24 FF FF
   17.000000 1  18FEFC00x       Rx   d 8 FF FA FF FF FF FF FF FF
   17.000000 1  18FEF500x       Rx   d 9 CA FF FF A0 24 FF FF FF FF
   17.000000 1  18F00503x       Rx   d 8 7D FF FF 7D FF FF FF FF
   17.100000 1  0CF00400x       Rx   d 8 00 7D B2 1B FF FF FF FF
   17.100000 1  0CF00300x       Rx   d 8 00 00 00 FF FF FF FF FF
   17.100000 1  18FEF100x       Rx   d 8 FF 00 00 00 00 00 FF FF
   17.100000 1  18FEF200x       Rx   d 8 00 00 FF FF FF FF FF FF
   17.200000 1  0CF00400x       Rx   d 8 00 7D 93 1B FF FF FF FF
   17.200000 1  0CF00300x       Rx   d 8 00 00 00 FF FF FF FF FF
   17.200000 1  18FEF100x       Rx   d 8 FF 00 00 00 00 00 FF FF
   17.200000 1  18FEF200x       Rx   d 8 00 00 FF FF FF FF FF FF
   17.300000 1  0CF00400x       Rx   d 8 00 7D D7 1B FF FF FF FF
   17.300000 1  0CF00300x       Rx   d 8 00 00 00 FF FF FF FF FF
   17.300000 1  18FEF100x       Rx   d 8 FF 00 00 00 00 00 FF FF
   17.300000 1  18FEF200x       Rx   d 8 00 00 FF FF FF FF FF FF
   17.400000 1  0CF00400x       Rx   d 8 00 7D F1 1B FF FF FF FF
   17.400000 1  0CF00300x       Rx   d 8 00 00 00 FF FF FF FF FF
   17.400000 1  18FEF100x       Rx   d 8 FF 00 00 00 00 00 FF FF
   17.400000 1  18FEF200x       Rx   d 8 00 00 FF FF FF FF FF FF
   17.500000 1  0CF00400x       Rx   d 8 00 7D 0A 1C FF FF FF FF
   17.500000 1  0CF00300x       Rx   d 8 00 00 00 FF FF FF FF FF
   17.500000 1  18FEF100x       Rx   d 8 FF 00 00 00 00 00 FF FF
   17.500000 1  18FEF200x       Rx   d 8 00 00 FF FF FF FF FF FF
   17.500000 1  18FEF600x       Rx   d 8 FF 32 3C FF FF FF FF FF
   17.500000 1  18FEEF00x       Rx   d 8 FF FF FF 29 FF FF FF FF
   17.600000 1  0CF00400x       Rx   d 8 00 7D 59 1B FF FF FF FF
   17.600000 1  0CF00300x       Rx   d 8 00 00 00 FF FF FF FF FF
   17.600000 1  18FEF100x       Rx   d 8 FF 00 00 00 00 00 FF FF
   17.600000 1  18FEF200x       Rx   d 8 00 00 FF FF FF FF FF FF
   17.700000 1  0CF00400x       Rx   d 8 00 7D F4 1B FF FF FF FF
   17.700000 1  0CF00300x       Rx   d 8 00 00 00 FF FF FF FF FF
   17.700000 1  18FEF100x       Rx   d 8 FF 00 00 00 00 00 FF FF
   17.700000 1  18FEF200x       Rx   d 8 00 00 FF FF FF FF FF FF
   17.800000 1  0CF00400x       Rx   d 8 00 7D FB 1B FF FF FF FF
   17.800000 1  0CF00300x       Rx   d 8 00 00 00 FF FF FF FF FF
   17.800000 1  18FEF100x       Rx   d 8 FF 00 00 00 00 00 FF FF
   17.800000 1  18FEF200x       Rx   d 8 00 00 FF FF FF FF FF FF
   17.900000 1  0CF00400x       Rx   d 8 00 7D E4 1B FF FF FF FF
   17.900000 1  0CF00300x       Rx   d 8 00 00 00 FF FF FF FF FF
   17.900000 1  18FEF100x       Rx   d 8 FF 00 00 00 00 00 FF FF
   17.900000 1  18FEF200x       Rx   d 8 00 00 FF FF FF FF FF FF
   18.000000 1  0CF00400x       Rx   d 8 00 7D 17 1C FF FF FF FF
   18.000000 1  0CF00300x       Rx   d 8 00 00 00 FF FF FF FF FF
   18.000000 1  18FEF100x       Rx   d 8 FF 00 00 00 00 00 FF FF
   18.000000 1  18FEF200x       Rx   d 8 00 00 FF FF FF FF FF FF
   18.000000 1  18FEF600x       Rx   d 8 FF 32 3C FF FF FF FF FF
   18.000000 1  18FEEF00x       Rx   d 8 FF FF FF 29 FF FF FF FF
   18.000000 1  18FEEE00x       Rx   d 9 23 3C EC 20 FF FF FF 00 FF
   18.000000 1  18FEF700x       Rx   d 8 FF FF FF FF FF FF 14 01
   18.000000 1  18FEF803x       Rx   d 8 FF FF FF FF A0 24 FF FF
   18.000000 1  18FEFC00x       Rx   d 8 FF FA FF FF FF FF FF FF
   18.000000 1  18FEF500x       Rx   d 9 CA FF FF A0 24 FF FF FF FF
   18.000000 1  18F00503x       Rx   d 8 7D FF FF 7D FF FF FF FF
   18.100000 1  0CF00400x       Rx   d 8 00 7D 58 1B FF FF FF FF
   18.100000 1  0CF00300x       Rx   d 8 00 00 00 FF FF FF FF FF
   18.100000 1  18FEF100x       Rx   d 8 FF 00 00 00 00 00 FF FF
   18.100000 1  18FEF200x       Rx   d 8 00 00 FF FF FF FF FF FF
   18.200000 1  0CF00400x       Rx   d 8 00 7D 37 1C FF FF FF FF
   18.200000 1  0CF00300x       Rx   d 8 00 00 00 FF FF FF FF FF
   18.200000 1  18FEF100x       Rx   d 8 FF 00 00 00 00 00 FF FF
   18.200000 1  18FEF200x       Rx   d 8 00 00 FF FF FF FF FF FF
   18.300000 1  0CF00400x       Rx   d 8 00 7D 63 1B FF FF FF FF
   18.300000 1  0CF00300x       Rx   d 8 00 00 00 FF FF FF FF FF
   18.300000 1  18FEF100x       Rx   d 8 FF 00 00 00 00 00 FF FF
   18.300000 1  18FEF200x       Rx   d 8 00 00 FF FF FF FF FF FF
   18.400000 1  0CF00400x       Rx   d 8 00 7D 68 1B FF FF FF FF
   18.400000 1  0CF00300x       Rx   d 8 00 00 00 FF FF FF FF FF
   18.400000 1  18FEF100x       Rx   d 8 FF 00 00 00 00 00 FF FF
   18.400000 1  18FEF200x       Rx   d 8 00 00 FF FF FF FF FF FF
   18.500000 1  0CF00400x       Rx   d 8 00 7D E0 1B FF FF FF FF
   18.500000 1  0CF00300x       Rx   d 8 00 00 00 FF FF FF FF FF
   18.500000 1  18FEF100x       Rx   d 8 FF 00 00 00 00 00 FF FF
   18.500000 1  18FEF200x       Rx   d 8 00 00 FF FF FF FF FF FF
   18.500000 1  18FEF600x       Rx   d 8 FF 32 3C FF FF FF FF FF
   18.500000 1  18FEEF00x       Rx   d 8 FF FF FF 24 FF FF FF FF
   18.600000 1  0CF00400x       Rx   d 8 00 7D 0B 1C FF FF FF FF
   18.600000 1  0CF00300x       Rx   d 8 00 00 00 FF FF FF FF FF
   18.600000 1  18FEF100x       Rx   d 8 FF 00 00 00 00 00 FF FF
   18.600000 1  18FEF200x       Rx   d 8 00 00 FF FF FF FF FF FF
   18.700000 1  0CF00400x       Rx   d 8 00 7D A7 1B FF FF FF FF
   18.700000 1  0CF00300x       Rx   d 8 00 00 00 FF FF FF FF FF
   18.700000 1  18FEF100x       Rx   d 8 FF 00 00 00 00 00 FF FF
   18.700000 1  18FEF200x       Rx   d 8 00 00 FF FF FF FF FF FF
   18.800000 1  0CF00400x       Rx   d 8 00 7D 1A 1C FF FF FF FF
   18.800000 1  0CF00300x       Rx   d 8 00 00 00 FF FF FF FF FF
   18.800000 1  18FEF100x       Rx   d 8 FF 00 00 00 00 00 FF FF
   18.800000 1  18FEF200x       Rx   d 8 00 00 FF FF FF FF FF FF
   18.900000 1  0CF00400x       Rx   d 8 00 7D 34 1C FF FF FF FF
   18.900000 1  0CF00300x       Rx   d 8 00 00 00 FF FF FF FF FF
   18.900000 1  18FEF100x       Rx   d 8 FF 00 00 00 00 00 FF FF
   18.900000 1  18FEF200x       Rx   d 8 00 00 FF FF FF FF FF FF
   19.000000 1  0CF00400x       Rx   d 8 00 7D F7 1B FF FF FF FF
   19.000000 1  0CF00300x       Rx   d 8 00 00 00 FF FF FF FF FF
   19.000000 1  18FEF100x       Rx   d 8 FF 00 00 00 00 00 FF FF
   19.000000 1  18FEF200x       Rx   d 8 00 00 FF FF FF FF FF FF
   19.000000 1  18FEF600x       Rx   d 8 FF 32 3C FF FF FF FF FF
   19.000000 1  18FEEF00x       Rx   d 8 FF FF FF 26 FF FF FF FF
   19.000000 1  18FEEE00x       Rx   d 9 23 3C F6 20 FF FF FF 00 FF
   19.000000 1  18FEF700x       Rx   d 8 FF FF FF FF FF FF 19 01
   19.000000 1  18FEF803x       Rx   d 8 FF FF FF FF A0 24 FF FF
   19.000000 1  18FEFC00x       Rx   d 8 FF FA FF FF FF FF FF FF
   19.000000 1  18FEF500x       Rx   d 9 CA FF FF A0 24 FF FF FF FF
   19.000000 1  18F00503x       Rx   d 8 7D FF FF 7D FF FF FF FF
   19.100000 1  0CF00400x       Rx   d 8 00 7D 34 1C FF FF FF FF
   19.100000 1  0CF00300x       Rx   d 8 00 00 00 FF FF FF FF FF
   19.100000 1  18FEF100x       Rx   d 8 FF 00 00 00 00 00 FF FF
   19.100000 1  18FEF200x       Rx   d 8 00 00 FF FF FF FF FF FF
   19.200000 1  0CF00400x       Rx   d 8 00 7D CD 1B FF FF FF FF
   19.200000 1  0CF00300x       Rx   d 8 00 00 00 FF FF FF FF FF
   19.200000 1  18FEF100x       Rx   d 8 FF 00 00 00 00 00 FF FF
   19.200000 1  18FEF200x       Rx   d 8 00 00 FF FF FF FF FF FF
   19.300000 1  0CF00400x       Rx   d 8 00 7D FB 1B FF FF FF FF
   19.300000 1  0CF00300x       Rx   d 8 00 00 00 FF FF FF FF FF
   19.300000 1  18FEF100x       Rx   d 8 FF 00 00 00 00 00 FF FF
   19.300000 1  18FEF200x       Rx   d 8 00 00 FF FF FF FF FF FF
   19.400000 1  0CF00400x       Rx   d 8 00 7D 12 1C FF FF FF FF
   19.400000 1  0CF00300x       Rx   d 8 00 00 00 FF FF FF FF FF
   19.400000 1  18FEF100x       Rx   d 8 FF 00 00 00 00 00 FF FF
   19.400000 1  18FEF200x       Rx   d 8 00 00 FF FF FF FF FF FF
   19.500000 1  0CF00400x       Rx   d 8 00 7D 85 1B FF FF FF FF
   19.500000 1  0CF00300x       Rx   d 8 00 00 00 FF FF FF FF FF
   19.500000 1  18FEF100x       Rx   d 8 FF 00 00 00 00 00 FF FF
   19.500000 1  18FEF200x       Rx   d 8 00 00 FF FF FF FF FF FF
   19.500000 1  18FEF600x       Rx   d 8 FF 32 3C FF FF FF FF FF
   19.500000 1  18FEEF00x       Rx   d 8 FF FF FF 26 FF FF FF FF
   19.600000 1  0CF00400x       Rx   d 8 00 7D A5 1B FF FF FF FF
   19.600000 1  0CF00300x       Rx   d 8 00 00 00 FF FF FF FF FF
   19.600000 1  18FEF100x       Rx   d 8 FF 00 00 00 00 00 FF FF
   19.600000 1  18FEF200x       Rx   d 8 00 00 FF FF FF FF FF FF
   19.700000 1  0CF00400x       Rx   d 8 00 7D 75 1B FF FF FF FF
   19.700000 1  0CF00300x       Rx   d 8 00 00 00 FF FF FF FF FF
   19.700000 1  18FEF100x       Rx   d 8 FF 00 00 00 00 00 FF FF
   19.700000 1  18FEF200x       Rx   d 8 00 00 FF FF FF FF FF FF
   19.800000 1  0CF00400x       Rx   d 8 00 7D 9A 1B FF FF FF FF
   19.800000 1  0CF00300x       Rx   d 8 00 00 00 FF FF FF FF FF
   19.800000 1  18FEF100x       Rx   d 8 FF 00 00 00 00 00 FF FF
   19.800000 1  18FEF200x       Rx   d 8 00 00 FF FF FF FF FF FF
   19.900000 1  0CF00400x       Rx   d 8 00 7D 8A 1B FF FF FF FF
   19.900000 1  0CF00300x       Rx   d 8 00 00 00 FF FF FF FF FF
   19.900000 1  18FEF100x       Rx   d 8 FF 00 00 00 00 00 FF FF
   19.900000 1  18FEF200x       Rx   d 8 00 00 FF FF FF FF FF FF
   20.000000 1  0CF00400x       Rx   d 8 00 7D 5C 1B FF FF FF FF
   20.000000 1  0CF00300x       Rx   d 8 00 00 00 FF FF FF FF FF
   20.000000 1  18FEF100x       Rx   d 8 FF 00 00 00 00 00 FF FF
   20.000000 1  18FEF200x       Rx   d 8 00 00 FF FF FF FF FF FF
   20.000000 1  18FEF600x       Rx   d 8 FF 32 3C FF FF FF FF FF
   20.000000 1  18FEEF00x       Rx   d 8 FF FF FF 28 FF FF FF FF
   20.000000 1  18FEEE00x       Rx   d 9 24 3C 00 21 FF FF FF 00 FF
   20.000000 1  18FEF700x       Rx   d 8 FF FF FF FF FF FF 17 01
   20.000000 1  18FEF803x       Rx   d 8 FF FF FF FF A0 24 FF FF
   20.000000 1  18FEFC00x       Rx   d 8 FF FA FF FF FF FF FF FF
   20.000000 1  18FEF500x       Rx   d 9 CA FF FF A0 24 FF FF FF FF
   20.000000 1  18F00503x       Rx   d 8 7D FF FF 7D FF FF FF FF
   20.000000 1  18FEE500x       Rx   d 8 40 0D 03 00 FF FF FF FF
   20.100000 1  0CF00400x       Rx   d 8 00 7D FD 1B FF FF FF FF
   20.100000 1  0CF00300x       Rx   d 8 00 00 00 FF FF FF FF FF
   20.100000 1  18FEF100x       Rx   d 8 FF 00 00 00 00 00 FF FF
   20.100000 1  18FEF200x       Rx   d 8 00 00 FF FF FF FF FF FF
   20.200000 1  0CF00400x       Rx   d 8 00 7D BC 1B FF FF FF FF
   20.200000 1  0CF00300x       Rx   d 8 00 00 00 FF FF FF FF FF
   20.200000 1  18FEF100x       Rx   d 8 FF 00 00 00 00 00 FF FF
   20.200000 1  18FEF200x       Rx   d 8 00 00 FF FF FF FF FF FF
   20.300000 1  0CF00400x       Rx   d 8 00 7D 7B 1B FF FF FF FF
   20.300000 1  0CF00300x       Rx   d 8 00 00 00 FF FF FF FF FF
   20.300000 1  18FEF100x       Rx   d 8 FF 00 00 00 00 00 FF FF
   20.300000 1  18FEF200x       Rx   d 8 00 00 FF FF FF FF FF FF
   20.400000 1  0CF00400x       Rx   d 8 00 7D D1 1B FF FF FF FF
   20.400000 1  0CF00300x       Rx   d 8 00 00 00 FF FF FF FF FF
   20.400000 1  18FEF100x       Rx   d 8 FF 00 00 00 00 00 FF FF
   20.400000 1  18FEF200x       Rx   d 8 00 00 FF FF FF FF FF FF
   20.500000 1  0CF00400x       Rx   d 8 00 7D AB 1B FF FF FF FF
   20.500000 1  0CF00300x       Rx   d 8 00 00 00 FF FF FF FF FF
   20.500000 1  18FEF100x       Rx   d 8 FF 00 00 00 00 00 FF FF
   20.500000 1  18FEF200x       Rx   d 8 00 00 FF FF FF FF FF FF
   20.500000 1  18FEF600x       Rx   d 8 FF 32 3C FF FF FF FF FF
   20.500000 1  18FEEF00x       Rx   d 8 FF FF FF 28 FF FF FF FF
   20.600000 1  0CF00400x       Rx   d 8 00 7D ED 1B FF FF FF FF
   20.600000 1  0CF00300x       Rx   d 8 00 00 00 FF FF FF FF FF
   20.600000 1  18FEF100x       Rx   d 8 FF 00 00 00 00 00 FF FF
   20.600000 1  18FEF200x       Rx   d 8 00 00 FF FF FF FF FF FF
   20.700000 1  0CF00400x       Rx   d 8 00 7D 61 1B FF FF FF FF
   20.700000 1  0CF00300x       Rx   d 8 00 00 00 FF FF FF FF FF
   20.700000 1  18FEF100x       Rx   d 8 FF 00 00 00 00 00 FF FF
   20.700000 1  18FEF200x       Rx   d 8 00 00 FF FF FF FF FF FF
   20.800000 1  0CF00400x       Rx   d 8 00 7D C4 1B FF FF FF FF
   20.800000 1  0CF00300x       Rx   d 8 00 00 00 FF FF FF FF FF
   20.800000 1  18FEF100x       Rx   d 8 FF 00 00 00 00 00 FF FF
   20.800000 1  18FEF200x       Rx   d 8 00 00 FF FF FF FF FF FF
   20.900000 1  0CF00400x       Rx   d 8 00 7D 77 1B FF FF FF FF
   20.900000 1  0CF00300x       Rx   d 8 00 00 00 FF FF FF FF FF
   20.900000 1  18FEF100x       Rx   d 8 FF 00 00 00 00 00 FF FF
   20.900000 1  18FEF200x       Rx   d 8 00 00 FF FF FF FF FF FF
   21.000000 1  0CF00400x       Rx   d 8 00 7D 2D 1C FF FF FF FF
   21.000000 1  0CF00300x       Rx   d 8 00 00 00 FF FF FF FF FF
   21.000000 1  18FEF100x       Rx   d 8 FF 00 00 00 00 00 FF FF
   21.000000 1  18FEF200x       Rx   d 8 00 00 FF FF FF FF FF FF
   21.000000 1  18FEF600x       Rx   d 8 FF 32 3C FF FF FF FF FF
   21.000000 1  18FEEF00x       Rx   d 8 FF FF FF 27 FF FF FF FF
   21.000000 1  18FEEE00x       Rx   d 9 24 3C 09 21 FF FF FF 00 FF
   21.000000 1  18FEF700x       Rx   d 8 FF FF FF FF FF FF 16 01
   21.000000 1  18FEF803x       Rx   d 8 FF FF FF FF A0 24 FF FF
   21.000000 1  18FEFC00x       Rx   d 8 FF FA FF FF FF FF FF FF
   21.000000 1  18FEF500x       Rx   d 9 CA FF FF A0 24 FF FF FF FF
   21.000000 1  18F00503x       Rx   d 8 7D FF FF 7D FF FF FF FF
   21.100000 1  0CF00400x       Rx   d 8 00 7D 5A 1B FF FF FF FF
   21.100000 1  0CF00300x       Rx   d 8 00 00 00 FF FF FF FF FF
   21.100000 1  18FEF100x       Rx   d 8 FF 00 00 00 00 00 FF FF
   21.100000 1  18FEF200x       Rx   d 8 00 00 FF FF FF FF FF FF
   21.200000 1  0CF00400x       Rx   d 8 00 7D 6C 1B FF FF FF FF
   21.200000 1  0CF00300x       Rx   d 8 00 00 00 FF FF FF FF FF
   21.200000 1  18FEF100x       Rx   d 8 FF 00 00 00 00 00 FF FF
   21.200000 1  18FEF200x       Rx   d 8 00 00 FF FF FF FF FF FF
   21.300000 1  0CF00400x       Rx   d 8 00 7D 82 1B FF FF FF FF
   21.300000 1  0CF00300x       Rx   d 8 00 00 00 FF FF FF FF FF
   21.300000 1  18FEF100x       Rx   d 8 FF 00 00 00 00 00 FF FF
   21.300000 1  18FEF200x       Rx   d 8 00 00 FF FF FF FF FF FF
   21.400000 1  0CF00400x       Rx   d 8 00 7D E7 1B FF FF FF FF
   21.400000 1  0CF00300x       Rx   d 8 00 00 00 FF FF FF FF FF
   21.400000 1  18FEF100x       Rx   d 8 FF 00 00 00 00 00 FF FF
   21.400000 1  18FEF200x       Rx   d 8 00 00 FF FF FF FF FF FF
   21.500000 1  0CF00400x       Rx   d 8 00 7D B5 1B FF FF FF FF
   21.500000 1  0CF00300x       Rx   d 8 00 00 00 FF FF FF FF FF
   21.500000 1  18FEF100x       Rx   d 8 FF 00 00 00 00 00 FF FF
   21.500000 1  18FEF200x       Rx   d 8 00 00 FF FF FF FF FF FF
   21.500000 1  18FEF600x       Rx   d 8 FF 32 3C FF FF FF FF FF
   21.500000 1  18FEEF00x       Rx   d 8 FF FF FF 28 FF FF FF FF
   21.600000 1  0CF00400x       Rx   d 8 00 7D B0 1B FF FF FF FF
   21.600000 1  0CF00300x       Rx   d 8 00 00 00 FF FF FF FF FF
   21.600000 1  18FEF100x       Rx   d 8 FF 00 00 00 00 00 FF FF
   21.600000 1  18FEF200x       Rx   d 8 00 00 FF FF FF FF FF FF
   21.700000 1  0CF00400x       Rx   d 8 00 7D 4B 1B FF FF FF FF
   21.700000 1  0CF00300x       Rx   d 8 00 00 00 FF FF FF FF FF
   21.700000 1  18FEF100x       Rx   d 8 FF 00 00 00 00 00 FF FF
   21.700000 1  18FEF200x       Rx   d 8 00 00 FF FF FF FF FF FF
   21.800000 1  0CF00400x       Rx   d 8 00 7D 03 1C FF FF FF FF
   21.800000 1  0CF00300x       Rx   d 8 00 00 00 FF FF FF FF FF
   21.800000 1  18FEF100x       Rx   d 8 FF 00 00 00 00 00 FF FF
   21.800000 1  18FEF200x       Rx   d 8 00 00 FF FF FF FF FF FF
   21.900000 1  0CF00400x       Rx   d 8 00 7D D4 1B FF FF FF FF
   21.900000 1  0CF00300x       Rx   d 8 00 00 00 FF FF FF FF FF
   21.900000 1  18FEF100x       Rx   d 8 FF 00 00 00 00 00 FF FF
   21.900000 1  18FEF200x       Rx   d 8 00 00 FF FF FF FF FF FF
   22.000000 1  0CF00400x       Rx   d 8 00 7D C4 1B FF FF FF FF
   22.000000 1  0CF00300x       Rx   d 8 00 00 00 FF FF FF FF FF
   22.000000 1  18FEF100x       Rx   d 8 FF 00 00 00 00 00 FF FF
   22.000000 1  18FEF200x       Rx   d 8 00 00 FF FF FF FF FF FF
   22.000000 1  18FEF600x       Rx   d 8 FF 32 3C FF FF FF FF FF
   22.000000 1  18FEEF00x       Rx   d 8 FF FF FF 26 FF FF FF FF
   22.000000 1  18FEEE00x       Rx   d 9 24 3C 13 21 FF FF FF 00 FF
   22.000000 1  18FEF700x       Rx   d 8 FF FF FF FF FF FF 1B 01
   22.000000 1  18FEF803x       Rx   d 8 FF FF FF FF A0 24 FF FF
   22.000000 1  18FEFC00x       Rx   d 8 FF FA FF FF FF FF FF FF
   22.000000 1  18FEF500x       Rx   d 9 CA FF FF A0 24 FF FF FF FF
   22.000000 1  18F00503x       Rx   d 8 7D FF FF 7D FF FF FF FF
   22.100000 1  0CF00400x       Rx   d 8 00 7D 59 1B FF FF FF FF
   22.100000 1  0CF00300x       Rx   d 8 00 00 00 FF FF FF FF FF
   22.100000 1  18FEF100x       Rx   d 8 FF 00 00 00 00 00 FF FF
   22.100000 1  18FEF200x       Rx   d 8 00 00 FF FF FF FF FF FF
   22.200000 1  0CF00400x       Rx   d 8 00 7D FA 1B FF FF FF FF
   22.200000 1  0CF00300x       Rx   d 8 00 00 00 FF FF FF FF FF
   22.200000 1  18FEF100x       Rx   d 8 FF 00 00 00 00 00 FF FF
   22.200000 1  18FEF200x       Rx   d 8 00 00 FF FF FF FF FF FF
   22.300000 1  0CF00400x       Rx   d 8 00 7D A7 1B FF FF FF FF
   22.300000 1  0CF00300x       Rx   d 8 00 00 00 FF FF FF FF FF
   22.300000 1  18FEF100x       Rx   d 8 FF 00 00 00 00 00 FF FF
   22.300000 1  18FEF200x       Rx   d 8 00 00 FF FF FF FF FF FF
   22.400000 1  0CF00400x       Rx   d 8 00 7D 28 1C FF FF FF FF
   22.400000 1  0CF00300x       Rx   d 8 00 00 00 FF FF FF FF FF
   22.400000 1  18FEF100x       Rx   d 8 FF 00 00 00 00 00 FF FF
   22.400000 1  18FEF200x       Rx   d 8 00 00 FF FF FF FF FF FF
   22.500000 1  0CF00400x       Rx   d 8 00 7D CC 1B FF FF FF FF
   22.500000 1  0CF00300x       Rx   d 8 00 00 00 FF FF FF FF FF
   22.500000 1  18FEF100x       Rx   d 8 FF 00 00 00 00 00 FF FF
   22.500000 1  18FEF200x       Rx   d 8 00 00 FF FF FF FF FF FF
   22.500000 1  18FEF600x       Rx   d 8 FF 32 3C FF FF FF FF FF
   22.500000 1  18FEEF00x       Rx   d 8 FF FF FF 28 FF FF FF FF
   22.600000 1  0CF00400x       Rx   d 8 00 7D 6C 1B FF FF FF FF
   22.600000 1  0CF00300x       Rx   d 8 00 00 00 FF FF FF FF FF
   22.600000 1  18FEF100x       Rx   d 8 FF 00 00 00 00 00 FF FF
   22.600000 1  18FEF200x       Rx   d 8 00 00 FF FF FF FF FF FF
   22.700000 1  0CF00400x       Rx   d 8 00 7D 5F 1B FF FF FF FF
   22.700000 1  0CF00300x       Rx   d 8 00 00 00 FF FF FF FF FF
   22.700000 1  18FEF100x       Rx   d 8 FF 00 00 00 00 00 FF FF
   22.700000 1  18FEF200x       Rx   d 8 00 00 FF FF FF FF FF FF
   22.800000 1  0CF00400x       Rx   d 8 00 7D 39 1B FF FF FF FF
   22.800000 1  0CF00300x       Rx   d 8 00 00 00 FF FF FF FF FF
   22.800000 1  18FEF100x       Rx   d 8 FF 00 00 00 00 00 FF FF
   22.800000 1  18FEF200x       Rx   d 8 00 00 FF FF FF FF FF FF
   22.900000 1  0CF00400x       Rx   d 8 00 7D 7E 1B FF FF FF FF
   22.900000 1  0CF00300x       Rx   d 8 00 00 00 FF FF FF FF FF
   22.900000 1  18FEF100x       Rx   d 8 FF 00 00 00 00 00 FF FF
   22.900000 1  18FEF200x       Rx   d 8 00 00 FF FF FF FF FF FF
   23.000000 1  0CF00400x       Rx   d 8 00 7D E0 1B FF FF FF FF
   23.000000 1  0CF00300x       Rx   d 8 00 00 00 FF FF FF FF FF
   23.000000 1  18FEF100x       Rx   d 8 FF 00 00 00 00 00 FF FF
   23.000000 1  18FEF200x       Rx   d 8 00 00 FF FF FF FF FF FF
   23.000000 1  18FEF600x       Rx   d 8 FF 32 3C FF FF FF FF FF
   23.000000 1  18FEEF00x       Rx   d 8 FF FF FF 27 FF FF FF FF
   23.000000 1  18FEEE00x       Rx   d 9 24 3C 1C 21 FF FF FF 00 FF
   23.000000 1  18FEF700x       Rx   d 8 FF FF FF FF FF FF 19 01
   23.000000 1  18FEF803x       Rx   d 8 FF FF FF FF A0 24 FF FF
   23.000000 1  18FEFC00x       Rx   d 8 FF FA FF FF FF FF FF FF
   23.000000 1  18FEF500x       Rx   d 9 CA FF FF A0 24 FF FF FF FF
   23.000000 1  18F00503x       Rx   d 8 7D FF FF 7D FF FF FF FF
   23.100000 1  0CF00400x       Rx   d 8 00 7D 15 1C FF FF FF FF
   23.100000 1  0CF00300x       Rx   d 8 00 00 00 FF FF FF FF FF
   23.100000 1  18FEF100x       Rx   d 8 FF 00 00 00 00 00 FF FF
   23.100000 1  18FEF200x       Rx   d 8 00 00 FF FF FF FF FF FF
   23.200000 1  0CF00400x       Rx   d 8 00 7D D5 1B FF FF FF FF
   23.200000 1  0CF00300x       Rx   d 8 00 00 00 FF FF FF FF FF
   23.200000 1  18FEF100x       Rx   d 8 FF 00 00 00 00 00 FF FF
   23.200000 1  18FEF200x       Rx   d 8 00 00 FF FF FF FF FF FF
   23.300000 1  0CF00400x       Rx   d 8 00 7D B9 1B FF FF FF FF
   23.300000 1  0CF00300x       Rx   d 8 00 00 00 FF FF FF FF FF
   23.300000 1  18FEF100x       Rx   d 8 FF 00 00 00 00 00 FF FF
   23.300000 1  18FEF200x       Rx   d 8 00 00 FF FF FF FF FF FF
   23.400000 1  0CF00400x       Rx   d 8 00 7D FC 1B FF FF FF FF
   23.400000 1  0CF00300x       Rx   d 8 00 00 00 FF FF FF FF FF
   23.400000 1  18FEF100x       Rx   d 8 FF 00 00 00 00 00 FF FF
   23.400000 1  18FEF200x       Rx   d 8 00 00 FF FF FF FF FF FF
   23.500000 1  0CF00400x       Rx   d 8 00 7D 7F 1B FF FF FF FF
   23.500000 1  0CF00300x       Rx   d 8 00 00 00 FF FF FF FF FF
   23.500000 1  18FEF100x       Rx   d 8 FF 00 00 00 00 00 FF FF
   23.500000 1  18FEF200x       Rx   d 8 00 00 FF FF FF FF FF FF
   23.500000 1  18FEF600x       Rx   d 8 FF 32 3C FF FF FF FF FF
   23.500000 1  18FEEF00x       Rx   d 8 FF FF FF 28 FF FF FF FF
   23.600000 1  0CF00400x       Rx   d 8 00 7D 7A 1B FF FF FF FF
   23.600000 1  0CF00300x       Rx   d 8 00 00 00 FF FF FF FF FF
   23.600000 1  18FEF100x       Rx   d 8 FF 00 00 00 00 00 FF FF
   23.600000 1  18FEF200x       Rx   d 8 00 00 FF FF FF FF FF FF
   23.700000 1  0CF00400x       Rx   d 8 00 7D DC 1B FF FF FF FF
   23.700000 1  0CF00300x       Rx   d 8 00 00 00 FF FF FF FF FF
   23.700000 1  18FEF100x       Rx   d 8 FF 00 00 00 00 00 FF FF
   23.700000 1  18FEF200x       Rx   d 8 00 00 FF FF FF FF FF FF
   23.800000 1  0CF00400x       Rx   d 8 00 7D AA 1B FF FF FF FF
   23.800000 1  0CF00300x       Rx   d 8 00 00 00 FF FF FF FF FF
   23.800000 1  18FEF100x       Rx   d 8 FF 00 00 00 00 00 FF FF
   23.800000 1  18FEF200x       Rx   d 8 00 00 FF FF FF FF FF FF
   23.900000 1  0CF00400x       Rx   d 8 00 7D 9A 1B FF FF FF FF
   23.900000 1  0CF00300x       Rx   d 8 00 00 00 FF FF FF FF FF
   23.900000 1  18FEF100x       Rx   d 8 FF 00 00 00 00 00 FF FF
   23.900000 1  18FEF200x       Rx   d 8 00 00 FF FF FF FF FF FF
   24.000000 1  0CF00400x       Rx   d 8 00 7D 48 1B FF FF FF FF
   24.000000 1  0CF00300x       Rx   d 8 00 00 00 FF FF FF FF FF
   24.000000 1  18FEF100x       Rx   d 8 FF 00 00 00 00 00 FF FF
   24.000000 1  18FEF200x       Rx   d 8 00 00 FF FF FF FF FF FF
   24.000000 1  18FEF600x       Rx   d 8 FF 32 3C FF FF FF FF FF
   24.000000 1  18FEEF00x       Rx   d 8 FF FF FF 29 FF FF FF FF
   24.000000 1  18FEEE00x       Rx   d 9 25 3C 26 21 FF FF FF 00 FF
   24.000000 1  18FEF700x       Rx   d 8 FF FF FF FF FF FF 1A 01
   24.000000 1  18FEF803x       Rx   d 8 FF FF FF FF A0 24 FF FF
   24.000000 1  18FEFC00x       Rx   d 8 FF FA FF FF FF FF FF FF
   24.000000 1  18FEF500x       Rx   d 9 CA FF FF A0 24 FF FF FF FF
   24.000000 1  18F00503x       Rx   d 8 7D FF FF 7D FF FF FF FF
   24.100000 1  0CF00400x       Rx   d 8 00 7D BC 1B FF FF FF FF
   24.100000 1  0CF00300x       Rx   d 8 00 00 00 FF FF FF FF FF
   24.100000 1  18FEF100x       Rx   d 8 FF 00 00 00 00 00 FF FF
   24.100000 1  18FEF200x       Rx   d 8 00 00 FF FF FF FF FF FF
   24.200000 1  0CF00400x       Rx   d 8 00 7D D2 1B FF FF FF FF
   24.200000 1  0CF00300x       Rx   d 8 00 00 00 FF FF FF FF FF
   24.200000 1  18FEF100x       Rx   d 8 FF 00 00 00 00 00 FF FF
   24.200000 1  18FEF200x       Rx   d 8 00 00 FF FF FF FF FF FF
   24.300000 1  0CF00400x       Rx   d 8 00 7D E6 1B FF FF FF FF
   24.300000 1  0CF00300x       Rx   d 8 00 00 00 FF FF FF FF FF
   24.300000 1  18FEF100x       Rx   d 8 FF 00 00 00 00 00 FF FF
   24.300000 1  18FEF200x       Rx   d 8 00 00 FF FF FF FF FF FF
   24.400000 1  0CF00400x       Rx   d 8 00 7D 0C 1C FF FF FF FF
   24.400000 1  0CF00300x       Rx   d 8 00 00 00 FF FF FF FF FF
   24.400000 1  18FEF100x       Rx   d 8 FF 00 00 00 00 00 FF FF
   24.400000 1  18FEF200x       Rx   d 8 00 00 FF FF FF FF FF FF
   24.500000 1  0CF00400x       Rx   d 8 00 7D C8 1B FF FF FF FF
   24.500000 1  0CF00300x       Rx   d 8 00 00 00 FF FF FF FF FF
   24.500000 1  18FEF100x       Rx   d 8 FF 00 00 00 00 00 FF FF
   24.500000 1  18FEF200x       Rx   d 8 00 00 FF FF FF FF FF FF
   24.500000 1  18FEF600x       Rx   d 8 FF 32 3C FF FF FF FF FF
   24.500000 1  18FEEF00x       Rx   d 8 FF FF FF 27 FF FF FF FF
   24.600000 1  0CF00400x       Rx   d 8 00 7D 82 1B FF FF FF FF
   24.600000 1  0CF00300x       Rx   d 8 00 00 00 FF FF FF FF FF
   24.600000 1  18FEF100x       Rx   d 8 FF 00 00 00 00 00 FF FF
   24.600000 1  18FEF200x       Rx   d 8 00 00 FF FF FF FF FF FF
   24.700000 1  0CF00400x       Rx   d 8 00 7D FC 1B FF FF FF FF
   24.700000 1  0CF00300x       Rx   d 8 00 00 00 FF FF FF FF FF
   24.700000 1  18FEF100x       Rx   d 8 FF 00 00 00 00 00 FF FF
   24.700000 1  18FEF200x       Rx   d 8 00 00 FF FF FF FF FF FF
   24.800000 1  0CF00400x       Rx   d 8 00 7D 73 1B FF FF FF FF
   24.800000 1  0CF00300x       Rx   d 8 00 00 00 FF FF FF FF FF
   24.800000 1  18FEF100x       Rx   d 8 FF 00 00 00 00 00 FF FF
   24.800000 1  18FEF200x       Rx   d 8 00 00 FF FF FF FF FF FF
   24.900000 1  0CF00400x       Rx   d 8 00 7D B1 1B FF FF FF FF
   24.900000 1  0CF00300x       Rx   d 8 00 00 00 FF FF FF FF FF
   24.900000 1  18FEF100x       Rx   d 8 FF 00 00 00 00 00 FF FF
   24.900000 1  18FEF200x       Rx   d 8 00 00 FF FF FF FF FF FF
   25.000000 1  0CF00400x       Rx   d 8 00 7D 7A 1B FF FF FF FF
   25.000000 1  0CF00300x       Rx   d 8 00 00 00 FF FF FF FF FF
   25.000000 1  18FEF100x       Rx   d 8 FF 00 00 00 00 00 FF FF
   25.000000 1  18FEF200x       Rx   d 8 00 00 FF FF FF FF FF FF
   25.000000 1  18FEF600x       Rx   d 8 FF 32 3C FF FF FF FF FF
   25.000000 1  18FEEF00x       Rx   d 8 FF FF FF 29 FF FF FF FF
   25.000000 1  18FEEE00x       Rx   d 9 25 3C 30 21 FF FF FF 00 FF
   25.000000 1  18FEF700x       Rx   d 8 FF FF FF FF FF FF 17 01
   25.000000 1  18FEF803x       Rx   d 8 FF FF FF FF A0 24 FF FF
   25.000000 1  18FEFC00x       Rx   d 8 FF FA FF FF FF FF FF FF
   25.000000 1  18FEF500x       Rx   d 9 CA FF FF A0 24 FF FF FF FF
   25.000000 1  18F00503x       Rx   d 8 7D FF FF 7D FF FF FF FF
   25.100000 1  0CF00400x       Rx   d 8 00 7D A8 1B FF FF FF FF
   25.100000 1  0CF00300x       Rx   d 8 00 00 00 FF FF FF FF FF
   25.100000 1  18FEF100x       Rx   d 8 FF 00 00 00 00 00 FF FF
   25.100000 1  18FEF200x       Rx   d 8 00 00 FF FF FF FF FF FF
   25.200000 1  0CF00400x       Rx   d 8 00 7D AE 1B FF FF FF FF
   25.200000 1  0CF00300x       Rx   d 8 00 00 00 FF FF FF FF FF
   25.200000 1  18FEF100x       Rx   d 8 FF 00 00 00 00 00 FF FF
   25.200000 1  18FEF200x       Rx   d 8 00 00 FF FF FF FF FF FF
   25.300000 1  0CF00400x       Rx   d 8 00 7D 82 1B FF FF FF FF
   25.300000 1  0CF00300x       Rx   d 8 00 00 00 FF FF FF FF FF
   25.300000 1  18FEF100x       Rx   d 8 FF 00 00 00 00 00 FF FF
   25.300000 1  18FEF200x       Rx   d 8 00 00 FF FF FF FF FF FF
   25.400000 1  0CF00400x       Rx   d 8 00 7D E1 1B FF FF FF FF
   25.400000 1  0CF00300x       Rx   d 8 00 00 00 FF FF FF FF FF
   25.400000 1  18FEF100x       Rx   d 8 FF 00 00 00 00 00 FF FF
   25.400000 1  18FEF200x       Rx   d 8 00 00 FF FF FF FF FF FF
   25.500000 1  0CF00400x       Rx   d 8 00 7D 09 1C FF FF FF FF
   25.500000 1  0CF00300x       Rx   d 8 00 00 00 FF FF FF FF FF
   25.500000 1  18FEF100x       Rx   d 8 FF 00 00 00 00 00 FF FF
   25.500000 1  18FEF200x       Rx   d 8 00 00 FF FF FF FF FF FF
   25.500000 1  18FEF600x       Rx   d 8 FF 32 3C FF FF FF FF FF
   25.500000 1  18FEEF00x       Rx   d 8 FF FF FF 27 FF FF FF FF
   25.600000 1  0CF00400x       Rx   d 8 00 7D 47 1B FF FF FF FF
   25.600000 1  0CF00300x       Rx   d 8 00 00 00 FF FF FF FF FF
   25.600000 1  18FEF100x       Rx   d 8 FF 00 00 00 00 00 FF FF
   25.600000 1  18FEF200x       Rx   d 8 00 00 FF FF FF FF FF FF
   25.700000 1  0CF00400x       Rx   d 8 00 7D 63 1B FF FF FF FF
   25.700000 1  0CF00300x       Rx   d 8 00 00 00 FF FF FF FF FF
   25.700000 1  18FEF100x       Rx   d 8 FF 00 00 00 00 00 FF FF
   25.700000 1  18FEF200x       Rx   d 8 00 00 FF FF FF FF FF FF
   25.800000 1  0CF00400x       Rx   d 8 00 7D AD 1B FF FF FF FF
   25.800000 1  0CF00300x       Rx   d 8 00 00 00 FF FF FF FF FF
   25.800000 1  18FEF100x       Rx   d 8 FF 00 00 00 00 00 FF FF
   25.800000 1  18FEF200x       Rx   d 8 00 00 FF FF FF FF FF FF
   25.900000 1  0CF00400x       Rx   d 8 00 7D 03 1C FF FF FF FF
   25.900000 1  0CF00300x       Rx   d 8 00 00 00 FF FF FF FF FF
   25.900000 1  18FEF100x       Rx   d 8 FF 00 00 00 00 00 FF FF
   25.900000 1  18FEF200x       Rx   d 8 00 00 FF FF FF FF FF FF
   26.000000 1  0CF00400x       Rx   d 8 00 7D EF 1B FF FF FF FF
   26.000000 1  0CF00300x       Rx   d 8 00 00 00 FF FF FF FF FF
   26.000000 1  18FEF100x       Rx   d 8 FF 00 00 00 00 00 FF FF
   26.000000 1  18FEF200x       Rx   d 8 00 00 FF FF FF FF FF FF
   26.000000 1  18FEF600x       Rx   d 8 FF 32 3C FF FF FF FF FF
   26.000000 1  18FEEF00x       Rx   d 8 FF FF FF 27 FF FF FF FF
   26.000000 1  18FEEE00x       Rx   d 9 25 3C 39 21 FF FF FF 00 FF
   26.000000 1  18FEF700x       Rx   d 8 FF FF FF FF FF FF 19 01
   26.000000 1  18FEF803x       Rx   d 8 FF FF FF FF A0 24 FF FF
   26.000000 1  18FEFC00x       Rx   d 8 FF FA FF FF FF FF FF FF
   26.000000 1  18FEF500x       Rx   d 9 CA FF FF A0 24 FF FF FF FF
   26.000000 1  18F00503x       Rx   d 8 7D FF FF 7D FF FF FF FF
   26.100000 1  0CF00400x       Rx   d 8 00 7D A1 1B FF FF FF FF
   26.100000 1  0CF00300x       Rx   d 8 00 00 00 FF FF FF FF FF
   26.100000 1  18FEF100x       Rx   d 8 FF 00 00 00 00 00 FF FF
   26.100000 1  18FEF200x       Rx   d 8 00 00 FF FF FF FF FF FF
   26.200000 1  0CF00400x       Rx   d 8 00 7D 12 1C FF FF FF FF
   26.200000 1  0CF00300x       Rx   d 8 00 00 00 FF FF FF FF FF
   26.200000 1  18FEF100x       Rx   d 8 FF 00 00 00 00 00 FF FF
   26.200000 1  18FEF200x       Rx   d 8 00 00 FF FF FF FF FF FF
   26.300000 1  0CF00400x       Rx   d 8 00 7D 82 1B FF FF FF FF
   26.300000 1  0CF00300x       Rx   d 8 00 00 00 FF FF FF FF FF
   26.300000 1  18FEF100x       Rx   d 8 FF 00 00 00 00 00 FF FF
   26.300000 1  18FEF200x       Rx   d 8 00 00 FF FF FF FF FF FF
   26.400000 1  0CF00400x       Rx   d 8 00 7D F8 1B FF FF FF FF
   26.400000 1  0CF00300x       Rx   d 8 00 00 00 FF FF FF FF FF
   26.400000 1  18FEF100x       Rx   d 8 FF 00 00 00 00 00 FF FF
   26.400000 1  18FEF200x       Rx   d 8 00 00 FF FF FF FF FF FF
   26.500000 1  0CF00400x       Rx   d 8 00 7D E2 1B FF FF FF FF
   26.500000 1  0CF00300x       Rx   d 8 00 00 00 FF FF FF FF FF
   26.500000 1  18FEF100x       Rx   d 8 FF 00 00 00 00 00 FF FF
   26.500000 1  18FEF200x       Rx   d 8 00 00 FF FF FF FF FF FF
   26.500000 1  18FEF600x       Rx   d 8 FF 32 3C FF FF FF FF FF
   26.500000 1  18FEEF00x       Rx   d 8 FF FF FF 27 FF FF FF FF
   26.600000 1  0CF00400x       Rx   d 8 00 7D 9E 1B FF FF FF FF
   26.600000 1  0CF00300x       Rx   d 8 00 00 00 FF FF FF FF FF
   26.600000 1  18FEF100x       Rx   d 8 FF 00 00 00 00 00 FF FF
   26.600000 1  18FEF200x       Rx   d 8 00 00 FF FF FF FF FF FF
   26.700000 1  0CF00400x       Rx   d 8 00 7D 6B 1B FF FF FF FF
   26.700000 1  0CF00300x       Rx   d 8 00 00 00 FF FF FF FF FF
   26.700000 1  18FEF100x       Rx   d 8 FF 00 00 00 00 00 FF FF
   26.700000 1  18FEF200x       Rx   d 8 00 00 FF FF FF FF FF FF
   26.800000 1  0CF00400x       Rx   d 8 00 7D 99 1B FF FF FF FF
   26.800000 1  0CF00300x       Rx   d 8 00 00 00 FF FF FF FF FF
   26.800000 1  18FEF100x       Rx   d 8 FF 00 00 00 00 00 FF FF
   26.800000 1  18FEF200x       Rx   d 8 00 00 FF FF FF FF FF FF
   26.900000 1  0CF00400x       Rx   d 8 00 7D 76 1B FF FF FF FF
   26.900000 1  0CF00300x       Rx   d 8 00 00 00 FF FF FF FF FF
   26.900000 1  18FEF100x       Rx   d 8 FF 00 00 00 00 00 FF FF
   26.900000 1  18FEF200x       Rx   d 8 00 00 FF FF FF FF FF FF
   27.000000 1  0CF00400x       Rx   d 8 00 7D 8F 1B FF FF FF FF
   27.000000 1  0CF00300x       Rx   d 8 00 00 00 FF FF FF FF FF
   27.000000 1  18FEF100x       Rx   d 8 FF 00 00 00 00 00 FF FF
   27.000000 1  18FEF200x       Rx   d 8 00 00 FF FF FF FF FF FF
   27.000000 1  18FEF600x       Rx   d 8 FF 32 3C FF FF FF FF FF
   27.000000 1  18FEEF00x       Rx   d 8 FF FF FF 26 FF FF FF FF
   27.000000 1  18FEEE00x       Rx   d 9 26 3C 43 21 FF FF FF 00 FF
   27.000000 1  18FEF700x       Rx   d 8 FF FF FF FF FF FF 15 01
   27.000000 1  18FEF803x       Rx   d 8 FF FF FF FF A0 24 FF FF
   27.000000 1  18FEFC00x       Rx   d 8 FF FA FF FF FF FF FF FF
   27.000000 1  18FEF500x       Rx   d 9 CA FF FF A0 24 FF FF FF FF
   27.000000 1  18F00503x       Rx   d 8 7D FF FF 7D FF FF FF FF
   27.100000 1  0CF00400x       Rx   d 8 00 7D C9 1B FF FF FF FF
   27.100000 1  0CF00300x       Rx   d 8 00 00 00 FF FF FF FF FF
   27.100000 1  18FEF100x       Rx   d 8 FF 00 00 00 00 00 FF FF
   27.100000 1  18FEF200x       Rx   d 8 00 00 FF FF FF FF FF FF
   27.200000 1  0CF00400x       Rx   d 8 00 7D DB 1B FF FF FF FF
   27.200000 1  0CF00300x       Rx   d 8 00 00 00 FF FF FF FF FF
   27.200000 1  18FEF100x       Rx   d 8 FF 00 00 00 00 00 FF FF
   27.200000 1  18FEF200x       Rx   d 8 00 00 FF FF FF FF FF FF
   27.300000 1  0CF00400x       Rx   d 8 00 7D CA 1B FF FF FF FF
   27.300000 1  0CF00300x       Rx   d 8 00 00 00 FF FF FF FF FF
   27.300000 1  18FEF100x       Rx   d 8 FF 00 00 00 00 00 FF FF
   27.300000 1  18FEF200x       Rx   d 8 00 00 FF FF FF FF FF FF
   27.400000 1  0CF00400x       Rx   d 8 00 7D BF 1B FF FF FF FF
   27.400000 1  0CF00300x       Rx   d 8 00 00 00 FF FF FF FF FF
   27.400000 1  18FEF100x       Rx   d 8 FF 00 00 00 00 00 FF FF
   27.400000 1  18FEF200x       Rx   d 8 00 00 FF FF FF FF FF FF
   27.500000 1  0CF00400x       Rx   d 8 00 7D 96 1B FF FF FF FF
   27.500000 1  0CF00300x       Rx   d 8 00 00 00 FF FF FF FF FF
   27.500000 1  18FEF100x       Rx   d 8 FF 00 00 00 00 00 FF FF
   27.500000 1  18FEF200x       Rx   d 8 00 00 FF FF FF FF FF FF
   27.500000 1  18FEF600x       Rx   d 8 FF 32 3C FF FF FF FF FF
   27.500000 1  18FEEF00x       Rx   d 8 FF FF FF 25 FF FF FF FF
   27.600000 1  0CF00400x       Rx   d 8 00 7D AD 1B FF FF FF FF
   27.600000 1  0CF00300x       Rx   d 8 00 00 00 FF FF FF FF FF
   27.600000 1  18FEF100x       Rx   d 8 FF 00 00 00 00 00 FF FF
   27.600000 1  18FEF200x       Rx   d 8 00 00 FF FF FF FF FF FF
   27.700000 1  0CF00400x       Rx   d 8 00 7D 88 1B FF FF FF FF
   27.700000 1  0CF00300x       Rx   d 8 00 00 00 FF FF FF FF FF
   27.700000 1  18FEF100x       Rx   d 8 FF 00 00 00 00 00 FF FF
   27.700000 1  18FEF200x       Rx   d 8 00 00 FF FF FF FF FF FF
   27.800000 1  0CF00400x       Rx   d 8 00 7D CB 1B FF FF FF FF
   27.800000 1  0CF00300x       Rx   d 8 00 00 00 FF FF FF FF FF
   27.800000 1  18FEF100x       Rx   d 8 FF 00 00 00 00 00 FF FF
   27.800000 1  18FEF200x       Rx   d 8 00 00 FF FF FF FF FF FF
   27.900000 1  0CF00400x       Rx   d 8 00 7D 42 1B FF FF FF FF
   27.900000 1  0CF00300x       Rx   d 8 00 00 00 FF FF FF FF FF
   27.900000 1  18FEF100x       Rx   d 8 FF 00 00 00 00 00 FF FF
   27.900000 1  18FEF200x       Rx   d 8 00 00 FF FF FF FF FF FF
   28.000000 1  0CF00400x       Rx   d 8 00 7D 6E 1B FF FF FF FF
   28.000000 1  0CF00300x       Rx   d 8 00 00 00 FF FF FF FF FF
   28.000000 1  18FEF100x       Rx   d 8 FF 00 00 00 00 00 FF FF
   28.000000 1  18FEF200x       Rx   d 8 00 00 FF FF FF FF FF FF
   28.000000 1  18FEF600x       Rx   d 8 FF 32 3C FF FF FF FF FF
   28.000000 1  18FEEF00x       Rx   d 8 FF FF FF 28 FF FF FF FF
   28.000000 1  18FEEE00x       Rx   d 9 26 3C 4C 21 FF FF FF 00 FF
   28.000000 1  18FEF700x       Rx   d 8 FF FF FF FF FF FF 19 01
   28.000000 1  18FEF803x       Rx   d 8 FF FF FF FF A0 24 FF FF
   28.000000 1  18FEFC00x       Rx   d 8 FF FA FF FF FF FF FF FF
   28.000000 1  18FEF500x       Rx   d 9 CA FF FF A0 24 FF FF FF FF
   28.000000 1  18F00503x       Rx   d 8 7D FF FF 7D FF FF FF FF
   28.100000 1  0CF00400x       Rx   d 8 00 7D E9 1B FF FF FF FF
   28.100000 1  0CF00300x       Rx   d 8 00 00 00 FF FF FF FF FF
   28.100000 1  18FEF100x       Rx   d 8 FF 00 00 00 00 00 FF FF
   28.100000 1  18FEF200x       Rx   d 8 00 00 FF FF FF FF FF FF
   28.200000 1  0CF00400x       Rx   d 8 00 7D 77 1B FF FF FF FF
   28.200000 1  0CF00300x       Rx   d 8 00 00 00 FF FF FF FF FF
   28.200000 1  18FEF100x       Rx   d 8 FF 00 00 00 00 00 FF FF
   28.200000 1  18FEF200x       Rx   d 8 00 00 FF FF FF FF FF FF
   28.300000 1  0CF00400x       Rx   d 8 00 7D D1 1B FF FF FF FF
   28.300000 1  0CF00300x       Rx   d 8 00 00 00 FF FF FF FF FF
   28.300000 1  18FEF100x       Rx   d 8 FF 00 00 00 00 00 FF FF
   28.300000 1  18FEF200x       Rx   d 8 00 00 FF FF FF FF FF FF
   28.400000 1  0CF00400x       Rx   d 8 00 7D 2B 1B FF FF FF FF
   28.400000 1  0CF00300x       Rx   d 8 00 00 00 FF FF FF FF FF
   28.400000 1  18FEF100x       Rx   d 8 FF 00 00 00 00 00 FF FF
   28.400000 1  18FEF200x       Rx   d 8 00 00 FF FF FF FF FF FF
   28.500000 1  0CF00400x       Rx   d 8 00 7D 0A 1C FF FF FF FF
   28.500000 1  0CF00300x       Rx   d 8 00 00 00 FF FF FF FF FF
   28.500000 1  18FEF100x       Rx   d 8 FF 00 00 00 00 00 FF FF
   28.500000 1  18FEF200x       Rx   d 8 00 00 FF FF FF FF FF FF
   28.500000 1  18FEF600x       Rx   d 8 FF 32 3C FF FF FF FF FF
   28.500000 1  18FEEF00x       Rx   d 8 FF FF FF 28 FF FF FF FF
   28.600000 1  0CF00400x       Rx   d 8 00 7D 31 1B FF FF FF FF
   28.600000 1  0CF00300x       Rx   d 8 00 00 00 FF FF FF FF FF
   28.600000 1  18FEF100x       Rx   d 8 FF 00 00 00 00 00 FF FF
   28.600000 1  18FEF200x       Rx   d 8 00 00 FF FF FF FF FF FF
   28.700000 1  0CF00400x       Rx   d 8 00 7D 84 1B FF FF FF FF
   28.700000 1  0CF00300x       Rx   d 8 00 00 00 FF FF FF FF FF
   28.700000 1  18FEF100x       Rx   d 8 FF 00 00 00 00 00 FF FF
   28.700000 1  18FEF200x       Rx   d 8 00 00 FF FF FF FF FF FF
   28.800000 1  0CF00400x       Rx   d 8 00 7D 24 1B FF FF FF FF
   28.800000 1  0CF00300x       Rx   d 8 00 00 00 FF FF FF FF FF
   28.800000 1  18FEF100x       Rx   d 8 FF 00 00 00 00 00 FF FF
   28.800000 1  18FEF200x       Rx   d 8 00 00 FF FF FF FF FF FF
   28.900000 1  0CF00400x       Rx   d 8 00 7D 72 1B FF FF FF FF
   28.900000 1  0CF00300x       Rx   d 8 00 00 00 FF FF FF FF FF
   28.900000 1  18FEF100x       Rx   d 8 FF 00 00 00 00 00 FF FF
   28.900000 1  18FEF200x       Rx   d 8 00 00 FF FF FF FF FF FF
   29.000000 1  0CF00400x       Rx   d 8 00 7D 9F 1B FF FF FF FF
   29.000000 1  0CF00300x       Rx   d 8 00 00 00 FF FF FF FF FF
   29.000000 1  18FEF100x       Rx   d 8 FF 00 00 00 00 00 FF FF
   29.000000 1  18FEF200x       Rx   d 8 00 00 FF FF FF FF FF FF
   29.000000 1  18FEF600x       Rx   d 8 FF 32 3C FF FF FF FF FF
   29.000000 1  18FEEF00x       Rx   d 8 FF FF FF 29 FF FF FF FF
   29.000000 1  18FEEE00x       Rx   d 9 26 3C 56 21 FF FF FF 00 FF
   29.000000 1  18FEF700x       Rx   d 8 FF FF FF FF FF FF 15 01
   29.000000 1  18FEF803x       Rx   d 8 FF FF FF FF A0 24 FF FF
   29.000000 1  18FEFC00x       Rx   d 8 FF FA FF FF FF FF FF FF
   29.000000 1  18FEF500x       Rx   d 9 CA FF FF A0 24 FF FF FF FF
   29.000000 1  18F00503x       Rx   d 8 7D FF FF 7D FF FF FF FF
   29.100000 1  0CF00400x       Rx   d 8 00 7D 2A 1B FF FF FF FF
   29.100000 1  0CF00300x       Rx   d 8 00 00 00 FF FF FF FF FF
   29.100000 1  18FEF100x       Rx   d 8 FF 00 00 00 00 00 FF FF
   29.100000 1  18FEF200x       Rx   d 8 00 00 FF FF FF FF FF FF
   29.200000 1  0CF00400x       Rx   d 8 00 7D 50 1B FF FF FF FF
   29.200000 1  0CF00300x       Rx   d 8 00 00 00 FF FF FF FF FF
   29.200000 1  18FEF100x       Rx   d 8 FF 00 00 00 00 00 FF FF
   29.200000 1  18FEF200x       Rx   d 8 00 00 FF FF FF FF FF FF
   29.300000 1  0CF00400x       Rx   d 8 00 7D 85 1B FF FF FF FF
   29.300000 1  0CF00300x       Rx   d 8 00 00 00 FF FF FF FF FF
   29.300000 1  18FEF100x       Rx   d 8 FF 00 00 00 00 00 FF FF
   29.300000 1  18FEF200x       Rx   d 8 00 00 FF FF FF FF FF FF
   29.400000 1  0CF00400x       Rx   d 8 00 7D 18 1B FF FF FF FF
   29.400000 1  0CF00300x       Rx   d 8 00 00 00 FF FF FF FF FF
   29.400000 1  18FEF100x       Rx   d 8 FF 00 00 00 00 00 FF FF
   29.400000 1  18FEF200x       Rx   d 8 00 00 FF FF FF FF FF FF
   29.500000 1  0CF00400x       Rx   d 8 00 7D B7 1B FF FF FF FF
   29.500000 1  0CF00300x       Rx   d 8 00 00 00 FF FF FF FF FF
   29.500000 1  18FEF100x       Rx   d 8 FF 00 00 00 00 00 FF FF
   29.500000 1  18FEF200x       Rx   d 8 00 00 FF FF FF FF FF FF
   29.500000 1  18FEF600x       Rx   d 8 FF 32 3C FF FF FF FF FF
   29.500000 1  18FEEF00x       Rx   d 8 FF FF FF 26 FF FF FF FF
   29.600000 1  0CF00400x       Rx   d 8 00 7D 67 1B FF FF FF FF
   29.600000 1  0CF00300x       Rx   d 8 00 00 00 FF FF FF FF FF
   29.600000 1  18FEF100x       Rx   d 8 FF 00 00 00 00 00 FF FF
   29.600000 1  18FEF200x       Rx   d 8 00 00 FF FF FF FF FF FF
   29.700000 1  0CF00400x       Rx   d 8 00 7D 7A 1B FF FF FF FF
   29.700000 1  0CF00300x       Rx   d 8 00 00 00 FF FF FF FF FF
   29.700000 1  18FEF100x       Rx   d 8 FF 00 00 00 00 00 FF FF
   29.700000 1  18FEF200x       Rx   d 8 00 00 FF FF FF FF FF FF
   29.800000 1  0CF00400x       Rx   d 8 00 7D 43 1B FF FF FF FF
   29.800000 1  0CF00300x       Rx   d 8 00 00 00 FF FF FF FF FF
   29.800000 1  18FEF100x       Rx   d 8 FF 00 00 00 00 00 FF FF
   29.800000 1  18FEF200x       Rx   d 8 00 00 FF FF FF FF FF FF
   29.900000 1  0CF00400x       Rx   d 8 00 7D 4C 1B FF FF FF FF
   29.900000 1  0CF00300x       Rx   d 8 00 00 00 FF FF FF FF FF
   29.900000 1  18FEF100x       Rx   d 8 FF 00 00 00 00 00 FF FF
   29.900000 1  18FEF200x       Rx   d 8 00 00 FF FF FF FF FF FF
   30.000000 1  0CF00400x       Rx   d 8 00 7D 00 1C FF FF FF FF
   30.000000 1  0CF00300x       Rx   d 8 00 00 00 FF FF FF FF FF
   30.000000 1  18FEF100x       Rx   d 8 FF 00 00 00 00 00 FF FF
   30.000000 1  18FEF200x       Rx   d 8 00 00 FF FF FF FF FF FF
   30.000000 1  18FEF600x       Rx   d 8 FF 32 3C FF FF FF FF FF
   30.000000 1  18FEEF00x       Rx   d 8 FF FF FF 26 FF FF FF FF
   30.000000 1  18FEEE00x       Rx   d 9 27 3C 60 21 FF FF FF 00 FF
   30.000000 1  18FEF700x       Rx   d 8 FF FF FF FF FF FF 1B 01
   30.000000 1  18FEF803x       Rx   d 8 FF FF FF FF A0 24 FF FF
   30.000000 1  18FEFC00x       Rx   d 8 FF FA FF FF FF FF FF FF
   30.000000 1  18FEF500x       Rx   d 9 CA FF FF A0 24 FF FF FF FF
   30.000000 1  18F00503x       Rx   d 8 7D FF FF 7D FF FF FF FF
   30.000000 1  18FEE500x       Rx   d 8 40 0D 03 00 FF FF FF FF
   30.100000 1  0CF00400x       Rx   d 8 00 7D B0 1B FF FF FF FF
   30.100000 1  0CF00300x       Rx   d 8 00 00 00 FF FF FF FF FF
   30.100000 1  18FEF100x       Rx   d 8 FF 00 00 00 00 00 FF FF
   30.100000 1  18FEF200x       Rx   d 8 00 00 FF FF FF FF FF FF
   30.200000 1  0CF00400x       Rx   d 8 00 7D B6 1B FF FF FF FF
   30.200000 1  0CF00300x       Rx   d 8 00 00 00 FF FF FF FF FF
   30.200000 1  18FEF100x       Rx   d 8 FF 00 00 00 00 00 FF FF
   30.200000 1  18FEF200x       Rx   d 8 00 00 FF FF FF FF FF FF
   30.300000 1  0CF00400x       Rx   d 8 00 7D A2 1B FF FF FF FF
   30.300000 1  0CF00300x       Rx   d 8 00 00 00 FF FF FF FF FF
   30.300000 1  18FEF100x       Rx   d 8 FF 00 00 00 00 00 FF FF
   30.300000 1  18FEF200x       Rx   d 8 00 00 FF FF FF FF FF FF
   30.400000 1  0CF00400x       Rx   d 8 00 7D 55 1B FF FF FF FF
   30.400000 1  0CF00300x       Rx   d 8 00 00 00 FF FF FF FF FF
   30.400000 1  18FEF100x       Rx   d 8 FF 00 00 00 00 00 FF FF
   30.400000 1  18FEF200x       Rx   d 8 00 00 FF FF FF FF FF FF
