; CANalyzer/CANoe ASC Log File
; Generated by J1939 Test Data Generator
; Date: Thu Jan 22 09:56:12 AM 2026
;
date Thu Jan 22 09:56:12 AM 2026
base hex  timestamps absolute
no internal events logged

    0.000000 1  0CF00400x       Rx   d 8 00 A9 5D 02 FF FF FF FF
    0.000000 1  0CF00300x       Rx   d 8 00 5E 2C FF FF FF FF FF
    0.000000 1  18FEF100x       Rx   d 8 FF 1B 05 00 00 00 FF FF
    0.000000 1  18FEF200x       Rx   d 8 83 02 FF FF FF FF FF FF
    0.000000 1  18FEF600x       Rx   d 8 FF 59 52 FF FF FF FF FF
    0.000000 1  18FEEF00x       Rx   d 8 FF FF FF 5F FF FF FF FF
    0.000000 1  18FEEE00x       Rx   d 9 80 3C 21 2E FF FF FF 00 FF
    0.000000 1  18FEF700x       Rx   d 8 FF FF FF FF FF FF 1C 01
    0.000000 1  18FEF803x       Rx   d 8 FF FF FF FF 9D 2C FF FF
    0.000000 1  18FEFC00x       Rx   d 8 FF F9 FF FF FF FF FF FF
    0.000000 1  18FEF500x       Rx   d 9 CA FF FF A0 24 FF FF FF FF
    0.000000 1  18F00503x       Rx   d 8 87 FF FF 87 FF FF FF FF
    0.000000 1  18FEE500x       Rx   d 8 40 0D 03 00 FF FF FF FF
    0.100000 1  0CF00400x       Rx   d 8 00 AF 84 04 FF FF FF FF
    0.100000 1  0CF00300x       Rx   d 8 00 67 32 FF FF FF FF FF
    0.100000 1  18FEF100x       Rx   d 8 FF 03 0A 00 00 00 FF FF
    0.100000 1  18FEF200x       Rx   d 8 9C 02 FF FF FF FF FF FF
    0.200000 1  0CF00400x       Rx   d 8 00 A6 B4 06 FF FF FF FF
    0.200000 1  0CF00300x       Rx   d 8 00 59 29 FF FF FF FF FF
    0.200000 1  18FEF100x       Rx   d 8 FF B6 0E 00 00 00 FF FF
    0.200000 1  18FEF200x       Rx   d 8 A3 02 FF FF FF FF FF FF
    0.300000 1  0CF00400x       Rx   d 8 00 B0 C4 08 FF FF FF FF
    0.300000 1  0CF00300x       Rx   d 8 00 6D 33 FF FF FF FF FF
    0.300000 1  18FEF100x       Rx   d 8 FF 43 13 00 00 00 FF FF
    0.300000 1  18FEF200x       Rx   d 8 6C 02 FF FF FF FF FF FF
    0.400000 1  0CF00400x       Rx   d 8 00 A9 B1 0A FF FF FF FF
    0.400000 1  0CF00300x       Rx   d 8 00 60 2C FF FF FF FF FF
    0.400000 1  18FEF100x       Rx   d 8 FF 82 17 00 00 00 FF FF
    0.400000 1  18FEF200x       Rx   d 8 78 02 FF FF FF FF FF FF
    0.500000 1  0CF00400x       Rx   d 8 00 B2 94 0C FF FF FF FF
    0.500000 1  0CF00300x       Rx   d 8 00 65 35 FF FF FF FF FF
    0.500000 1  18FEF100x       Rx   d 8 FF A0 1B 00 00 00 FF FF
    0.500000 1  18FEF200x       Rx   d 8 82 02 FF FF FF FF FF FF
    0.500000 1  18FEF600x       Rx   d 8 FF 58 52 FF FF FF FF FF
    0.500000 1  18FEEF00x       Rx   d 8 FF FF FF 61 FF FF FF FF
    0.600000 1  0CF00400x       Rx   d 8 00 AC 5A 0E FF FF FF FF
    0.600000 1  0CF00300x       Rx   d 8 00 67 2F FF FF FF FF FF
    0.600000 1  18FEF100x       Rx   d 8 FF 70 1F 00 00 00 FF FF
    0.600000 1  18FEF200x       Rx   d 8 CC 02 FF FF FF FF FF FF
    0.700000 1  0CF00400x       Rx   d 8 00 AF F6 0F FF FF FF FF
    0.700000 1  0CF00300x       Rx   d 8 00 70 32 FF FF FF FF FF
    0.700000 1  18FEF100x       Rx   d 8 FF 08 23 00 00 00 FF FF
    0.700000 1  18FEF200x       Rx   d 8 64 02 FF FF FF FF FF FF
    0.800000 1  0CF00400x       Rx   d 8 00 B6 95 11 FF FF FF FF
    0.800000 1  0CF00300x       Rx   d 8 00 6F 39 FF FF FF FF FF
    0.800000 1  18FEF100x       Rx   d 8 FF 8A 26 00 00 00 FF FF
    0.800000 1  18FEF200x       Rx   d 8 6E 02 FF FF FF FF FF FF
    0.900000 1  0CF00400x       Rx   d 8 00 AA 0A 13 FF FF FF FF
    0.900000 1  0CF00300x       Rx   d 8 00 6D 2D FF FF FF FF FF
    0.900000 1  18FEF100x       Rx   d 8 FF FF 29 00 00 00 FF FF
    0.900000 1  18FEF200x       Rx   d 8 D1 02 FF FF FF FF FF FF
    1.000000 1  0CF00400x       Rx   d 8 00 AF 79 14 FF FF FF FF
    1.000000 1  0CF00300x       Rx   d 8 00 6A 32 FF FF FF FF FF
    1.000000 1  18FEF100x       Rx   d 8 FF 29 2D 00 00 00 FF FF
    1.000000 1  18FEF200x       Rx   d 8 95 02 FF FF FF FF FF FF
    1.000000 1  18FEF600x       Rx   d 8 FF 5D 57 FF FF FF FF FF
    1.000000 1  18FEEF00x       Rx   d 8 FF FF FF 67 FF FF FF FF
    1.000000 1  18FEEE00x       Rx   d 9 7E 3C DE 2D FF FF FF 00 FF
    1.000000 1  18FEF700x       Rx   d 8 FF FF FF FF FF FF 18 01
    1.000000 1  18FEF803x       Rx   d 8 FF FF FF FF 86 2B FF FF
    1.000000 1  18FEFC00x       Rx   d 8 FF F9 FF FF FF FF FF FF
    1.000000 1  18FEF500x       Rx   d 9 CA FF FF A0 24 FF FF FF FF
    1.000000 1  18F00503x       Rx   d 8 87 FF FF 87 FF FF FF FF
    1.100000 1  0CF00400x       Rx   d 8 00 AE DA 15 FF FF FF FF
    1.100000 1  0CF00300x       Rx   d 8 00 59 31 FF FF FF FF FF
    1.100000 1  18FEF100x       Rx   d 8 FF 49 30 00 00 00 FF FF
    1.100000 1  18FEF200x       Rx   d 8 8D 02 FF FF FF FF FF FF
    1.200000 1  0CF00400x       Rx   d 8 00 B3 17 17 FF FF FF FF
    1.200000 1  0CF00300x       Rx   d 8 00 64 36 FF FF FF FF FF
    1.200000 1  18FEF100x       Rx   d 8 FF 09 33 00 00 00 FF FF
    1.200000 1  18FEF200x       Rx   d 8 70 02 FF FF FF FF FF FF
    1.300000 1  0CF00400x       Rx   d 8 00 A9 41 18 FF FF FF FF
    1.300000 1  0CF00300x       Rx   d 8 00 5D 2C FF FF FF FF FF
    1.300000 1  18FEF100x       Rx   d 8 FF C2 35 00 00 00 FF FF
    1.300000 1  18FEF200x       Rx   d 8 87 02 FF FF FF FF FF FF
    1.400000 1  0CF00400x       Rx   d 8 00 B0 57 19 FF FF FF FF
    1.400000 1  0CF00300x       Rx   d 8 00 6E 33 FF FF FF FF FF
    1.400000 1  18FEF100x       Rx   d 8 FF 36 38 00 00 00 FF FF
    1.400000 1  18FEF200x       Rx   d 8 AC 02 FF FF FF FF FF FF
    1.500000 1  0CF00400x       Rx   d 8 00 A6 74 1A FF FF FF FF
    1.500000 1  0CF00300x       Rx   d 8 00 70 29 FF FF FF FF FF
    1.500000 1  18FEF100x       Rx   d 8 FF B4 3A 00 00 00 FF FF
    1.500000 1  18FEF200x       Rx   d 8 AC 02 FF FF FF FF FF FF
    1.500000 1  18FEF600x       Rx   d 8 FF 56 53 FF FF FF FF FF
    1.500000 1  18FEEF00x       Rx   d 8 FF FF FF 63 FF FF FF FF
    1.600000 1  0CF00400x       Rx   d 8 00 B6 70 1B FF FF FF FF
    1.600000 1  0CF00300x       Rx   d 8 00 62 39 FF FF FF FF FF
    1.600000 1  18FEF100x       Rx   d 8 FF 25 3D 00 00 00 FF FF
    1.600000 1  18FEF200x       Rx   d 8 01 03 FF FF FF FF FF FF
    1.700000 1  0CF00400x       Rx   d 8 00 A6 68 1C FF FF FF FF
    1.700000 1  0CF00300x       Rx   d 8 00 61 29 FF FF FF FF FF
    1.700000 1  18FEF100x       Rx   d 8 FF 40 3F 00 00 00 FF FF
    1.700000 1  18FEF200x       Rx   d 8 17 03 FF FF FF FF FF FF
    1.800000 1  0CF00400x       Rx   d 8 00 AA 56 1D FF FF FF FF
    1.800000 1  0CF00300x       Rx   d 8 00 5B 2D FF FF FF FF FF
    1.800000 1  18FEF100x       Rx   d 8 FF 67 41 00 00 00 FF FF
    1.800000 1  18FEF200x       Rx   d 8 BC 02 FF FF FF FF FF FF
    1.900000 1  0CF00400x       Rx   d 8 00 A8 29 1E FF FF FF FF
    1.900000 1  0CF00300x       Rx   d 8 00 59 2B FF FF FF FF FF
    1.900000 1  18FEF100x       Rx   d 8 FF 85 43 00 00 00 FF FF
    1.900000 1  18FEF200x       Rx   d 8 CE 02 FF FF FF FF FF FF
    2.000000 1  0CF00400x       Rx   d 8 00 B7 FC 1E FF FF FF FF
    2.000000 1  0CF00300x       Rx   d 8 00 64 3A FF FF FF FF FF
    2.000000 1  18FEF100x       Rx   d 8 FF 6C 45 00 00 00 FF FF
    2.000000 1  18FEF200x       Rx   d 8 97 02 FF FF FF FF FF FF
    2.000000 1  18FEF600x       Rx   d 8 FF 5B 54 FF FF FF FF FF
    2.000000 1  18FEEF00x       Rx   d 8 FF FF FF 61 FF FF FF FF
    2.000000 1  18FEEE00x       Rx   d 9 7E 3C 29 2E FF FF FF 00 FF
    2.000000 1  18FEF700x       Rx   d 8 FF FF FF FF FF FF 1E 01
    2.000000 1  18FEF803x       Rx   d 8 FF FF FF FF CC 2B FF FF
    2.000000 1  18FEFC00x       Rx   d 8 FF F9 FF FF FF FF FF FF
    2.000000 1  18FEF500x       Rx   d 9 CA FF FF A0 24 FF FF FF FF
    2.000000 1  18F00503x       Rx   d 8 87 FF FF 87 FF FF FF FF
    2.100000 1  0CF00400x       Rx   d 8 00 B8 B6 1F FF FF FF FF
    2.100000 1  0CF00300x       Rx   d 8 00 70 3B FF FF FF FF FF
    2.100000 1  18FEF100x       Rx   d 8 FF 30 47 00 00 00 FF FF
    2.100000 1  18FEF200x       Rx   d 8 A1 02 FF FF FF FF FF FF
    2.200000 1  0CF00400x       Rx   d 8 00 B8 86 20 FF FF FF FF
    2.200000 1  0CF00300x       Rx   d 8 00 66 3B FF FF FF FF FF
    2.200000 1  18FEF100x       Rx   d 8 FF F0 48 00 00 00 FF FF
    2.200000 1  18FEF200x       Rx   d 8 72 02 FF FF FF FF FF FF
    2.300000 1  0CF00400x       Rx   d 8 00 B1 2E 21 FF FF FF FF
    2.300000 1  0CF00300x       Rx   d 8 00 5E 34 FF FF FF FF FF
    2.300000 1  18FEF100x       Rx   d 8 FF 8F 4A 00 00 00 FF FF
    2.300000 1  18FEF200x       Rx   d 8 01 03 FF FF FF FF FF FF
    2.400000 1  0CF00400x       Rx   d 8 00 B4 DA 21 FF FF FF FF
    2.400000 1  0CF00300x       Rx   d 8 00 57 37 FF FF FF FF FF
    2.400000 1  18FEF100x       Rx   d 8 FF 03 4C 00 00 00 FF FF
    2.400000 1  18FEF200x       Rx   d 8 67 02 FF FF FF FF FF FF
    2.500000 1  0CF00400x       Rx   d 8 00 B0 91 22 FF FF FF FF
    2.500000 1  0CF00300x       Rx   d 8 00 6C 33 FF FF FF FF FF
    2.500000 1  18FEF100x       Rx   d 8 FF 7A 4D 00 00 00 FF FF
    2.500000 1  18FEF200x       Rx   d 8 0B 03 FF FF FF FF FF FF
    2.500000 1  18FEF600x       Rx   d 8 FF 5C 57 FF FF FF FF FF
    2.500000 1  18FEEF00x       Rx   d 8 FF FF FF 67 FF FF FF FF
    2.600000 1  0CF00400x       Rx   d 8 00 B6 24 23 FF FF FF FF
    2.600000 1  0CF00300x       Rx   d 8 00 6B 39 FF FF FF FF FF
    2.600000 1  18FEF100x       Rx   d 8 FF BB 4E 00 00 00 FF FF
    2.600000 1  18FEF200x       Rx   d 8 FA 02 FF FF FF FF FF FF
    2.700000 1  0CF00400x       Rx   d 8 00 B7 A7 23 FF FF FF FF
    2.700000 1  0CF00300x       Rx   d 8 00 5F 3A FF FF FF FF FF
    2.700000 1  18FEF100x       Rx   d 8 FF 1E 50 00 00 00 FF FF
    2.700000 1  18FEF200x       Rx   d 8 06 03 FF FF FF FF FF FF
    2.800000 1  0CF00400x       Rx   d 8 00 AB 2C 24 FF FF FF FF
    2.800000 1  0CF00300x       Rx   d 8 00 63 2E FF FF FF FF FF
    2.800000 1  18FEF100x       Rx   d 8 FF 75 51 00 00 00 FF FF
    2.800000 1  18FEF200x       Rx   d 8 19 03 FF FF FF FF FF FF
    2.900000 1  0CF00400x       Rx   d 8 00 AF BA 24 FF FF FF FF
    2.900000 1  0CF00300x       Rx   d 8 00 70 32 FF FF FF FF FF
    2.900000 1  18FEF100x       Rx   d 8 FF 9A 52 00 00 00 FF FF
    2.900000 1  18FEF200x       Rx   d 8 6D 02 FF FF FF FF FF FF
    3.000000 1  0CF00400x       Rx   d 8 00 AF 45 25 FF FF FF FF
    3.000000 1  0CF00300x       Rx   d 8 00 66 32 FF FF FF FF FF
    3.000000 1  18FEF100x       Rx   d 8 FF AB 53 00 00 00 FF FF
    3.000000 1  18FEF200x       Rx   d 8 C3 02 FF FF FF FF FF FF
    3.000000 1  18FEF600x       Rx   d 8 FF 55 56 FF FF FF FF FF
    3.000000 1  18FEEF00x       Rx   d 8 FF FF FF 68 FF FF FF FF
    3.000000 1  18FEEE00x       Rx   d 9 7F 3C 0E 2E FF FF FF 00 FF
    3.000000 1  18FEF700x       Rx   d 8 FF FF FF FF FF FF 1D 01
    3.000000 1  18FEF803x       Rx   d 8 FF FF FF FF D1 2B FF FF
    3.000000 1  18FEFC00x       Rx   d 8 FF F9 FF FF FF FF FF FF
    3.000000 1  18FEF500x       Rx   d 9 CA FF FF A0 24 FF FF FF FF
    3.000000 1  18F00503x       Rx   d 8 87 FF FF 87 FF FF FF FF
    3.100000 1  0CF00400x       Rx   d 8 00 A6 CA 25 FF FF FF FF
    3.100000 1  0CF00300x       Rx   d 8 00 60 29 FF FF FF FF FF
    3.100000 1  18FEF100x       Rx   d 8 FF C9 54 00 00 00 FF FF
    3.100000 1  18FEF200x       Rx   d 8 95 02 FF FF FF FF FF FF
    3.200000 1  0CF00400x       Rx   d 8 00 AD 3A 26 FF FF FF FF
    3.200000 1  0CF00300x       Rx   d 8 00 5A 30 FF FF FF FF FF
    3.200000 1  18FEF100x       Rx   d 8 FF BC 55 00 00 00 FF FF
    3.200000 1  18FEF200x       Rx   d 8 58 02 FF FF FF FF FF FF
    3.300000 1  0CF00400x       Rx   d 8 00 AE A6 26 FF FF FF FF
    3.300000 1  0CF00300x       Rx   d 8 00 67 31 FF FF FF FF FF
    3.300000 1  18FEF100x       Rx   d 8 FF B8 56 00 00 00 FF FF
    3.300000 1  18FEF200x       Rx   d 8 68 02 FF FF FF FF FF FF
    3.400000 1  0CF00400x       Rx   d 8 00 B4 15 27 FF FF FF FF
    3.400000 1  0CF00300x       Rx   d 8 00 6B 37 FF FF FF FF FF
    3.400000 1  18FEF100x       Rx   d 8 FF 96 57 00 00 00 FF FF
    3.400000 1  18FEF200x       Rx   d 8 01 03 FF FF FF FF FF FF
    3.500000 1  0CF00400x       Rx   d 8 00 B2 75 27 FF FF FF FF
    3.500000 1  0CF00300x       Rx   d 8 00 5C 35 FF FF FF FF FF
    3.500000 1  18FEF100x       Rx   d 8 FF 7F 58 00 00 00 FF FF
    3.500000 1  18FEF200x       Rx   d 8 6D 02 FF FF FF FF FF FF
    3.500000 1  18FEF600x       Rx   d 8 FF 5C 52 FF FF FF FF FF
    3.500000 1  18FEEF00x       Rx   d 8 FF FF FF 66 FF FF FF FF
    3.600000 1  0CF00400x       Rx   d 8 00 A6 C7 27 FF FF FF FF
    3.600000 1  0CF00300x       Rx   d 8 00 64 29 FF FF FF FF FF
    3.600000 1  18FEF100x       Rx   d 8 FF 75 59 00 00 00 FF FF
    3.600000 1  18FEF200x       Rx   d 8 CF 02 FF FF FF FF FF FF
    3.700000 1  0CF00400x       Rx   d 8 00 AF 32 28 FF FF FF FF
    3.700000 1  0CF00300x       Rx   d 8 00 69 32 FF FF FF FF FF
    3.700000 1  18FEF100x       Rx   d 8 FF 45 5A 00 00 00 FF FF
    3.700000 1  18FEF200x       Rx   d 8 89 02 FF FF FF FF FF FF
    3.800000 1  0CF00400x       Rx   d 8 00 AA 92 28 FF FF FF FF
    3.800000 1  0CF00300x       Rx   d 8 00 67 2D FF FF FF FF FF
    3.800000 1  18FEF100x       Rx   d 8 FF 03 5B 00 00 00 FF FF
    3.800000 1  18FEF200x       Rx   d 8 86 02 FF FF FF FF FF FF
    3.900000 1  0CF00400x       Rx   d 8 00 AF EB 28 FF FF FF FF
    3.900000 1  0CF00300x       Rx   d 8 00 61 32 FF FF FF FF FF
    3.900000 1  18FEF100x       Rx   d 8 FF 94 5B 00 00 00 FF FF
    3.900000 1  18FEF200x       Rx   d 8 03 03 FF FF FF FF FF FF
    4.000000 1  0CF00400x       Rx   d 8 00 B4 32 29 FF FF FF FF
    4.000000 1  0CF00300x       Rx   d 8 00 60 37 FF FF FF FF FF
    4.000000 1  18FEF100x       Rx   d 8 FF 1A 5C 00 00 00 FF FF
    4.000000 1  18FEF200x       Rx   d 8 84 02 FF FF FF FF FF FF
    4.000000 1  18FEF600x       Rx   d 8 FF 5A 56 FF FF FF FF FF
    4.000000 1  18FEEF00x       Rx   d 8 FF FF FF 65 FF FF FF FF
    4.000000 1  18FEEE00x       Rx   d 9 81 3C 57 2E FF FF FF 00 FF
    4.000000 1  18FEF700x       Rx   d 8 FF FF FF FF FF FF 19 01
    4.000000 1  18FEF803x       Rx   d 8 FF FF FF FF 06 2C FF FF
    4.000000 1  18FEFC00x       Rx   d 8 FF F9 FF FF FF FF FF FF
    4.000000 1  18FEF500x       Rx   d 9 CA FF FF A0 24 FF FF FF FF
    4.000000 1  18F00503x       Rx   d 8 87 FF FF 87 FF FF FF FF
    4.100000 1  0CF00400x       Rx   d 8 00 B2 78 29 FF FF FF FF
    4.100000 1  0CF00300x       Rx   d 8 00 5F 35 FF FF FF FF FF
    4.100000 1  18FEF100x       Rx   d 8 FF 9B 5C 00 00 00 FF FF
    4.100000 1  18FEF200x       Rx   d 8 A6 02 FF FF FF FF FF FF
    4.200000 1  0CF00400x       Rx   d 8 00 AE AA 29 FF FF FF FF
    4.200000 1  0CF00300x       Rx   d 8 00 5A 31 FF FF FF FF FF
    4.200000 1  18FEF100x       Rx   d 8 FF 45 5D 00 00 00 FF FF
    4.200000 1  18FEF200x       Rx   d 8 EE 02 FF FF FF FF FF FF
    4.300000 1  0CF00400x       Rx   d 8 00 AF E3 29 FF FF FF FF
    4.300000 1  0CF00300x       Rx   d 8 00 57 32 FF FF FF FF FF
    4.300000 1  18FEF100x       Rx   d 8 FF BB 5D 00 00 00 FF FF
    4.300000 1  18FEF200x       Rx   d 8 15 03 FF FF FF FF FF FF
    4.400000 1  0CF00400x       Rx   d 8 00 B2 10 2A FF FF FF FF
    4.400000 1  0CF00300x       Rx   d 8 00 5A 35 FF FF FF FF FF
    4.400000 1  18FEF100x       Rx   d 8 FF 30 5E 00 00 00 FF FF
    4.400000 1  18FEF200x       Rx   d 8 ED 02 FF FF FF FF FF FF
    4.500000 1  0CF00400x       Rx   d 8 00 A5 5A 2A FF FF FF FF
    4.500000 1  0CF00300x       Rx   d 8 00 5A 28 FF FF FF FF FF
    4.500000 1  18FEF100x       Rx   d 8 FF DE 5E 00 00 00 FF FF
    4.500000 1  18FEF200x       Rx   d 8 E2 02 FF FF FF FF FF FF
    4.500000 1  18FEF600x       Rx   d 8 FF 5C 54 FF FF FF FF FF
    4.500000 1  18FEEF00x       Rx   d 8 FF FF FF 5F FF FF FF FF
    4.600000 1  0CF00400x       Rx   d 8 00 B1 84 2A FF FF FF FF
    4.600000 1  0CF00300x       Rx   d 8 00 6C 34 FF FF FF FF FF
    4.600000 1  18FEF100x       Rx   d 8 FF 75 5F 00 00 00 FF FF
    4.600000 1  18FEF200x       Rx   d 8 BD 02 FF FF FF FF FF FF
    4.700000 1  0CF00400x       Rx   d 8 00 B8 CA 2A FF FF FF FF
    4.700000 1  0CF00300x       Rx   d 8 00 5A 3B FF FF FF FF FF
    4.700000 1  18FEF100x       Rx   d 8 FF 08 60 00 00 00 FF FF
    4.700000 1  18FEF200x       Rx   d 8 8E 02 FF FF FF FF FF FF
    4.800000 1  0CF00400x       Rx   d 8 00 B3 00 2B FF FF FF FF
    4.800000 1  0CF00300x       Rx   d 8 00 62 36 FF FF FF FF FF
    4.800000 1  18FEF100x       Rx   d 8 FF 79 60 00 00 00 FF FF
    4.800000 1  18FEF200x       Rx   d 8 B4 02 FF FF FF FF FF FF
    4.900000 1  0CF00400x       Rx   d 8 00 A8 2C 2B FF FF FF FF
    4.900000 1  0CF00300x       Rx   d 8 00 6C 2B FF FF FF FF FF
    4.900000 1  18FEF100x       Rx   d 8 FF C2 60 00 00 00 FF FF
    4.900000 1  18FEF200x       Rx   d 8 5A 02 FF FF FF FF FF FF
    5.000000 1  0CF00400x       Rx   d 8 00 B4 4B 2B FF FF FF FF
    5.000000 1  0CF00300x       Rx   d 8 00 63 37 FF FF FF FF FF
    5.000000 1  18FEF100x       Rx   d 8 FF 3D 61 00 00 00 FF FF
    5.000000 1  18FEF200x       Rx   d 8 E2 02 FF FF FF FF FF FF
    5.000000 1  18FEF600x       Rx   d 8 FF 55 56 FF FF FF FF FF
    5.000000 1  18FEEF00x       Rx   d 8 FF FF FF 61 FF FF FF FF
    5.000000 1  18FEEE00x       Rx   d 9 80 3C 1C 2E FF FF FF 00 FF
    5.000000 1  18FEF700x       Rx   d 8 FF FF FF FF FF FF 1A 01
    5.000000 1  18FEF803x       Rx   d 8 FF FF FF FF 1D 2C FF FF
    5.000000 1  18FEFC00x       Rx   d 8 FF F9 FF FF FF FF FF FF
    5.000000 1  18FEF500x       Rx   d 9 CA FF FF A0 24 FF FF FF FF
    5.000000 1  18F00503x       Rx   d 8 87 FF FF 87 FF FF FF FF
    5.100000 1  0CF00400x       Rx   d 8 00 AD 7C 2B FF FF FF FF
    5.100000 1  0CF00300x       Rx   d 8 00 64 30 FF FF FF FF FF
    5.100000 1  18FEF100x       Rx   d 8 FF 9E 61 00 00 00 FF FF
    5.100000 1  18FEF200x       Rx   d 8 7E 02 FF FF FF FF FF FF
    5.200000 1  0CF00400x       Rx   d 8 00 A9 A9 2B FF FF FF FF
    5.200000 1  0CF00300x       Rx   d 8 00 5C 2C FF FF FF FF FF
    5.200000 1  18FEF100x       Rx   d 8 FF 10 62 00 00 00 FF FF
    5.200000 1  18FEF200x       Rx   d 8 7E 02 FF FF FF FF FF FF
    5.300000 1  0CF00400x       Rx   d 8 00 AA C5 2B FF FF FF FF
    5.300000 1  0CF00300x       Rx   d 8 00 64 2D FF FF FF FF FF
    5.300000 1  18FEF100x       Rx   d 8 FF 44 62 00 00 00 FF FF
    5.300000 1  18FEF200x       Rx   d 8 06 03 FF FF FF FF FF FF
    5.400000 1  0CF00400x       Rx   d 8 00 A6 EC 2B FF FF FF FF
    5.400000 1  0CF00300x       Rx   d 8 00 5C 29 FF FF FF FF FF
    5.400000 1  18FEF100x       Rx   d 8 FF 96 62 00 00 00 FF FF
    5.400000 1  18FEF200x       Rx   d 8 62 02 FF FF FF FF FF FF
    5.500000 1  0CF00400x       Rx   d 8 00 A7 14 2C FF FF FF FF
    5.500000 1  0CF00300x       Rx   d 8 00 70 2A FF FF FF FF FF
    5.500000 1  18FEF100x       Rx   d 8 FF D9 62 00 00 00 FF FF
    5.500000 1  18FEF200x       Rx   d 8 B0 02 FF FF FF FF FF FF
    5.500000 1  18FEF600x       Rx   d 8 FF 5A 53 FF FF FF FF FF
    5.500000 1  18FEEF00x       Rx   d 8 FF FF FF 63 FF FF FF FF
    5.600000 1  0CF00400x       Rx   d 8 00 B1 4C 2C FF FF FF FF
    5.600000 1  0CF00300x       Rx   d 8 00 67 34 FF FF FF FF FF
    5.600000 1  18FEF100x       Rx   d 8 FF 18 63 00 00 00 FF FF
    5.600000 1  18FEF200x       Rx   d 8 7A 02 FF FF FF FF FF FF
    5.700000 1  0CF00400x       Rx   d 8 00 AA 59 2C FF FF FF FF
    5.700000 1  0CF00300x       Rx   d 8 00 66 2D FF FF FF FF FF
    5.700000 1  18FEF100x       Rx   d 8 FF 60 63 00 00 00 FF FF
    5.700000 1  18FEF200x       Rx   d 8 F5 02 FF FF FF FF FF FF
    5.800000 1  0CF00400x       Rx   d 8 00 AF 7F 2C FF FF FF FF
    5.800000 1  0CF00300x       Rx   d 8 00 62 32 FF FF FF FF FF
    5.800000 1  18FEF100x       Rx   d 8 FF C9 63 00 00 00 FF FF
    5.800000 1  18FEF200x       Rx   d 8 ED 02 FF FF FF FF FF FF
    5.900000 1  0CF00400x       Rx   d 8 00 B2 95 2C FF FF FF FF
    5.900000 1  0CF00300x       Rx   d 8 00 68 35 FF FF FF FF FF
    5.900000 1  18FEF100x       Rx   d 8 FF EF 63 00 00 00 FF FF
    5.900000 1  18FEF200x       Rx   d 8 98 02 FF FF FF FF FF FF
    6.000000 1  0CF00400x       Rx   d 8 00 B0 A2 2C FF FF FF FF
    6.000000 1  0CF00300x       Rx   d 8 00 6C 33 FF FF FF FF FF
    6.000000 1  18FEF100x       Rx   d 8 FF 54 64 00 00 00 FF FF
    6.000000 1  18FEF200x       Rx   d 8 B6 02 FF FF FF FF FF FF
    6.000000 1  18FEF600x       Rx   d 8 FF 55 53 FF FF FF FF FF
    6.000000 1  18FEEF00x       Rx   d 8 FF FF FF 66 FF FF FF FF
    6.000000 1  18FEEE00x       Rx   d 9 81 3C 5F 2E FF FF FF 00 FF
    6.000000 1  18FEF700x       Rx   d 8 FF FF FF FF FF FF 1D 01
    6.000000 1  18FEF803x       Rx   d 8 FF FF FF FF 57 2C FF FF
    6.000000 1  18FEFC00x       Rx   d 8 FF F9 FF FF FF FF FF FF
    6.000000 1  18FEF500x       Rx   d 9 CA FF FF A0 24 FF FF FF FF
    6.000000 1  18F00503x       Rx   d 8 87 FF FF 87 FF FF FF FF
    6.100000 1  0CF00400x       Rx   d 8 00 B1 D0 2C FF FF FF FF
    6.100000 1  0CF00300x       Rx   d 8 00 66 34 FF FF FF FF FF
    6.100000 1  18FEF100x       Rx   d 8 FF 77 64 00 00 00 FF FF
    6.100000 1  18FEF200x       Rx   d 8 99 02 FF FF FF FF FF FF
    6.200000 1  0CF00400x       Rx   d 8 00 B0 E2 2C FF FF FF FF
    6.200000 1  0CF00300x       Rx   d 8 00 6B 33 FF FF FF FF FF
    6.200000 1  18FEF100x       Rx   d 8 FF D3 64 00 00 00 FF FF
    6.200000 1  18FEF200x       Rx   d 8 1D 03 FF FF FF FF FF FF
    6.300000 1  0CF00400x       Rx   d 8 00 AC FD 2C FF FF FF FF
    6.300000 1  0CF00300x       Rx   d 8 00 5C 2F FF FF FF FF FF
    6.300000 1  18FEF100x       Rx   d 8 FF 02 65 00 00 00 FF FF
    6.300000 1  18FEF200x       Rx   d 8 AF 02 FF FF FF FF FF FF
    6.400000 1  0CF00400x       Rx   d 8 00 A9 06 2D FF FF FF FF
    6.400000 1  0CF00300x       Rx   d 8 00 66 2C FF FF FF FF FF
    6.400000 1  18FEF100x       Rx   d 8 FF 59 65 00 00 00 FF FF
    6.400000 1  18FEF200x       Rx   d 8 B4 02 FF FF FF FF FF FF
    6.500000 1  0CF00400x       Rx   d 8 00 AF 2B 2D FF FF FF FF
    6.500000 1  0CF00300x       Rx   d 8 00 69 32 FF FF FF FF FF
    6.500000 1  18FEF100x       Rx   d 8 FF 88 65 00 00 00 FF FF
    6.500000 1  18FEF200x       Rx   d 8 10 03 FF FF FF FF FF FF
    6.500000 1  18FEF600x       Rx   d 8 FF 5A 53 FF FF FF FF FF
    6.500000 1  18FEEF00x       Rx   d 8 FF FF FF 62 FF FF FF FF
    6.600000 1  0CF00400x       Rx   d 8 00 B4 50 2D FF FF FF FF
    6.600000 1  0CF00300x       Rx   d 8 00 5E 37 FF FF FF FF FF
    6.600000 1  18FEF100x       Rx   d 8 FF D0 65 00 00 00 FF FF
    6.600000 1  18FEF200x       Rx   d 8 CD 02 FF FF FF FF FF FF
    6.700000 1  0CF00400x       Rx   d 8 00 AB 63 2D FF FF FF FF
    6.700000 1  0CF00300x       Rx   d 8 00 64 2E FF FF FF FF FF
    6.700000 1  18FEF100x       Rx   d 8 FF DE 65 00 00 00 FF FF
    6.700000 1  18FEF200x       Rx   d 8 CA 02 FF FF FF FF FF FF
    6.800000 1  0CF00400x       Rx   d 8 00 B3 81 2D FF FF FF FF
    6.800000 1  0CF00300x       Rx   d 8 00 6A 36 FF FF FF FF FF
    6.800000 1  18FEF100x       Rx   d 8 FF E3 65 00 00 00 FF FF
    6.800000 1  18FEF200x       Rx   d 8 5F 02 FF FF FF FF FF FF
    6.900000 1  0CF00400x       Rx   d 8 00 AD 96 2D FF FF FF FF
    6.900000 1  0CF00300x       Rx   d 8 00 6D 30 FF FF FF FF FF
    6.900000 1  18FEF100x       Rx   d 8 FF 27 66 00 00 00 FF FF
    6.900000 1  18FEF200x       Rx   d 8 B5 02 FF FF FF FF FF FF
    7.000000 1  0CF00400x       Rx   d 8 00 B6 A0 2D FF FF FF FF
    7.000000 1  0CF00300x       Rx   d 8 00 67 39 FF FF FF FF FF
    7.000000 1  18FEF100x       Rx   d 8 FF 5A 66 00 00 00 FF FF
    7.000000 1  18FEF200x       Rx   d 8 06 03 FF FF FF FF FF FF
    7.000000 1  18FEF600x       Rx   d 8 FF 5C 53 FF FF FF FF FF
    7.000000 1  18FEEF00x       Rx   d 8 FF FF FF 66 FF FF FF FF
    7.000000 1  18FEEE00x       Rx   d 9 81 3C 44 2E FF FF FF 00 FF
    7.000000 1  18FEF700x       Rx   d 8 FF FF FF FF FF FF 18 01
    7.000000 1  18FEF803x       Rx   d 8 FF FF FF FF F9 2B FF FF
    7.000000 1  18FEFC00x       Rx   d 8 FF F9 FF FF FF FF FF FF
    7.000000 1  18FEF500x       Rx   d 9 CA FF FF A0 24 FF FF FF FF
    7.000000 1  18F00503x       Rx   d 8 87 FF FF 87 FF FF FF FF
    7.100000 1  0CF00400x       Rx   d 8 00 B8 9F 2D FF FF FF FF
    7.100000 1  0CF00300x       Rx   d 8 00 6E 3B FF FF FF FF FF
    7.100000 1  18FEF100x       Rx   d 8 FF 86 66 00 00 00 FF FF
    7.100000 1  18FEF200x       Rx   d 8 E2 02 FF FF FF FF FF FF
    7.200000 1  0CF00400x       Rx   d 8 00 AC 9D 2D FF FF FF FF
    7.200000 1  0CF00300x       Rx   d 8 00 5E 2F FF FF FF FF FF
    7.200000 1  18FEF100x       Rx   d 8 FF BD 66 00 00 00 FF FF
    7.200000 1  18FEF200x       Rx   d 8 06 03 FF FF FF FF FF FF
    7.300000 1  0CF00400x       Rx   d 8 00 AE A3 2D FF FF FF FF
    7.300000 1  0CF00300x       Rx   d 8 00 5B 31 FF FF FF FF FF
    7.300000 1  18FEF100x       Rx   d 8 FF F9 66 00 00 00 FF FF
    7.300000 1  18FEF200x       Rx   d 8 77 02 FF FF FF FF FF FF
    7.400000 1  0CF00400x       Rx   d 8 00 AD AC 2D FF FF FF FF
    7.400000 1  0CF00300x       Rx   d 8 00 67 30 FF FF FF FF FF
    7.400000 1  18FEF100x       Rx   d 8 FF 1A 67 00 00 00 FF FF
    7.400000 1  18FEF200x       Rx   d 8 CA 02 FF FF FF FF FF FF
    7.500000 1  0CF00400x       Rx   d 8 00 B2 CF 2D FF FF FF FF
    7.500000 1  0CF00300x       Rx   d 8 00 6F 35 FF FF FF FF FF
    7.500000 1  18FEF100x       Rx   d 8 FF 23 67 00 00 00 FF FF
    7.500000 1  18FEF200x       Rx   d 8 BB 02 FF FF FF FF FF FF
    7.500000 1  18FEF600x       Rx   d 8 FF 55 56 FF FF FF FF FF
    7.500000 1  18FEEF00x       Rx   d 8 FF FF FF 65 FF FF FF FF
    7.600000 1  0CF00400x       Rx   d 8 00 AC D5 2D FF FF FF FF
    7.600000 1  0CF00300x       Rx   d 8 00 66 2F FF FF FF FF FF
    7.600000 1  18FEF100x       Rx   d 8 FF 51 67 00 00 00 FF FF
    7.600000 1  18FEF200x       Rx   d 8 D5 02 FF FF FF FF FF FF
    7.700000 1  0CF00400x       Rx   d 8 00 B0 E8 2D FF FF FF FF
    7.700000 1  0CF00300x       Rx   d 8 00 62 33 FF FF FF FF FF
    7.700000 1  18FEF100x       Rx   d 8 FF 58 67 00 00 00 FF FF
    7.700000 1  18FEF200x       Rx   d 8 C3 02 FF FF FF FF FF FF
    7.800000 1  0CF00400x       Rx   d 8 00 AA F5 2D FF FF FF FF
    7.800000 1  0CF00300x       Rx   d 8 00 6C 2D FF FF FF FF FF
    7.800000 1  18FEF100x       Rx   d 8 FF 8D 67 00 00 00 FF FF
    7.800000 1  18FEF200x       Rx   d 8 18 03 FF FF FF FF FF FF
    7.900000 1  0CF00400x       Rx   d 8 00 B8 14 2E FF FF FF FF
    7.900000 1  0CF00300x       Rx   d 8 00 69 3B FF FF FF FF FF
    7.900000 1  18FEF100x       Rx   d 8 FF BB 67 00 00 00 FF FF
    7.900000 1  18FEF200x       Rx   d 8 B2 02 FF FF FF FF FF FF
    8.000000 1  0CF00400x       Rx   d 8 00 B7 25 2E FF FF FF FF
    8.000000 1  0CF00300x       Rx   d 8 00 6C 3A FF FF FF FF FF
    8.000000 1  18FEF100x       Rx   d 8 FF D2 67 00 00 00 FF FF
    8.000000 1  18FEF200x       Rx   d 8 84 02 FF FF FF FF FF FF
    8.000000 1  18FEF600x       Rx   d 8 FF 5A 57 FF FF FF FF FF
    8.000000 1  18FEEF00x       Rx   d 8 FF FF FF 68 FF FF FF FF
    8.000000 1  18FEEE00x       Rx   d 9 7E 3C CC 2D FF FF FF 00 FF
    8.000000 1  18FEF700x       Rx   d 8 FF FF FF FF FF FF 18 01
    8.000000 1  18FEF803x       Rx   d 8 FF FF FF FF 88 2B FF FF
    8.000000 1  18FEFC00x       Rx   d 8 FF F9 FF FF FF FF FF FF
    8.000000 1  18FEF500x       Rx   d 9 CA FF FF A0 24 FF FF FF FF
    8.000000 1  18F00503x       Rx   d 8 87 FF FF 87 FF FF FF FF
    8.100000 1  0CF00400x       Rx   d 8 00 AD 3B 2E FF FF FF FF
    8.100000 1  0CF00300x       Rx   d 8 00 5F 30 FF FF FF FF FF
    8.100000 1  18FEF100x       Rx   d 8 FF 01 68 00 00 00 FF FF
    8.100000 1  18FEF200x       Rx   d 8 73 02 FF FF FF FF FF FF
    8.200000 1  0CF00400x       Rx   d 8 00 AD 4A 2E FF FF FF FF
    8.200000 1  0CF00300x       Rx   d 8 00 6F 30 FF FF FF FF FF
    8.200000 1  18FEF100x       Rx   d 8 FF 20 68 00 00 00 FF FF
    8.200000 1  18FEF200x       Rx   d 8 16 03 FF FF FF FF FF FF
    8.300000 1  0CF00400x       Rx   d 8 00 B6 4C 2E FF FF FF FF
    8.300000 1  0CF00300x       Rx   d 8 00 6F 39 FF FF FF FF FF
    8.300000 1  18FEF100x       Rx   d 8 FF 27 68 00 00 00 FF FF
    8.300000 1  18FEF200x       Rx   d 8 7D 02 FF FF FF FF FF FF
    8.400000 1  0CF00400x       Rx   d 8 00 B1 62 2E FF FF FF FF
    8.400000 1  0CF00300x       Rx   d 8 00 68 34 FF FF FF FF FF
    8.400000 1  18FEF100x       Rx   d 8 FF 2E 68 00 00 00 FF FF
    8.400000 1  18FEF200x       Rx   d 8 65 02 FF FF FF FF FF FF
    8.500000 1  0CF00400x       Rx   d 8 00 AB 5C 2E FF FF FF FF
    8.500000 1  0CF00300x       Rx   d 8 00 6D 2E FF FF FF FF FF
    8.500000 1  18FEF100x       Rx   d 8 FF 23 68 00 00 00 FF FF
    8.500000 1  18FEF200x       Rx   d 8 8A 02 FF FF FF FF FF FF
    8.500000 1  18FEF600x       Rx   d 8 FF 56 57 FF FF FF FF FF
    8.500000 1  18FEEF00x       Rx   d 8 FF FF FF 60 FF FF FF FF
    8.600000 1  0CF00400x       Rx   d 8 00 B4 69 2E FF FF FF FF
    8.600000 1  0CF00300x       Rx   d 8 00 57 37 FF FF FF FF FF
    8.600000 1  18FEF100x       Rx   d 8 FF 09 68 00 00 00 FF FF
    8.600000 1  18FEF200x       Rx   d 8 ED 02 FF FF FF FF FF FF
    8.700000 1  0CF00400x       Rx   d 8 00 AF 7A 2E FF FF FF FF
    8.700000 1  0CF00300x       Rx   d 8 00 5A 32 FF FF FF FF FF
    8.700000 1  18FEF100x       Rx   d 8 FF 17 68 00 00 00 FF FF
    8.700000 1  18FEF200x       Rx   d 8 18 03 FF FF FF FF FF FF
    8.800000 1  0CF00400x       Rx   d 8 00 AE 7F 2E FF FF FF FF
    8.800000 1  0CF00300x       Rx   d 8 00 68 31 FF FF FF FF FF
    8.800000 1  18FEF100x       Rx   d 8 FF 1B 68 00 00 00 FF FF
    8.800000 1  18FEF200x       Rx   d 8 D6 02 FF FF FF FF FF FF
    8.900000 1  0CF00400x       Rx   d 8 00 AE 7C 2E FF FF FF FF
    8.900000 1  0CF00300x       Rx   d 8 00 64 31 FF FF FF FF FF
    8.900000 1  18FEF100x       Rx   d 8 FF 4C 68 00 00 00 FF FF
    8.900000 1  18FEF200x       Rx   d 8 E8 02 FF FF FF FF FF FF
    9.000000 1  0CF00400x       Rx   d 8 00 AE 7F 2E FF FF FF FF
    9.000000 1  0CF00300x       Rx   d 8 00 5F 31 FF FF FF FF FF
    9.000000 1  18FEF100x       Rx   d 8 FF 40 68 00 00 00 FF FF
    9.000000 1  18FEF200x       Rx   d 8 10 03 FF FF FF FF FF FF
    9.000000 1  18FEF600x       Rx   d 8 FF 58 55 FF FF FF FF FF
    9.000000 1  18FEEF00x       Rx   d 8 FF FF FF 60 FF FF FF FF
    9.000000 1  18FEEE00x       Rx   d 9 7F 3C B2 2D FF FF FF 00 FF
    9.000000 1  18FEF700x       Rx   d 8 FF FF FF FF FF FF 18 01
    9.000000 1  18FEF803x       Rx   d 8 FF FF FF FF 08 2C FF FF
    9.000000 1  18FEFC00x       Rx   d 8 FF F9 FF FF FF FF FF FF
    9.000000 1  18FEF500x       Rx   d 9 CA FF FF A0 24 FF FF FF FF
    9.000000 1  18F00503x       Rx   d 8 87 FF FF 87 FF FF FF FF
    9.100000 1  0CF00400x       Rx   d 8 00 B3 91 2E FF FF FF FF
    9.100000 1  0CF00300x       Rx   d 8 00 59 36 FF FF FF FF FF
    9.100000 1  18FEF100x       Rx   d 8 FF 2B 68 00 00 00 FF FF
    9.100000 1  18FEF200x       Rx   d 8 9E 02 FF FF FF FF FF FF
    9.200000 1  0CF00400x       Rx   d 8 00 B8 9F 2E FF FF FF FF
    9.200000 1  0CF00300x       Rx   d 8 00 69 3B FF FF FF FF FF
    9.200000 1  18FEF100x       Rx   d 8 FF 52 68 00 00 00 FF FF
    9.200000 1  18FEF200x       Rx   d 8 6D 02 FF FF FF FF FF FF
    9.300000 1  0CF00400x       Rx   d 8 00 B5 9D 2E FF FF FF FF
    9.300000 1  0CF00300x       Rx   d 8 00 65 38 FF FF FF FF FF
    9.300000 1  18FEF100x       Rx   d 8 FF 6E 68 00 00 00 FF FF
    9.300000 1  18FEF200x       Rx   d 8 11 03 FF FF FF FF FF FF
    9.400000 1  0CF00400x       Rx   d 8 00 AB 97 2E FF FF FF FF
    9.400000 1  0CF00300x       Rx   d 8 00 69 2E FF FF FF FF FF
    9.400000 1  18FEF100x       Rx   d 8 FF 5D 68 00 00 00 FF FF
    9.400000 1  18FEF200x       Rx   d 8 D6 02 FF FF FF FF FF FF
    9.500000 1  0CF00400x       Rx   d 8 00 AB A5 2E FF FF FF FF
    9.500000 1  0CF00300x       Rx   d 8 00 61 2E FF FF FF FF FF
    9.500000 1  18FEF100x       Rx   d 8 FF 4F 68 00 00 00 FF FF
    9.500000 1  18FEF200x       Rx   d 8 77 02 FF FF FF FF FF FF
    9.500000 1  18FEF600x       Rx   d 8 FF 55 55 FF FF FF FF FF
    9.500000 1  18FEEF00x       Rx   d 8 FF FF FF 5F FF FF FF FF
    9.600000 1  0CF00400x       Rx   d 8 00 AE AF 2E FF FF FF FF
    9.600000 1  0CF00300x       Rx   d 8 00 68 31 FF FF FF FF FF
    9.600000 1  18FEF100x       Rx   d 8 FF 47 68 00 00 00 FF FF
    9.600000 1  18FEF200x       Rx   d 8 DF 02 FF FF FF FF FF FF
    9.700000 1  0CF00400x       Rx   d 8 00 B0 B8 2E FF FF FF FF
    9.700000 1  0CF00300x       Rx   d 8 00 61 33 FF FF FF FF FF
    9.700000 1  18FEF100x       Rx   d 8 FF 2D 68 00 00 00 FF FF
    9.700000 1  18FEF200x       Rx   d 8 59 02 FF FF FF FF FF FF
    9.800000 1  0CF00400x       Rx   d 8 00 AF AD 2E FF FF FF FF
    9.800000 1  0CF00300x       Rx   d 8 00 69 32 FF FF FF FF FF
    9.800000 1  18FEF100x       Rx   d 8 FF 2E 68 00 00 00 FF FF
    9.800000 1  18FEF200x       Rx   d 8 10 03 FF FF FF FF FF FF
    9.900000 1  0CF00400x       Rx   d 8 00 AD B2 2E FF FF FF FF
    9.900000 1  0CF00300x       Rx   d 8 00 69 30 FF FF FF FF FF
    9.900000 1  18FEF100x       Rx   d 8 FF 3E 68 00 00 00 FF FF
    9.900000 1  18FEF200x       Rx   d 8 0F 03 FF FF FF FF FF FF
   10.000000 1  0CF00400x       Rx   d 8 00 AF C2 2E FF FF FF FF
   10.000000 1  0CF00300x       Rx   d 8 00 66 32 FF FF FF FF FF
   10.000000 1  18FEF100x       Rx   d 8 FF 34 68 00 00 00 FF FF
   10.000000 1  18FEF200x       Rx   d 8 6E 02 FF FF FF FF FF FF
   10.000000 1  18FEF600x       Rx   d 8 FF 56 53 FF FF FF FF FF
   10.000000 1  18FEEF00x       Rx   d 8 FF FF FF 64 FF FF FF FF
   10.000000 1  18FEEE00x       Rx   d 9 7F 3C DB 2D FF FF FF 00 FF
   10.000000 1  18FEF700x       Rx   d 8 FF FF FF FF FF FF 1C 01
   10.000000 1  18FEF803x       Rx   d 8 FF FF FF FF EC 2B FF FF
   10.000000 1  18FEFC00x       Rx   d 8 FF F9 FF FF FF FF FF FF
   10.000000 1  18FEF500x       Rx   d 9 CA FF FF A0 24 FF FF FF FF
   10.000000 1  18F00503x       Rx   d 8 87 FF FF 87 FF FF FF FF
   10.000000 1  18FEE500x       Rx   d 8 40 0D 03 00 FF FF FF FF
   10.100000 1  0CF00400x       Rx   d 8 00 B5 D4 2E FF FF FF FF
   10.100000 1  0CF00300x       Rx   d 8 00 69 38 FF FF FF FF FF
   10.100000 1  18FEF100x       Rx   d 8 FF 33 68 00 00 00 FF FF
   10.100000 1  18FEF200x       Rx   d 8 DB 02 FF FF FF FF FF FF
   10.200000 1  0CF00400x       Rx   d 8 00 B4 E0 2E FF FF FF FF
   10.200000 1  0CF00300x       Rx   d 8 00 6A 37 FF FF FF FF FF
   10.200000 1  18FEF100x       Rx   d 8 FF 3D 68 00 00 00 FF FF
   10.200000 1  18FEF200x       Rx   d 8 D5 02 FF FF FF FF FF FF
   10.300000 1  0CF00400x       Rx   d 8 00 AA CE 2E FF FF FF FF
   10.300000 1  0CF00300x       Rx   d 8 00 5F 2D FF FF FF FF FF
   10.300000 1  18FEF100x       Rx   d 8 FF 42 68 00 00 00 FF FF
   10.300000 1  18FEF200x       Rx   d 8 67 02 FF FF FF FF FF FF
   10.400000 1  0CF00400x       Rx   d 8 00 AE DD 2E FF FF FF FF
   10.400000 1  0CF00300x       Rx   d 8 00 64 31 FF FF FF FF FF
   10.400000 1  18FEF100x       Rx   d 8 FF 54 68 00 00 00 FF FF
   10.400000 1  18FEF200x       Rx   d 8 98 02 FF FF FF FF FF FF
   10.500000 1  0CF00400x       Rx   d 8 00 B6 D0 2E FF FF FF FF
   10.500000 1  0CF00300x       Rx   d 8 00 5A 39 FF FF FF FF FF
   10.500000 1  18FEF100x       Rx   d 8 FF 3B 68 00 00 00 FF FF
   10.500000 1  18FEF200x       Rx   d 8 AF 02 FF FF FF FF FF FF
   10.500000 1  18FEF600x       Rx   d 8 FF 57 53 FF FF FF FF FF
   10.500000 1  18FEEF00x       Rx   d 8 FF FF FF 63 FF FF FF FF
   10.600000 1  0CF00400x       Rx   d 8 00 AD C3 2E FF FF FF FF
   10.600000 1  0CF00300x       Rx   d 8 00 5E 30 FF FF FF FF FF
   10.600000 1  18FEF100x       Rx   d 8 FF 3B 68 00 00 00 FF FF
   10.600000 1  18FEF200x       Rx   d 8 DF 02 FF FF FF FF FF FF
   10.700000 1  0CF00400x       Rx   d 8 00 B6 CD 2E FF FF FF FF
   10.700000 1  0CF00300x       Rx   d 8 00 6E 39 FF FF FF FF FF
   10.700000 1  18FEF100x       Rx   d 8 FF 51 68 00 00 00 FF FF
   10.700000 1  18FEF200x       Rx   d 8 A6 02 FF FF FF FF FF FF
   10.800000 1  0CF00400x       Rx   d 8 00 B4 DF 2E FF FF FF FF
   10.800000 1  0CF00300x       Rx   d 8 00 60 37 FF FF FF FF FF
   10.800000 1  18FEF100x       Rx   d 8 FF 4B 68 00 00 00 FF FF
   10.800000 1  18FEF200x       Rx   d 8 D9 02 FF FF FF FF FF FF
   10.900000 1  0CF00400x       Rx   d 8 00 A9 DA 2E FF FF FF FF
   10.900000 1  0CF00300x       Rx   d 8 00 5C 2C FF FF FF FF FF
   10.900000 1  18FEF100x       Rx   d 8 FF 4A 68 00 00 00 FF FF
   10.900000 1  18FEF200x       Rx   d 8 6C 02 FF FF FF FF FF FF
   11.000000 1  0CF00400x       Rx   d 8 00 AB E8 2E FF FF FF FF
   11.000000 1  0CF00300x       Rx   d 8 00 58 2E FF FF FF FF FF
   11.000000 1  18FEF100x       Rx   d 8 FF 70 68 00 00 00 FF FF
   11.000000 1  18FEF200x       Rx   d 8 F9 02 FF FF FF FF FF FF
   11.000000 1  18FEF600x       Rx   d 8 FF 5D 52 FF FF FF FF FF
   11.000000 1  18FEEF00x       Rx   d 8 FF FF FF 66 FF FF FF FF
   11.000000 1  18FEEE00x       Rx   d 9 81 3C B9 2D FF FF FF 00 FF
   11.000000 1  18FEF700x       Rx   d 8 FF FF FF FF FF FF 19 01
   11.000000 1  18FEF803x       Rx   d 8 FF FF FF FF F8 2B FF FF
   11.000000 1  18FEFC00x       Rx   d 8 FF F9 FF FF FF FF FF FF
   11.000000 1  18FEF500x       Rx   d 9 CA FF FF A0 24 FF FF FF FF
   11.000000 1  18F00503x       Rx   d 8 87 FF FF 87 FF FF FF FF
   11.100000 1  0CF00400x       Rx   d 8 00 A9 E5 2E FF FF FF FF
   11.100000 1  0CF00300x       Rx   d 8 00 68 2C FF FF FF FF FF
   11.100000 1  18FEF100x       Rx   d 8 FF 71 68 00 00 00 FF FF
   11.100000 1  18FEF200x       Rx   d 8 F9 02 FF FF FF FF FF FF
   11.200000 1  0CF00400x       Rx   d 8 00 B8 F2 2E FF FF FF FF
   11.200000 1  0CF00300x       Rx   d 8 00 6F 3B FF FF FF FF FF
   11.200000 1  18FEF100x       Rx   d 8 FF 6E 68 00 00 00 FF FF
   11.200000 1  18FEF200x       Rx   d 8 F8 02 FF FF FF FF FF FF
   11.300000 1  0CF00400x       Rx   d 8 00 B0 E7 2E FF FF FF FF
   11.300000 1  0CF00300x       Rx   d 8 00 6D 33 FF FF FF FF FF
   11.300000 1  18FEF100x       Rx   d 8 FF 80 68 00 00 00 FF FF
   11.300000 1  18FEF200x       Rx   d 8 0D 03 FF FF FF FF FF FF
   11.400000 1  0CF00400x       Rx   d 8 00 AE E4 2E FF FF FF FF
   11.400000 1  0CF00300x       Rx   d 8 00 5D 31 FF FF FF FF FF
   11.400000 1  18FEF100x       Rx   d 8 FF A8 68 00 00 00 FF FF
   11.400000 1  18FEF200x       Rx   d 8 A2 02 FF FF FF FF FF FF
   11.500000 1  0CF00400x       Rx   d 8 00 B4 F5 2E FF FF FF FF
   11.500000 1  0CF00300x       Rx   d 8 00 67 37 FF FF FF FF FF
   11.500000 1  18FEF100x       Rx   d 8 FF C7 68 00 00 00 FF FF
   11.500000 1  18FEF200x       Rx   d 8 B1 02 FF FF FF FF FF FF
   11.500000 1  18FEF600x       Rx   d 8 FF 56 56 FF FF FF FF FF
   11.500000 1  18FEEF00x       Rx   d 8 FF FF FF 66 FF FF FF FF
   11.600000 1  0CF00400x       Rx   d 8 00 AF E3 2E FF FF FF FF
   11.600000 1  0CF00300x       Rx   d 8 00 6C 32 FF FF FF FF FF
   11.600000 1  18FEF100x       Rx   d 8 FF B7 68 00 00 00 FF FF
   11.600000 1  18FEF200x       Rx   d 8 AB 02 FF FF FF FF FF FF
   11.700000 1  0CF00400x       Rx   d 8 00 B0 E1 2E FF FF FF FF
   11.700000 1  0CF00300x       Rx   d 8 00 6E 33 FF FF FF FF FF
   11.700000 1  18FEF100x       Rx   d 8 FF 9D 68 00 00 00 FF FF
   11.700000 1  18FEF200x       Rx   d 8 88 02 FF FF FF FF FF FF
   11.800000 1  0CF00400x       Rx   d 8 00 A6 E8 2E FF FF FF FF
   11.800000 1  0CF00300x       Rx   d 8 00 6F 29 FF FF FF FF FF
   11.800000 1  18FEF100x       Rx   d 8 FF 82 68 00 00 00 FF FF
   11.800000 1  18FEF200x       Rx   d 8 D7 02 FF FF FF FF FF FF
   11.900000 1  0CF00400x       Rx   d 8 00 AB DE 2E FF FF FF FF
   11.900000 1  0CF00300x       Rx   d 8 00 6B 2E FF FF FF FF FF
   11.900000 1  18FEF100x       Rx   d 8 FF 63 68 00 00 00 FF FF
   11.900000 1  18FEF200x       Rx   d 8 C5 02 FF FF FF FF FF FF
   12.000000 1  0CF00400x       Rx   d 8 00 B2 D1 2E FF FF FF FF
   12.000000 1  0CF00300x       Rx   d 8 00 63 35 FF FF FF FF FF
   12.000000 1  18FEF100x       Rx   d 8 FF 80 68 00 00 00 FF FF
   12.000000 1  18FEF200x       Rx   d 8 60 02 FF FF FF FF FF FF
   12.000000 1  18FEF600x       Rx   d 8 FF 59 56 FF FF FF FF FF
   12.000000 1  18FEEF00x       Rx   d 8 FF FF FF 61 FF FF FF FF
   12.000000 1  18FEEE00x       Rx   d 9 80 3C 3B 2E FF FF FF 00 FF
   12.000000 1  18FEF700x       Rx   d 8 FF FF FF FF FF FF 19 01
   12.000000 1  18FEF803x       Rx   d 8 FF FF FF FF 94 2B FF FF
   12.000000 1  18FEFC00x       Rx   d 8 FF F9 FF FF FF FF FF FF
   12.000000 1  18FEF500x       Rx   d 9 CA FF FF A0 24 FF FF FF FF
   12.000000 1  18F00503x       Rx   d 8 87 FF FF 87 FF FF FF FF
   12.100000 1  0CF00400x       Rx   d 8 00 B8 BF 2E FF FF FF FF
   12.100000 1  0CF00300x       Rx   d 8 00 64 3B FF FF FF FF FF
   12.100000 1  18FEF100x       Rx   d 8 FF A8 68 00 00 00 FF FF
   12.100000 1  18FEF200x       Rx   d 8 05 03 FF FF FF FF FF FF
   12.200000 1  0CF00400x       Rx   d 8 00 B3 B2 2E FF FF FF FF
   12.200000 1  0CF00300x       Rx   d 8 00 6D 36 FF FF FF FF FF
   12.200000 1  18FEF100x       Rx   d 8 FF A2 68 00 00 00 FF FF
   12.200000 1  18FEF200x       Rx   d 8 BF 02 FF FF FF FF FF FF
   12.300000 1  0CF00400x       Rx   d 8 00 B5 BD 2E FF FF FF FF
   12.300000 1  0CF00300x       Rx   d 8 00 66 38 FF FF FF FF FF
   12.300000 1  18FEF100x       Rx   d 8 FF 86 68 00 00 00 FF FF
   12.300000 1  18FEF200x       Rx   d 8 AD 02 FF FF FF FF FF FF
   12.400000 1  0CF00400x       Rx   d 8 00 AC B9 2E FF FF FF FF
   12.400000 1  0CF00300x       Rx   d 8 00 6D 2F FF FF FF FF FF
   12.400000 1  18FEF100x       Rx   d 8 FF 69 68 00 00 00 FF FF
   12.400000 1  18FEF200x       Rx   d 8 A0 02 FF FF FF FF FF FF
   12.500000 1  0CF00400x       Rx   d 8 00 B1 C2 2E FF FF FF FF
   12.500000 1  0CF00300x       Rx   d 8 00 5B 34 FF FF FF FF FF
   12.500000 1  18FEF100x       Rx   d 8 FF 94 68 00 00 00 FF FF
   12.500000 1  18FEF200x       Rx   d 8 C9 02 FF FF FF FF FF FF
   12.500000 1  18FEF600x       Rx   d 8 FF 58 56 FF FF FF FF FF
   12.500000 1  18FEEF00x       Rx   d 8 FF FF FF 62 FF FF FF FF
   12.600000 1  0CF00400x       Rx   d 8 00 B4 CB 2E FF FF FF FF
   12.600000 1  0CF00300x       Rx   d 8 00 60 37 FF FF FF FF FF
   12.600000 1  18FEF100x       Rx   d 8 FF BB 68 00 00 00 FF FF
   12.600000 1  18FEF200x       Rx   d 8 EB 02 FF FF FF FF FF FF
   12.700000 1  0CF00400x       Rx   d 8 00 AA C7 2E FF FF FF FF
   12.700000 1  0CF00300x       Rx   d 8 00 5E 2D FF FF FF FF FF
   12.700000 1  18FEF100x       Rx   d 8 FF C4 68 00 00 00 FF FF
   12.700000 1  18FEF200x       Rx   d 8 02 03 FF FF FF FF FF FF
   12.800000 1  0CF00400x       Rx   d 8 00 B2 D8 2E FF FF FF FF
   12.800000 1  0CF00300x       Rx   d 8 00 59 35 FF FF FF FF FF
   12.800000 1  18FEF100x       Rx   d 8 FF C2 68 00 00 00 FF FF
   12.800000 1  18FEF200x       Rx   d 8 02 03 FF FF FF FF FF FF
   12.900000 1  0CF00400x       Rx   d 8 00 AF EA 2E FF FF FF FF
   12.900000 1  0CF00300x       Rx   d 8 00 6B 32 FF FF FF FF FF
   12.900000 1  18FEF100x       Rx   d 8 FF D0 68 00 00 00 FF FF
   12.900000 1  18FEF200x       Rx   d 8 A1 02 FF FF FF FF FF FF
   13.000000 1  0CF00400x       Rx   d 8 00 AB EB 2E FF FF FF FF
   13.000000 1  0CF00300x       Rx   d 8 00 59 2E FF FF FF FF FF
   13.000000 1  18FEF100x       Rx   d 8 FF DB 68 00 00 00 FF FF
   13.000000 1  18FEF200x       Rx   d 8 1A 03 FF FF FF FF FF FF
   13.000000 1  18FEF600x       Rx   d 8 FF 5D 56 FF FF FF FF FF
   13.000000 1  18FEEF00x       Rx   d 8 FF FF FF 5F FF FF FF FF
   13.000000 1  18FEEE00x       Rx   d 9 81 3C 2A 2E FF FF FF 00 FF
   13.000000 1  18FEF700x       Rx   d 8 FF FF FF FF FF FF 1D 01
   13.000000 1  18FEF803x       Rx   d 8 FF FF FF FF 28 2C FF FF
   13.000000 1  18FEFC00x       Rx   d 8 FF F9 FF FF FF FF FF FF
   13.000000 1  18FEF500x       Rx   d 9 CA FF FF A0 24 FF FF FF FF
   13.000000 1  18F00503x       Rx   d 8 87 FF FF 87 FF FF FF FF
   13.100000 1  0CF00400x       Rx   d 8 00 B6 E9 2E FF FF FF FF
   13.100000 1  0CF00300x       Rx   d 8 00 60 39 FF FF FF FF FF
   13.100000 1  18FEF100x       Rx   d 8 FF EB 68 00 00 00 FF FF
   13.100000 1  18FEF200x       Rx   d 8 63 02 FF FF FF FF FF FF
   13.200000 1  0CF00400x       Rx   d 8 00 B3 DA 2E FF FF FF FF
   13.200000 1  0CF00300x       Rx   d 8 00 5F 36 FF FF FF FF FF
   13.200000 1  18FEF100x       Rx   d 8 FF D2 68 00 00 00 FF FF
   13.200000 1  18FEF200x       Rx   d 8 C6 02 FF FF FF FF FF FF
   13.300000 1  0CF00400x       Rx   d 8 00 A8 D3 2E FF FF FF FF
   13.300000 1  0CF00300x       Rx   d 8 00 64 2B FF FF FF FF FF
   13.300000 1  18FEF100x       Rx   d 8 FF D7 68 00 00 00 FF FF
   13.300000 1  18FEF200x       Rx   d 8 C8 02 FF FF FF FF FF FF
   13.400000 1  0CF00400x       Rx   d 8 00 B0 C0 2E FF FF FF FF
   13.400000 1  0CF00300x       Rx   d 8 00 67 33 FF FF FF FF FF
   13.400000 1  18FEF100x       Rx   d 8 FF B6 68 00 00 00 FF FF
   13.400000 1  18FEF200x       Rx   d 8 91 02 FF FF FF FF FF FF
   13.500000 1  0CF00400x       Rx   d 8 00 AA C1 2E FF FF FF FF
   13.500000 1  0CF00300x       Rx   d 8 00 68 2D FF FF FF FF FF
   13.500000 1  18FEF100x       Rx   d 8 FF D1 68 00 00 00 FF FF
   13.500000 1  18FEF200x       Rx   d 8 96 02 FF FF FF FF FF FF
   13.500000 1  18FEF600x       Rx   d 8 FF 57 54 FF FF FF FF FF
   13.500000 1  18FEEF00x       Rx   d 8 FF FF FF 65 FF FF FF FF
   13.600000 1  0CF00400x       Rx   d 8 00 A7 CC 2E FF FF FF FF
   13.600000 1  0CF00300x       Rx   d 8 00 6F 2A FF FF FF FF FF
   13.600000 1  18FEF100x       Rx   d 8 FF EF 68 00 00 00 FF FF
   13.600000 1  18FEF200x       Rx   d 8 6B 02 FF FF FF FF FF FF
   13.700000 1  0CF00400x       Rx   d 8 00 B6 C9 2E FF FF FF FF
   13.700000 1  0CF00300x       Rx   d 8 00 5D 39 FF FF FF FF FF
   13.700000 1  18FEF100x       Rx   d 8 FF F9 68 00 00 00 FF FF
   13.700000 1  18FEF200x       Rx   d 8 BE 02 FF FF FF FF FF FF
   13.800000 1  0CF00400x       Rx   d 8 00 AF C2 2E FF FF FF FF
   13.800000 1  0CF00300x       Rx   d 8 00 6F 32 FF FF FF FF FF
   13.800000 1  18FEF100x       Rx   d 8 FF D4 68 00 00 00 FF FF
   13.800000 1  18FEF200x       Rx   d 8 DA 02 FF FF FF FF FF FF
   13.900000 1  0CF00400x       Rx   d 8 00 B6 C5 2E FF FF FF FF
   13.900000 1  0CF00300x       Rx   d 8 00 62 39 FF FF FF FF FF
   13.900000 1  18FEF100x       Rx   d 8 FF F1 68 00 00 00 FF FF
   13.900000 1  18FEF200x       Rx   d 8 C6 02 FF FF FF FF FF FF
   14.000000 1  0CF00400x       Rx   d 8 00 B8 C6 2E FF FF FF FF
   14.000000 1  0CF00300x       Rx   d 8 00 5E 3B FF FF FF FF FF
   14.000000 1  18FEF100x       Rx   d 8 FF 06 69 00 00 00 FF FF
   14.000000 1  18FEF200x       Rx   d 8 13 03 FF FF FF FF FF FF
   14.000000 1  18FEF600x       Rx   d 8 FF 5C 54 FF FF FF FF FF
   14.000000 1  18FEEF00x       Rx   d 8 FF FF FF 62 FF FF FF FF
   14.000000 1  18FEEE00x       Rx   d 9 80 3C B6 2D FF FF FF 00 FF
   14.000000 1  18FEF700x       Rx   d 8 FF FF FF FF FF FF 1E 01
   14.000000 1  18FEF803x       Rx   d 8 FF FF FF FF B8 2C FF FF
   14.000000 1  18FEFC00x       Rx   d 8 FF F9 FF FF FF FF FF FF
   14.000000 1  18FEF500x       Rx   d 9 CA FF FF A0 24 FF FF FF FF
   14.000000 1  18F00503x       Rx   d 8 87 FF FF 87 FF FF FF FF
   14.100000 1  0CF00400x       Rx   d 8 00 A5 BC 2E FF FF FF FF
   14.100000 1  0CF00300x       Rx   d 8 00 64 28 FF FF FF FF FF
   14.100000 1  18FEF100x       Rx   d 8 FF 07 69 00 00 00 FF FF
   14.100000 1  18FEF200x       Rx   d 8 99 02 FF FF FF FF FF FF
   14.200000 1  0CF00400x       Rx   d 8 00 AA B0 2E FF FF FF FF
   14.200000 1  0CF00300x       Rx   d 8 00 69 2D FF FF FF FF FF
   14.200000 1  18FEF100x       Rx   d 8 FF 2C 69 00 00 00 FF FF
   14.200000 1  18FEF200x       Rx   d 8 A1 02 FF FF FF FF FF FF
   14.300000 1  0CF00400x       Rx   d 8 00 B3 C6 2E FF FF FF FF
   14.300000 1  0CF00300x       Rx   d 8 00 6B 36 FF FF FF FF FF
   14.300000 1  18FEF100x       Rx   d 8 FF 30 69 00 00 00 FF FF
   14.300000 1  18FEF200x       Rx   d 8 CB 02 FF FF FF FF FF FF
   14.400000 1  0CF00400x       Rx   d 8 00 B1 CA 2E FF FF FF FF
   14.400000 1  0CF00300x       Rx   d 8 00 67 34 FF FF FF FF FF
   14.400000 1  18FEF100x       Rx   d 8 FF 14 69 00 00 00 FF FF
   14.400000 1  18FEF200x       Rx   d 8 5B 02 FF FF FF FF FF FF
   14.500000 1  0CF00400x       Rx   d 8 00 B4 BD 2E FF FF FF FF
   14.500000 1  0CF00300x       Rx   d 8 00 61 37 FF FF FF FF FF
   14.500000 1  18FEF100x       Rx   d 8 FF 22 69 00 00 00 FF FF
   14.500000 1  18FEF200x       Rx   d 8 99 02 FF FF FF FF FF FF
   14.500000 1  18FEF600x       Rx   d 8 FF 56 52 FF FF FF FF FF
   14.500000 1  18FEEF00x       Rx   d 8 FF FF FF 61 FF FF FF FF
   14.600000 1  0CF00400x       Rx   d 8 00 B7 C0 2E FF FF FF FF
   14.600000 1  0CF00300x       Rx   d 8 00 5B 3A FF FF FF FF FF
   14.600000 1  18FEF100x       Rx   d 8 FF 12 69 00 00 00 FF FF
   14.600000 1  18FEF200x       Rx   d 8 D2 02 FF FF FF FF FF FF
   14.700000 1  0CF00400x       Rx   d 8 00 B8 B7 2E FF FF FF FF
   14.700000 1  0CF00300x       Rx   d 8 00 5D 3B FF FF FF FF FF
   14.700000 1  18FEF100x       Rx   d 8 FF 15 69 00 00 00 FF FF
   14.700000 1  18FEF200x       Rx   d 8 12 03 FF FF FF FF FF FF
   14.800000 1  0CF00400x       Rx   d 8 00 AC B0 2E FF FF FF FF
   14.800000 1  0CF00300x       Rx   d 8 00 68 2F FF FF FF FF FF
   14.800000 1  18FEF100x       Rx   d 8 FF F7 68 00 00 00 FF FF
   14.800000 1  18FEF200x       Rx   d 8 E6 02 FF FF FF FF FF FF
   14.900000 1  0CF00400x       Rx   d 8 00 A9 B0 2E FF FF FF FF
   14.900000 1  0CF00300x       Rx   d 8 00 63 2C FF FF FF FF FF
   14.900000 1  18FEF100x       Rx   d 8 FF E5 68 00 00 00 FF FF
   14.900000 1  18FEF200x       Rx   d 8 88 02 FF FF FF FF FF FF
   15.000000 1  0CF00400x       Rx   d 8 00 AD B4 2E FF FF FF FF
   15.000000 1  0CF00300x       Rx   d 8 00 58 30 FF FF FF FF FF
   15.000000 1  18FEF100x       Rx   d 8 FF F1 68 00 00 00 FF FF
   15.000000 1  18FEF200x       Rx   d 8 A9 02 FF FF FF FF FF FF
   15.000000 1  18FEF600x       Rx   d 8 FF 5A 52 FF FF FF FF FF
   15.000000 1  18FEEF00x       Rx   d 8 FF FF FF 68 FF FF FF FF
   15.000000 1  18FEEE00x       Rx   d 9 80 3C B3 2D FF FF FF 00 FF
   15.000000 1  18FEF700x       Rx   d 8 FF FF FF FF FF FF 1F 01
   15.000000 1  18FEF803x       Rx   d 8 FF FF FF FF 76 2C FF FF
   15.000000 1  18FEFC00x       Rx   d 8 FF F9 FF FF FF FF FF FF
   15.000000 1  18FEF500x       Rx   d 9 CA FF FF A0 24 FF FF FF FF
   15.000000 1  18F00503x       Rx   d 8 87 FF FF 87 FF FF FF FF
   15.100000 1  0CF00400x       Rx   d 8 00 B8 C5 2E FF FF FF FF
   15.100000 1  0CF00300x       Rx   d 8 00 5C 3B FF FF FF FF FF
   15.100000 1  18FEF100x       Rx   d 8 FF F0 68 00 00 00 FF FF
   15.100000 1  18FEF200x       Rx   d 8 E8 02 FF FF FF FF FF FF
   15.200000 1  0CF00400x       Rx   d 8 00 A8 D7 2E FF FF FF FF
   15.200000 1  0CF00300x       Rx   d 8 00 6D 2B FF FF FF FF FF
   15.200000 1  18FEF100x       Rx   d 8 FF D8 68 00 00 00 FF FF
   15.200000 1  18FEF200x       Rx   d 8 11 03 FF FF FF FF FF FF
   15.300000 1  0CF00400x       Rx   d 8 00 B8 C4 2E FF FF FF FF
   15.300000 1  0CF00300x       Rx   d 8 00 5A 3B FF FF FF FF FF
   15.300000 1  18FEF100x       Rx   d 8 FF DF 68 00 00 00 FF FF
   15.300000 1  18FEF200x       Rx   d 8 B5 02 FF FF FF FF FF FF
   15.400000 1  0CF00400x       Rx   d 8 00 AA B6 2E FF FF FF FF
   15.400000 1  0CF00300x       Rx   d 8 00 62 2D FF FF FF FF FF
   15.400000 1  18FEF100x       Rx   d 8 FF C7 68 00 00 00 FF FF
   15.400000 1  18FEF200x       Rx   d 8 03 03 FF FF FF FF FF FF
   15.500000 1  0CF00400x       Rx   d 8 00 B2 C5 2E FF FF FF FF
   15.500000 1  0CF00300x       Rx   d 8 00 59 35 FF FF FF FF FF
   15.500000 1  18FEF100x       Rx   d 8 FF CB 68 00 00 00 FF FF
   15.500000 1  18FEF200x       Rx   d 8 EE 02 FF FF FF FF FF FF
   15.500000 1  18FEF600x       Rx   d 8 FF 57 53 FF FF FF FF FF
   15.500000 1  18FEEF00x       Rx   d 8 FF FF FF 61 FF FF FF FF
   15.600000 1  0CF00400x       Rx   d 8 00 B2 BE 2E FF FF FF FF
   15.600000 1  0CF00300x       Rx   d 8 00 57 35 FF FF FF FF FF
   15.600000 1  18FEF100x       Rx   d 8 FF DE 68 00 00 00 FF FF
   15.600000 1  18FEF200x       Rx   d 8 0B 03 FF FF FF FF FF FF
   15.700000 1  0CF00400x       Rx   d 8 00 AA B9 2E FF FF FF FF
   15.700000 1  0CF00300x       Rx   d 8 00 6E 2D FF FF FF FF FF
   15.700000 1  18FEF100x       Rx   d 8 FF C3 68 00 00 00 FF FF
   15.700000 1  18FEF200x       Rx   d 8 AB 02 FF FF FF FF FF FF
   15.800000 1  0CF00400x       Rx   d 8 00 A9 B9 2E FF FF FF FF
   15.800000 1  0CF00300x       Rx   d 8 00 68 2C FF FF FF FF FF
   15.800000 1  18FEF100x       Rx   d 8 FF C9 68 00 00 00 FF FF
   15.800000 1  18FEF200x       Rx   d 8 67 02 FF FF FF FF FF FF
   15.900000 1  0CF00400x       Rx   d 8 00 B0 AA 2E FF FF FF FF
   15.900000 1  0CF00300x       Rx   d 8 00 64 33 FF FF FF FF FF
   15.900000 1  18FEF100x       Rx   d 8 FF CF 68 00 00 00 FF FF
   15.900000 1  18FEF200x       Rx   d 8 6A 02 FF FF FF FF FF FF
   16.000000 1  0CF00400x       Rx   d 8 00 AE B9 2E FF FF FF FF
   16.000000 1  0CF00300x       Rx   d 8 00 64 31 FF FF FF FF FF
   16.000000 1  18FEF100x       Rx   d 8 FF CE 68 00 00 00 FF FF
   16.000000 1  18FEF200x       Rx   d 8 ED 02 FF FF FF FF FF FF
   16.000000 1  18FEF600x       Rx   d 8 FF 58 56 FF FF FF FF FF
   16.000000 1  18FEEF00x       Rx   d 8 FF FF FF 67 FF FF FF FF
   16.000000 1  18FEEE00x       Rx   d 9 7E 3C F8 2D FF FF FF 00 FF
   16.000000 1  18FEF700x       Rx   d 8 FF FF FF FF FF FF 1C 01
   16.000000 1  18FEF803x       Rx   d 8 FF FF FF FF 82 2C FF FF
   16.000000 1  18FEFC00x       Rx   d 8 FF F9 FF FF FF FF FF FF
   16.000000 1  18FEF500x       Rx   d 9 CA FF FF A0 24 FF FF FF FF
   16.000000 1  18F00503x       Rx   d 8 87 FF FF 87 FF FF FF FF
   16.100000 1  0CF00400x       Rx   d 8 00 B8 A8 2E FF FF FF FF
   16.100000 1  0CF00300x       Rx   d 8 00 59 3B FF FF FF FF FF
   16.100000 1  18FEF100x       Rx   d 8 FF C4 68 00 00 00 FF FF
   16.100000 1  18FEF200x       Rx   d 8 F1 02 FF FF FF FF FF FF
   16.200000 1  0CF00400x       Rx   d 8 00 AC B1 2E FF FF FF FF
   16.200000 1  0CF00300x       Rx   d 8 00 70 2F FF FF FF FF FF
   16.200000 1  18FEF100x       Rx   d 8 FF C1 68 00 00 00 FF FF
   16.200000 1  18FEF200x       Rx   d 8 DA 02 FF FF FF FF FF FF
   16.300000 1  0CF00400x       Rx   d 8 00 B3 A7 2E FF FF FF FF
   16.300000 1  0CF00300x       Rx   d 8 00 64 36 FF FF FF FF FF
   16.300000 1  18FEF100x       Rx   d 8 FF C7 68 00 00 00 FF FF
   16.300000 1  18FEF200x       Rx   d 8 C2 02 FF FF FF FF FF FF
   16.400000 1  0CF00400x       Rx   d 8 00 B7 9F 2E FF FF FF FF
   16.400000 1  0CF00300x       Rx   d 8 00 5E 3A FF FF FF FF FF
   16.400000 1  18FEF100x       Rx   d 8 FF BE 68 00 00 00 FF FF
   16.400000 1  18FEF200x       Rx   d 8 5B 02 FF FF FF FF FF FF
   16.500000 1  0CF00400x       Rx   d 8 00 B3 93 2E FF FF FF FF
   16.500000 1  0CF00300x       Rx   d 8 00 66 36 FF FF FF FF FF
   16.500000 1  18FEF100x       Rx   d 8 FF 9E 68 00 00 00 FF FF
   16.500000 1  18FEF200x       Rx   d 8 63 02 FF FF FF FF FF FF
   16.500000 1  18FEF600x       Rx   d 8 FF 57 53 FF FF FF FF FF
   16.500000 1  18FEEF00x       Rx   d 8 FF FF FF 67 FF FF FF FF
   16.600000 1  0CF00400x       Rx   d 8 00 AB 8E 2E FF FF FF FF
   16.600000 1  0CF00300x       Rx   d 8 00 69 2E FF FF FF FF FF
   16.600000 1  18FEF100x       Rx   d 8 FF BB 68 00 00 00 FF FF
   16.600000 1  18FEF200x       Rx   d 8 84 02 FF FF FF FF FF FF
   16.700000 1  0CF00400x       Rx   d 8 00 B7 80 2E FF FF FF FF
   16.700000 1  0CF00300x       Rx   d 8 00 6D 3A FF FF FF FF FF
   16.700000 1  18FEF100x       Rx   d 8 FF E1 68 00 00 00 FF FF
   16.700000 1  18FEF200x       Rx   d 8 F5 02 FF FF FF FF FF FF
   16.800000 1  0CF00400x       Rx   d 8 00 B4 82 2E FF FF FF FF
   16.800000 1  0CF00300x       Rx   d 8 00 60 37 FF FF FF FF FF
   16.800000 1  18FEF100x       Rx   d 8 FF C7 68 00 00 00 FF FF
   16.800000 1  18FEF200x       Rx   d 8 C8 02 FF FF FF FF FF FF
   16.900000 1  0CF00400x       Rx   d 8 00 A9 89 2E FF FF FF FF
   16.900000 1  0CF00300x       Rx   d 8 00 5D 2C FF FF FF FF FF
   16.900000 1  18FEF100x       Rx   d 8 FF AE 68 00 00 00 FF FF
   16.900000 1  18FEF200x       Rx   d 8 8D 02 FF FF FF FF FF FF
   17.000000 1  0CF00400x       Rx   d 8 00 B4 91 2E FF FF FF FF
   17.000000 1  0CF00300x       Rx   d 8 00 5C 37 FF FF FF FF FF
   17.000000 1  18FEF100x       Rx   d 8 FF CF 68 00 00 00 FF FF
   17.000000 1  18FEF200x       Rx   d 8 5B 02 FF FF FF FF FF FF
   17.000000 1  18FEF600x       Rx   d 8 FF 58 57 FF FF FF FF FF
   17.000000 1  18FEEF00x       Rx   d 8 FF FF FF 68 FF FF FF FF
   17.000000 1  18FEEE00x       Rx   d 9 80 3C 0B 2E FF FF FF 00 FF
   17.000000 1  18FEF700x       Rx   d 8 FF FF FF FF FF FF 1F 01
   17.000000 1  18FEF803x       Rx   d 8 FF FF FF FF 19 2C FF FF
   17.000000 1  18FEFC00x       Rx   d 8 FF F9 FF FF FF FF FF FF
   17.000000 1  18FEF500x       Rx   d 9 CA FF FF A0 24 FF FF FF FF
   17.000000 1  18F00503x       Rx   d 8 87 FF FF 87 FF FF FF FF
   17.100000 1  0CF00400x       Rx   d 8 00 AE A8 2E FF FF FF FF
   17.100000 1  0CF00300x       Rx   d 8 00 70 31 FF FF FF FF FF
   17.100000 1  18FEF100x       Rx   d 8 FF B4 68 00 00 00 FF FF
   17.100000 1  18FEF200x       Rx   d 8 A4 02 FF FF FF FF FF FF
   17.200000 1  0CF00400x       Rx   d 8 00 AE A5 2E FF FF FF FF
   17.200000 1  0CF00300x       Rx   d 8 00 64 31 FF FF FF FF FF
   17.200000 1  18FEF100x       Rx   d 8 FF A5 68 00 00 00 FF FF
   17.200000 1  18FEF200x       Rx   d 8 AA 02 FF FF FF FF FF FF
   17.300000 1  0CF00400x       Rx   d 8 00 B7 9D 2E FF FF FF FF
   17.300000 1  0CF00300x       Rx   d 8 00 5E 3A FF FF FF FF FF
   17.300000 1  18FEF100x       Rx   d 8 FF 8F 68 00 00 00 FF FF
   17.300000 1  18FEF200x       Rx   d 8 BB 02 FF FF FF FF FF FF
   17.400000 1  0CF00400x       Rx   d 8 00 B8 A7 2E FF FF FF FF
   17.400000 1  0CF00300x       Rx   d 8 00 6C 3B FF FF FF FF FF
   17.400000 1  18FEF100x       Rx   d 8 FF 82 68 00 00 00 FF FF
   17.400000 1  18FEF200x       Rx   d 8 B9 02 FF FF FF FF FF FF
   17.500000 1  0CF00400x       Rx   d 8 00 A5 AC 2E FF FF FF FF
   17.500000 1  0CF00300x       Rx   d 8 00 58 28 FF FF FF FF FF
   17.500000 1  18FEF100x       Rx   d 8 FF 93 68 00 00 00 FF FF
   17.500000 1  18FEF200x       Rx   d 8 86 02 FF FF FF FF FF FF
   17.500000 1  18FEF600x       Rx   d 8 FF 59 56 FF FF FF FF FF
   17.500000 1  18FEEF00x       Rx   d 8 FF FF FF 67 FF FF FF FF
   17.600000 1  0CF00400x       Rx   d 8 00 B1 9B 2E FF FF FF FF
   17.600000 1  0CF00300x       Rx   d 8 00 60 34 FF FF FF FF FF
   17.600000 1  18FEF100x       Rx   d 8 FF 99 68 00 00 00 FF FF
   17.600000 1  18FEF200x       Rx   d 8 5A 02 FF FF FF FF FF FF
   17.700000 1  0CF00400x       Rx   d 8 00 B5 95 2E FF FF FF FF
   17.700000 1  0CF00300x       Rx   d 8 00 57 38 FF FF FF FF FF
   17.700000 1  18FEF100x       Rx   d 8 FF C3 68 00 00 00 FF FF
   17.700000 1  18FEF200x       Rx   d 8 7E 02 FF FF FF FF FF FF
   17.800000 1  0CF00400x       Rx   d 8 00 AC A6 2E FF FF FF FF
   17.800000 1  0CF00300x       Rx   d 8 00 61 2F FF FF FF FF FF
   17.800000 1  18FEF100x       Rx   d 8 FF B4 68 00 00 00 FF FF
   17.800000 1  18FEF200x       Rx   d 8 DA 02 FF FF FF FF FF FF
   17.900000 1  0CF00400x       Rx   d 8 00 B0 B3 2E FF FF FF FF
   17.900000 1  0CF00300x       Rx   d 8 00 60 33 FF FF FF FF FF
   17.900000 1  18FEF100x       Rx   d 8 FF 98 68 00 00 00 FF FF
   17.900000 1  18FEF200x       Rx   d 8 C9 02 FF FF FF FF FF FF
   18.000000 1  0CF00400x       Rx   d 8 00 A9 A5 2E FF FF FF FF
   18.000000 1  0CF00300x       Rx   d 8 00 58 2C FF FF FF FF FF
   18.000000 1  18FEF100x       Rx   d 8 FF A0 68 00 00 00 FF FF
   18.000000 1  18FEF200x       Rx   d 8 0B 03 FF FF FF FF FF FF
   18.000000 1  18FEF600x       Rx   d 8 FF 55 52 FF FF FF FF FF
   18.000000 1  18FEEF00x       Rx   d 8 FF FF FF 68 FF FF FF FF
   18.000000 1  18FEEE00x       Rx   d 9 81 3C 4A 2E FF FF FF 00 FF
   18.000000 1  18FEF700x       Rx   d 8 FF FF FF FF FF FF 1C 01
   18.000000 1  18FEF803x       Rx   d 8 FF FF FF FF 18 2C FF FF
   18.000000 1  18FEFC00x       Rx   d 8 FF F9 FF FF FF FF FF FF
   18.000000 1  18FEF500x       Rx   d 9 CA FF FF A0 24 FF FF FF FF
   18.000000 1  18F00503x       Rx   d 8 87 FF FF 87 FF FF FF FF
   18.100000 1  0CF00400x       Rx   d 8 00 B8 95 2E FF FF FF FF
   18.100000 1  0CF00300x       Rx   d 8 00 5F 3B FF FF FF FF FF
   18.100000 1  18FEF100x       Rx   d 8 FF C5 68 00 00 00 FF FF
   18.100000 1  18FEF200x       Rx   d 8 88 02 FF FF FF FF FF FF
   18.200000 1  0CF00400x       Rx   d 8 00 B4 94 2E FF FF FF FF
   18.200000 1  0CF00300x       Rx   d 8 00 5F 37 FF FF FF FF FF
   18.200000 1  18FEF100x       Rx   d 8 FF E7 68 00 00 00 FF FF
   18.200000 1  18FEF200x       Rx   d 8 AF 02 FF FF FF FF FF FF
   18.300000 1  0CF00400x       Rx   d 8 00 AC 92 2E FF FF FF FF
   18.300000 1  0CF00300x       Rx   d 8 00 6F 2F FF FF FF FF FF
   18.300000 1  18FEF100x       Rx   d 8 FF FD 68 00 00 00 FF FF
   18.300000 1  18FEF200x       Rx   d 8 14 03 FF FF FF FF FF FF
   18.400000 1  0CF00400x       Rx   d 8 00 B1 9D 2E FF FF FF FF
   18.400000 1  0CF00300x       Rx   d 8 00 59 34 FF FF FF FF FF
   18.400000 1  18FEF100x       Rx   d 8 FF 09 69 00 00 00 FF FF
   18.400000 1  18FEF200x       Rx   d 8 EB 02 FF FF FF FF FF FF
   18.500000 1  0CF00400x       Rx   d 8 00 AC 90 2E FF FF FF FF
   18.500000 1  0CF00300x       Rx   d 8 00 5F 2F FF FF FF FF FF
   18.500000 1  18FEF100x       Rx   d 8 FF E3 68 00 00 00 FF FF
   18.500000 1  18FEF200x       Rx   d 8 5D 02 FF FF FF FF FF FF
   18.500000 1  18FEF600x       Rx   d 8 FF 5A 54 FF FF FF FF FF
   18.500000 1  18FEEF00x       Rx   d 8 FF FF FF 63 FF FF FF FF
   18.600000 1  0CF00400x       Rx   d 8 00 AC 84 2E FF FF FF FF
   18.600000 1  0CF00300x       Rx   d 8 00 5F 2F FF FF FF FF FF
   18.600000 1  18FEF100x       Rx   d 8 FF EC 68 00 00 00 FF FF
   18.600000 1  18FEF200x       Rx   d 8 CA 02 FF FF FF FF FF FF
   18.700000 1  0CF00400x       Rx   d 8 00 AE 84 2E FF FF FF FF
   18.700000 1  0CF00300x       Rx   d 8 00 5F 31 FF FF FF FF FF
   18.700000 1  18FEF100x       Rx   d 8 FF D1 68 00 00 00 FF FF
   18.700000 1  18FEF200x       Rx   d 8 89 02 FF FF FF FF FF FF
   18.800000 1  0CF00400x       Rx   d 8 00 AB 8C 2E FF FF FF FF
   18.800000 1  0CF00300x       Rx   d 8 00 5A 2E FF FF FF FF FF
   18.800000 1  18FEF100x       Rx   d 8 FF BC 68 00 00 00 FF FF
   18.800000 1  18FEF200x       Rx   d 8 FB 02 FF FF FF FF FF FF
   18.900000 1  0CF00400x       Rx   d 8 00 B7 A3 2E FF FF FF FF
   18.900000 1  0CF00300x       Rx   d 8 00 5F 3A FF FF FF FF FF
   18.900000 1  18FEF100x       Rx   d 8 FF A3 68 00 00 00 FF FF
   18.900000 1  18FEF200x       Rx   d 8 BA 02 FF FF FF FF FF FF
   19.000000 1  0CF00400x       Rx   d 8 00 AC 9C 2E FF FF FF FF
   19.000000 1  0CF00300x       Rx   d 8 00 6B 2F FF FF FF FF FF
   19.000000 1  18FEF100x       Rx   d 8 FF 9E 68 00 00 00 FF FF
   19.000000 1  18FEF200x       Rx   d 8 16 03 FF FF FF FF FF FF
   19.000000 1  18FEF600x       Rx   d 8 FF 5B 55 FF FF FF FF FF
   19.000000 1  18FEEF00x       Rx   d 8 FF FF FF 64 FF FF FF FF
   19.000000 1  18FEEE00x       Rx   d 9 7E 3C 0C 2E FF FF FF 00 FF
   19.000000 1  18FEF700x       Rx   d 8 FF FF FF FF FF FF 1B 01
   19.000000 1  18FEF803x       Rx   d 8 FF FF FF FF 3D 2C FF FF
   19.000000 1  18FEFC00x       Rx   d 8 FF F9 FF FF FF FF FF FF
   19.000000 1  18FEF500x       Rx   d 9 CA FF FF A0 24 FF FF FF FF
   19.000000 1  18F00503x       Rx   d 8 87 FF FF 87 FF FF FF FF
   19.100000 1  0CF00400x       Rx   d 8 00 B2 A8 2E FF FF FF FF
   19.100000 1  0CF00300x       Rx   d 8 00 5E 35 FF FF FF FF FF
   19.100000 1  18FEF100x       Rx   d 8 FF 9E 68 00 00 00 FF FF
   19.100000 1  18FEF200x       Rx   d 8 DB 02 FF FF FF FF FF FF
   19.200000 1  0CF00400x       Rx   d 8 00 AE B6 2E FF FF FF FF
   19.200000 1  0CF00300x       Rx   d 8 00 70 31 FF FF FF FF FF
   19.200000 1  18FEF100x       Rx   d 8 FF 83 68 00 00 00 FF FF
   19.200000 1  18FEF200x       Rx   d 8 9F 02 FF FF FF FF FF FF
   19.300000 1  0CF00400x       Rx   d 8 00 B4 BA 2E FF FF FF FF
   19.300000 1  0CF00300x       Rx   d 8 00 59 37 FF FF FF FF FF
   19.300000 1  18FEF100x       Rx   d 8 FF 93 68 00 00 00 FF FF
   19.300000 1  18FEF200x       Rx   d 8 A7 02 FF FF FF FF FF FF
   19.400000 1  0CF00400x       Rx   d 8 00 AA CE 2E FF FF FF FF
   19.400000 1  0CF00300x       Rx   d 8 00 57 2D FF FF FF FF FF
   19.400000 1  18FEF100x       Rx   d 8 FF 93 68 00 00 00 FF FF
   19.400000 1  18FEF200x       Rx   d 8 F2 02 FF FF FF FF FF FF
   19.500000 1  0CF00400x       Rx   d 8 00 A7 CF 2E FF FF FF FF
   19.500000 1  0CF00300x       Rx   d 8 00 58 2A FF FF FF FF FF
   19.500000 1  18FEF100x       Rx   d 8 FF 8D 68 00 00 00 FF FF
   19.500000 1  18FEF200x       Rx   d 8 B3 02 FF FF FF FF FF FF
   19.500000 1  18FEF600x       Rx   d 8 FF 56 57 FF FF FF FF FF
   19.500000 1  18FEEF00x       Rx   d 8 FF FF FF 62 FF FF FF FF
   19.600000 1  0CF00400x       Rx   d 8 00 B2 CF 2E FF FF FF FF
   19.600000 1  0CF00300x       Rx   d 8 00 62 35 FF FF FF FF FF
   19.600000 1  18FEF100x       Rx   d 8 FF 91 68 00 00 00 FF FF
   19.600000 1  18FEF200x       Rx   d 8 DF 02 FF FF FF FF FF FF
   19.700000 1  0CF00400x       Rx   d 8 00 A8 E3 2E FF FF FF FF
   19.700000 1  0CF00300x       Rx   d 8 00 5B 2B FF FF FF FF FF
   19.700000 1  18FEF100x       Rx   d 8 FF 83 68 00 00 00 FF FF
   19.700000 1  18FEF200x       Rx   d 8 AE 02 FF FF FF FF FF FF
   19.800000 1  0CF00400x       Rx   d 8 00 AC E8 2E FF FF FF FF
   19.800000 1  0CF00300x       Rx   d 8 00 66 2F FF FF FF FF FF
   19.800000 1  18FEF100x       Rx   d 8 FF 72 68 00 00 00 FF FF
   19.800000 1  18FEF200x       Rx   d 8 06 03 FF FF FF FF FF FF
   19.900000 1  0CF00400x       Rx   d 8 00 B6 E0 2E FF FF FF FF
   19.900000 1  0CF00300x       Rx   d 8 00 5E 39 FF FF FF FF FF
   19.900000 1  18FEF100x       Rx   d 8 FF 76 68 00 00 00 FF FF
   19.900000 1  18FEF200x       Rx   d 8 01 03 FF FF FF FF FF FF
   20.000000 1  0CF00400x       Rx   d 8 00 B1 ED 2E FF FF FF FF
   20.000000 1  0CF00300x       Rx   d 8 00 5E 34 FF FF FF FF FF
   20.000000 1  18FEF100x       Rx   d 8 FF 8C 68 00 00 00 FF FF
   20.000000 1  18FEF200x       Rx   d 8 BE 02 FF FF FF FF FF FF
   20.000000 1  18FEF600x       Rx   d 8 FF 56 53 FF FF FF FF FF
   20.000000 1  18FEEF00x       Rx   d 8 FF FF FF 65 FF FF FF FF
   20.000000 1  18FEEE00x       Rx   d 9 7E 3C B9 2D FF FF FF 00 FF
   20.000000 1  18FEF700x       Rx   d 8 FF FF FF FF FF FF 1B 01
   20.000000 1  18FEF803x       Rx   d 8 FF FF FF FF A5 2B FF FF
   20.000000 1  18FEFC00x       Rx   d 8 FF F9 FF FF FF FF FF FF
   20.000000 1  18FEF500x       Rx   d 9 CA FF FF A0 24 FF FF FF FF
   20.000000 1  18F00503x       Rx   d 8 87 FF FF 87 FF FF FF FF
   20.000000 1  18FEE500x       Rx   d 8 40 0D 03 00 FF FF FF FF
   20.100000 1  0CF00400x       Rx   d 8 00 B1 DE 2E FF FF FF FF
   20.100000 1  0CF00300x       Rx   d 8 00 5C 34 FF FF FF FF FF
   20.100000 1  18FEF100x       Rx   d 8 FF 89 68 00 00 00 FF FF
   20.100000 1  18FEF200x       Rx   d 8 96 02 FF FF FF FF FF FF
   20.200000 1  0CF00400x       Rx   d 8 00 A7 CC 2E FF FF FF FF
   20.200000 1  0CF00300x       Rx   d 8 00 57 2A FF FF FF FF FF
   20.200000 1  18FEF100x       Rx   d 8 FF 84 68 00 00 00 FF FF
   20.200000 1  18FEF200x       Rx   d 8 FF 02 FF FF FF FF FF FF
   20.300000 1  0CF00400x       Rx   d 8 00 AA BC 2E FF FF FF FF
   20.300000 1  0CF00300x       Rx   d 8 00 6A 2D FF FF FF FF FF
   20.300000 1  18FEF100x       Rx   d 8 FF 66 68 00 00 00 FF FF
   20.300000 1  18FEF200x       Rx   d 8 C5 02 FF FF FF FF FF FF
   20.400000 1  0CF00400x       Rx   d 8 00 AC AF 2E FF FF FF FF
   20.400000 1  0CF00300x       Rx   d 8 00 6C 2F FF FF FF FF FF
   20.400000 1  18FEF100x       Rx   d 8 FF 83 68 00 00 00 FF FF
   20.400000 1  18FEF200x       Rx   d 8 FE 02 FF FF FF FF FF FF
   20.500000 1  0CF00400x       Rx   d 8 00 AB A9 2E FF FF FF FF
   20.500000 1  0CF00300x       Rx   d 8 00 62 2E FF FF FF FF FF
   20.500000 1  18FEF100x       Rx   d 8 FF B0 68 00 00 00 FF FF
   20.500000 1  18FEF200x       Rx   d 8 CD 02 FF FF FF FF FF FF
   20.500000 1  18FEF600x       Rx   d 8 FF 57 56 FF FF FF FF FF
   20.500000 1  18FEEF00x       Rx   d 8 FF FF FF 67 FF FF FF FF
   20.600000 1  0CF00400x       Rx   d 8 00 A7 B4 2E FF FF FF FF
   20.600000 1  0CF00300x       Rx   d 8 00 5B 2A FF FF FF FF FF
   20.600000 1  18FEF100x       Rx   d 8 FF BE 68 00 00 00 FF FF
   20.600000 1  18FEF200x       Rx   d 8 98 02 FF FF FF FF FF FF
   20.700000 1  0CF00400x       Rx   d 8 00 B8 AE 2E FF FF FF FF
   20.700000 1  0CF00300x       Rx   d 8 00 6C 3B FF FF FF FF FF
   20.700000 1  18FEF100x       Rx   d 8 FF AF 68 00 00 00 FF FF
   20.700000 1  18FEF200x       Rx   d 8 05 03 FF FF FF FF FF FF
   20.800000 1  0CF00400x       Rx   d 8 00 B5 BF 2E FF FF FF FF
   20.800000 1  0CF00300x       Rx   d 8 00 69 38 FF FF FF FF FF
   20.800000 1  18FEF100x       Rx   d 8 FF A0 68 00 00 00 FF FF
   20.800000 1  18FEF200x       Rx   d 8 B2 02 FF FF FF FF FF FF
   20.900000 1  0CF00400x       Rx   d 8 00 AA D0 2E FF FF FF FF
   20.900000 1  0CF00300x       Rx   d 8 00 64 2D FF FF FF FF FF
   20.900000 1  18FEF100x       Rx   d 8 FF 86 68 00 00 00 FF FF
   20.900000 1  18FEF200x       Rx   d 8 EA 02 FF FF FF FF FF FF
   21.000000 1  0CF00400x       Rx   d 8 00 A6 CF 2E FF FF FF FF
   21.000000 1  0CF00300x       Rx   d 8 00 60 29 FF FF FF FF FF
   21.000000 1  18FEF100x       Rx   d 8 FF 98 68 00 00 00 FF FF
   21.000000 1  18FEF200x       Rx   d 8 9B 02 FF FF FF FF FF FF
   21.000000 1  18FEF600x       Rx   d 8 FF 57 53 FF FF FF FF FF
   21.000000 1  18FEEF00x       Rx   d 8 FF FF FF 67 FF FF FF FF
   21.000000 1  18FEEE00x       Rx   d 9 80 3C C9 2D FF FF FF 00 FF
   21.000000 1  18FEF700x       Rx   d 8 FF FF FF FF FF FF 1C 01
   21.000000 1  18FEF803x       Rx   d 8 FF FF FF FF 09 2C FF FF
   21.000000 1  18FEFC00x       Rx   d 8 FF F9 FF FF FF FF FF FF
   21.000000 1  18FEF500x       Rx   d 9 CA FF FF A0 24 FF FF FF FF
   21.000000 1  18F00503x       Rx   d 8 87 FF FF 87 FF FF FF FF
   21.100000 1  0CF00400x       Rx   d 8 00 B2 D2 2E FF FF FF FF
   21.100000 1  0CF00300x       Rx   d 8 00 60 35 FF FF FF FF FF
   21.100000 1  18FEF100x       Rx   d 8 FF 9C 68 00 00 00 FF FF
   21.100000 1  18FEF200x       Rx   d 8 B0 02 FF FF FF FF FF FF
   21.200000 1  0CF00400x       Rx   d 8 00 A7 E5 2E FF FF FF FF
   21.200000 1  0CF00300x       Rx   d 8 00 68 2A FF FF FF FF FF
   21.200000 1  18FEF100x       Rx   d 8 FF 8A 68 00 00 00 FF FF
   21.200000 1  18FEF200x       Rx   d 8 A2 02 FF FF FF FF FF FF
   21.300000 1  0CF00400x       Rx   d 8 00 B2 D8 2E FF FF FF FF
   21.300000 1  0CF00300x       Rx   d 8 00 5F 35 FF FF FF FF FF
   21.300000 1  18FEF100x       Rx   d 8 FF 88 68 00 00 00 FF FF
   21.300000 1  18FEF200x       Rx   d 8 85 02 FF FF FF FF FF FF
   21.400000 1  0CF00400x       Rx   d 8 00 B8 C4 2E FF FF FF FF
   21.400000 1  0CF00300x       Rx   d 8 00 6B 3B FF FF FF FF FF
   21.400000 1  18FEF100x       Rx   d 8 FF 9D 68 00 00 00 FF FF
   21.400000 1  18FEF200x       Rx   d 8 96 02 FF FF FF FF FF FF
   21.500000 1  0CF00400x       Rx   d 8 00 A7 B7 2E FF FF FF FF
   21.500000 1  0CF00300x       Rx   d 8 00 6A 2A FF FF FF FF FF
   21.500000 1  18FEF100x       Rx   d 8 FF B7 68 00 00 00 FF FF
   21.500000 1  18FEF200x       Rx   d 8 E8 02 FF FF FF FF FF FF
   21.500000 1  18FEF600x       Rx   d 8 FF 5B 52 FF FF FF FF FF
   21.500000 1  18FEEF00x       Rx   d 8 FF FF FF 63 FF FF FF FF
   21.600000 1  0CF00400x       Rx   d 8 00 B6 AB 2E FF FF FF FF
   21.600000 1  0CF00300x       Rx   d 8 00 68 39 FF FF FF FF FF
   21.600000 1  18FEF100x       Rx   d 8 FF B4 68 00 00 00 FF FF
   21.600000 1  18FEF200x       Rx   d 8 96 02 FF FF FF FF FF FF
   21.700000 1  0CF00400x       Rx   d 8 00 B1 A5 2E FF FF FF FF
   21.700000 1  0CF00300x       Rx   d 8 00 65 34 FF FF FF FF FF
   21.700000 1  18FEF100x       Rx   d 8 FF 98 68 00 00 00 FF FF
   21.700000 1  18FEF200x       Rx   d 8 BF 02 FF FF FF FF FF FF
   21.800000 1  0CF00400x       Rx   d 8 00 B6 B2 2E FF FF FF FF
   21.800000 1  0CF00300x       Rx   d 8 00 58 39 FF FF FF FF FF
   21.800000 1  18FEF100x       Rx   d 8 FF 8D 68 00 00 00 FF FF
   21.800000 1  18FEF200x       Rx   d 8 1B 03 FF FF FF FF FF FF
   21.900000 1  0CF00400x       Rx   d 8 00 B0 C6 2E FF FF FF FF
   21.900000 1  0CF00300x       Rx   d 8 00 6D 33 FF FF FF FF FF
   21.900000 1  18FEF100x       Rx   d 8 FF 77 68 00 00 00 FF FF
   21.900000 1  18FEF200x       Rx   d 8 65 02 FF FF FF FF FF FF
   22.000000 1  0CF00400x       Rx   d 8 00 AF B4 2E FF FF FF FF
   22.000000 1  0CF00300x       Rx   d 8 00 6B 32 FF FF FF FF FF
   22.000000 1  18FEF100x       Rx   d 8 FF 5C 68 00 00 00 FF FF
   22.000000 1  18FEF200x       Rx   d 8 D3 02 FF FF FF FF FF FF
   22.000000 1  18FEF600x       Rx   d 8 FF 55 56 FF FF FF FF FF
   22.000000 1  18FEEF00x       Rx   d 8 FF FF FF 64 FF FF FF FF
   22.000000 1  18FEEE00x       Rx   d 9 80 3C 00 2E FF FF FF 00 FF
   22.000000 1  18FEF700x       Rx   d 8 FF FF FF FF FF FF 1A 01
   22.000000 1  18FEF803x       Rx   d 8 FF FF FF FF 04 2C FF FF
   22.000000 1  18FEFC00x       Rx   d 8 FF F9 FF FF FF FF FF FF
   22.000000 1  18FEF500x       Rx   d 9 CA FF FF A0 24 FF FF FF FF
   22.000000 1  18F00503x       Rx   d 8 87 FF FF 87 FF FF FF FF
   22.100000 1  0CF00400x       Rx   d 8 00 B5 AF 2E FF FF FF FF
   22.100000 1  0CF00300x       Rx   d 8 00 5C 38 FF FF FF FF FF
   22.100000 1  18FEF100x       Rx   d 8 FF 65 68 00 00 00 FF FF
   22.100000 1  18FEF200x       Rx   d 8 E3 02 FF FF FF FF FF FF
   22.200000 1  0CF00400x       Rx   d 8 00 AD BF 2E FF FF FF FF
   22.200000 1  0CF00300x       Rx   d 8 00 59 30 FF FF FF FF FF
   22.200000 1  18FEF100x       Rx   d 8 FF 4B 68 00 00 00 FF FF
   22.200000 1  18FEF200x       Rx   d 8 E5 02 FF FF FF FF FF FF
   22.300000 1  0CF00400x       Rx   d 8 00 B4 B3 2E FF FF FF FF
   22.300000 1  0CF00300x       Rx   d 8 00 64 37 FF FF FF FF FF
   22.300000 1  18FEF100x       Rx   d 8 FF 77 68 00 00 00 FF FF
   22.300000 1  18FEF200x       Rx   d 8 F2 02 FF FF FF FF FF FF
   22.400000 1  0CF00400x       Rx   d 8 00 B3 C2 2E FF FF FF FF
   22.400000 1  0CF00300x       Rx   d 8 00 59 36 FF FF FF FF FF
   22.400000 1  18FEF100x       Rx   d 8 FF 6C 68 00 00 00 FF FF
   22.400000 1  18FEF200x       Rx   d 8 A1 02 FF FF FF FF FF FF
   22.500000 1  0CF00400x       Rx   d 8 00 A9 B4 2E FF FF FF FF
   22.500000 1  0CF00300x       Rx   d 8 00 69 2C FF FF FF FF FF
   22.500000 1  18FEF100x       Rx   d 8 FF 79 68 00 00 00 FF FF
   22.500000 1  18FEF200x       Rx   d 8 76 02 FF FF FF FF FF FF
   22.500000 1  18FEF600x       Rx   d 8 FF 59 53 FF FF FF FF FF
   22.500000 1  18FEEF00x       Rx   d 8 FF FF FF 62 FF FF FF FF
   22.600000 1  0CF00400x       Rx   d 8 00 B3 C4 2E FF FF FF FF
   22.600000 1  0CF00300x       Rx   d 8 00 6E 36 FF FF FF FF FF
   22.600000 1  18FEF100x       Rx   d 8 FF 84 68 00 00 00 FF FF
   22.600000 1  18FEF200x       Rx   d 8 A2 02 FF FF FF FF FF FF
   22.700000 1  0CF00400x       Rx   d 8 00 B8 D5 2E FF FF FF FF
   22.700000 1  0CF00300x       Rx   d 8 00 6B 3B FF FF FF FF FF
   22.700000 1  18FEF100x       Rx   d 8 FF 71 68 00 00 00 FF FF
   22.700000 1  18FEF200x       Rx   d 8 C6 02 FF FF FF FF FF FF
   22.800000 1  0CF00400x       Rx   d 8 00 B1 CA 2E FF FF FF FF
   22.800000 1  0CF00300x       Rx   d 8 00 5F 34 FF FF FF FF FF
   22.800000 1  18FEF100x       Rx   d 8 FF 7D 68 00 00 00 FF FF
   22.800000 1  18FEF200x       Rx   d 8 F0 02 FF FF FF FF FF FF
   22.900000 1  0CF00400x       Rx   d 8 00 AB B7 2E FF FF FF FF
   22.900000 1  0CF00300x       Rx   d 8 00 5D 2E FF FF FF FF FF
   22.900000 1  18FEF100x       Rx   d 8 FF 7D 68 00 00 00 FF FF
   22.900000 1  18FEF200x       Rx   d 8 E9 02 FF FF FF FF FF FF
   23.000000 1  0CF00400x       Rx   d 8 00 A6 BB 2E FF FF FF FF
   23.000000 1  0CF00300x       Rx   d 8 00 63 29 FF FF FF FF FF
   23.000000 1  18FEF100x       Rx   d 8 FF 6F 68 00 00 00 FF FF
   23.000000 1  18FEF200x       Rx   d 8 E4 02 FF FF FF FF FF FF
   23.000000 1  18FEF600x       Rx   d 8 FF 5D 57 FF FF FF FF FF
   23.000000 1  18FEEF00x       Rx   d 8 FF FF FF 64 FF FF FF FF
   23.000000 1  18FEEE00x       Rx   d 9 81 3C 28 2E FF FF FF 00 FF
   23.000000 1  18FEF700x       Rx   d 8 FF FF FF FF FF FF 1A 01
   23.000000 1  18FEF803x       Rx   d 8 FF FF FF FF 9D 2B FF FF
   23.000000 1  18FEFC00x       Rx   d 8 FF F9 FF FF FF FF FF FF
   23.000000 1  18FEF500x       Rx   d 9 CA FF FF A0 24 FF FF FF FF
   23.000000 1  18F00503x       Rx   d 8 87 FF FF 87 FF FF FF FF
   23.100000 1  0CF00400x       Rx   d 8 00 A7 CF 2E FF FF FF FF
   23.100000 1  0CF00300x       Rx   d 8 00 59 2A FF FF FF FF FF
   23.100000 1  18FEF100x       Rx   d 8 FF 57 68 00 00 00 FF FF
   23.100000 1  18FEF200x       Rx   d 8 8C 02 FF FF FF FF FF FF
   23.200000 1  0CF00400x       Rx   d 8 00 AB DC 2E FF FF FF FF
   23.200000 1  0CF00300x       Rx   d 8 00 69 2E FF FF FF FF FF
   23.200000 1  18FEF100x       Rx   d 8 FF 6F 68 00 00 00 FF FF
   23.200000 1  18FEF200x       Rx   d 8 78 02 FF FF FF FF FF FF
   23.300000 1  0CF00400x       Rx   d 8 00 A9 D9 2E FF FF FF FF
   23.300000 1  0CF00300x       Rx   d 8 00 6F 2C FF FF FF FF FF
   23.300000 1  18FEF100x       Rx   d 8 FF 79 68 00 00 00 FF FF
   23.300000 1  18FEF200x       Rx   d 8 E3 02 FF FF FF FF FF FF
   23.400000 1  0CF00400x       Rx   d 8 00 A9 E6 2E FF FF FF FF
   23.400000 1  0CF00300x       Rx   d 8 00 59 2C FF FF FF FF FF
   23.400000 1  18FEF100x       Rx   d 8 FF 72 68 00 00 00 FF FF
   23.400000 1  18FEF200x       Rx   d 8 A8 02 FF FF FF FF FF FF
   23.500000 1  0CF00400x       Rx   d 8 00 B5 F0 2E FF FF FF FF
   23.500000 1  0CF00300x       Rx   d 8 00 63 38 FF FF FF FF FF
   23.500000 1  18FEF100x       Rx   d 8 FF 66 68 00 00 00 FF FF
   23.500000 1  18FEF200x       Rx   d 8 A2 02 FF FF FF FF FF FF
   23.500000 1  18FEF600x       Rx   d 8 FF 56 57 FF FF FF FF FF
   23.500000 1  18FEEF00x       Rx   d 8 FF FF FF 67 FF FF FF FF
   23.600000 1  0CF00400x       Rx   d 8 00 B5 F5 2E FF FF FF FF
   23.600000 1  0CF00300x       Rx   d 8 00 5D 38 FF FF FF FF FF
   23.600000 1  18FEF100x       Rx   d 8 FF 74 68 00 00 00 FF FF
   23.600000 1  18FEF200x       Rx   d 8 FD 02 FF FF FF FF FF FF
   23.700000 1  0CF00400x       Rx   d 8 00 B0 E2 2E FF FF FF FF
   23.700000 1  0CF00300x       Rx   d 8 00 5B 33 FF FF FF FF FF
   23.700000 1  18FEF100x       Rx   d 8 FF 78 68 00 00 00 FF FF
   23.700000 1  18FEF200x       Rx   d 8 7D 02 FF FF FF FF FF FF
   23.800000 1  0CF00400x       Rx   d 8 00 A9 F1 2E FF FF FF FF
   23.800000 1  0CF00300x       Rx   d 8 00 66 2C FF FF FF FF FF
   23.800000 1  18FEF100x       Rx   d 8 FF 5B 68 00 00 00 FF FF
   23.800000 1  18FEF200x       Rx   d 8 7F 02 FF FF FF FF FF FF
   23.900000 1  0CF00400x       Rx   d 8 00 B4 F1 2E FF FF FF FF
   23.900000 1  0CF00300x       Rx   d 8 00 6B 37 FF FF FF FF FF
   23.900000 1  18FEF100x       Rx   d 8 FF 6D 68 00 00 00 FF FF
   23.900000 1  18FEF200x       Rx   d 8 BC 02 FF FF FF FF FF FF
   24.000000 1  0CF00400x       Rx   d 8 00 B6 E3 2E FF FF FF FF
   24.000000 1  0CF00300x       Rx   d 8 00 5C 39 FF FF FF FF FF
   24.000000 1  18FEF100x       Rx   d 8 FF 67 68 00 00 00 FF FF
   24.000000 1  18FEF200x       Rx   d 8 1A 03 FF FF FF FF FF FF
   24.000000 1  18FEF600x       Rx   d 8 FF 5C 55 FF FF FF FF FF
   24.000000 1  18FEEF00x       Rx   d 8 FF FF FF 68 FF FF FF FF
   24.000000 1  18FEEE00x       Rx   d 9 81 3C AB 2D FF FF FF 00 FF
   24.000000 1  18FEF700x       Rx   d 8 FF FF FF FF FF FF 18 01
   24.000000 1  18FEF803x       Rx   d 8 FF FF FF FF BD 2C FF FF
   24.000000 1  18FEFC00x       Rx   d 8 FF F9 FF FF FF FF FF FF
   24.000000 1  18FEF500x       Rx   d 9 CA FF FF A0 24 FF FF FF FF
   24.000000 1  18F00503x       Rx   d 8 87 FF FF 87 FF FF FF FF
   24.100000 1  0CF00400x       Rx   d 8 00 B7 E9 2E FF FF FF FF
   24.100000 1  0CF00300x       Rx   d 8 00 6B 3A FF FF FF FF FF
   24.100000 1  18FEF100x       Rx   d 8 FF 5C 68 00 00 00 FF FF
   24.100000 1  18FEF200x       Rx   d 8 FF 02 FF FF FF FF FF FF
   24.200000 1  0CF00400x       Rx   d 8 00 B2 DC 2E FF FF FF FF
   24.200000 1  0CF00300x       Rx   d 8 00 6B 35 FF FF FF FF FF
   24.200000 1  18FEF100x       Rx   d 8 FF 6C 68 00 00 00 FF FF
   24.200000 1  18FEF200x       Rx   d 8 7D 02 FF FF FF FF FF FF
   24.300000 1  0CF00400x       Rx   d 8 00 AE EB 2E FF FF FF FF
   24.300000 1  0CF00300x       Rx   d 8 00 5F 31 FF FF FF FF FF
   24.300000 1  18FEF100x       Rx   d 8 FF 72 68 00 00 00 FF FF
   24.300000 1  18FEF200x       Rx   d 8 80 02 FF FF FF FF FF FF
   24.400000 1  0CF00400x       Rx   d 8 00 AB F3 2E FF FF FF FF
   24.400000 1  0CF00300x       Rx   d 8 00 6C 2E FF FF FF FF FF
   24.400000 1  18FEF100x       Rx   d 8 FF 9A 68 00 00 00 FF FF
   24.400000 1  18FEF200x       Rx   d 8 18 03 FF FF FF FF FF FF
   24.500000 1  0CF00400x       Rx   d 8 00 AB 04 2F FF FF FF FF
   24.500000 1  0CF00300x       Rx   d 8 00 5A 2E FF FF FF FF FF
   24.500000 1  18FEF100x       Rx   d 8 FF 97 68 00 00 00 FF FF
   24.500000 1  18FEF200x       Rx   d 8 7A 02 FF FF FF FF FF FF
   24.500000 1  18FEF600x       Rx   d 8 FF 5E 56 FF FF FF FF FF
   24.500000 1  18FEEF00x       Rx   d 8 FF FF FF 65 FF FF FF FF
   24.600000 1  0CF00400x       Rx   d 8 00 A9 0A 2F FF FF FF FF
   24.600000 1  0CF00300x       Rx   d 8 00 6B 2C FF FF FF FF FF
   24.600000 1  18FEF100x       Rx   d 8 FF BD 68 00 00 00 FF FF
   24.600000 1  18FEF200x       Rx   d 8 15 03 FF FF FF FF FF FF
   24.700000 1  0CF00400x       Rx   d 8 00 A5 04 2F FF FF FF FF
   24.700000 1  0CF00300x       Rx   d 8 00 6F 28 FF FF FF FF FF
   24.700000 1  18FEF100x       Rx   d 8 FF E6 68 00 00 00 FF FF
   24.700000 1  18FEF200x       Rx   d 8 74 02 FF FF FF FF FF FF
   24.800000 1  0CF00400x       Rx   d 8 00 B6 F7 2E FF FF FF FF
   24.800000 1  0CF00300x       Rx   d 8 00 5B 39 FF FF FF FF FF
   24.800000 1  18FEF100x       Rx   d 8 FF 0C 69 00 00 00 FF FF
   24.800000 1  18FEF200x       Rx   d 8 89 02 FF FF FF FF FF FF
   24.900000 1  0CF00400x       Rx   d 8 00 AC EC 2E FF FF FF FF
   24.900000 1  0CF00300x       Rx   d 8 00 57 2F FF FF FF FF FF
   24.900000 1  18FEF100x       Rx   d 8 FF EE 68 00 00 00 FF FF
   24.900000 1  18FEF200x       Rx   d 8 6C 02 FF FF FF FF FF FF
   25.000000 1  0CF00400x       Rx   d 8 00 A8 FA 2E FF FF FF FF
   25.000000 1  0CF00300x       Rx   d 8 00 68 2B FF FF FF FF FF
   25.000000 1  18FEF100x       Rx   d 8 FF FA 68 00 00 00 FF FF
   25.000000 1  18FEF200x       Rx   d 8 7A 02 FF FF FF FF FF FF
   25.000000 1  18FEF600x       Rx   d 8 FF 5E 53 FF FF FF FF FF
   25.000000 1  18FEEF00x       Rx   d 8 FF FF FF 5F FF FF FF FF
   25.000000 1  18FEEE00x       Rx   d 9 7E 3C 42 2E FF FF FF 00 FF
   25.000000 1  18FEF700x       Rx   d 8 FF FF FF FF FF FF 1B 01
   25.000000 1  18FEF803x       Rx   d 8 FF FF FF FF DE 2B FF FF
   25.000000 1  18FEFC00x       Rx   d 8 FF F9 FF FF FF FF FF FF
   25.000000 1  18FEF500x       Rx   d 9 CA FF FF A0 24 FF FF FF FF
   25.000000 1  18F00503x       Rx   d 8 87 FF FF 87 FF FF FF FF
   25.100000 1  0CF00400x       Rx   d 8 00 A6 02 2F FF FF FF FF
   25.100000 1  0CF00300x       Rx   d 8 00 6D 29 FF FF FF FF FF
   25.100000 1  18FEF100x       Rx   d 8 FF FE 68 00 00 00 FF FF
   25.100000 1  18FEF200x       Rx   d 8 09 03 FF FF FF FF FF FF
   25.200000 1  0CF00400x       Rx   d 8 00 B2 F1 2E FF FF FF FF
   25.200000 1  0CF00300x       Rx   d 8 00 5C 35 FF FF FF FF FF
   25.200000 1  18FEF100x       Rx   d 8 FF E8 68 00 00 00 FF FF
   25.200000 1  18FEF200x       Rx   d 8 CA 02 FF FF FF FF FF FF
   25.300000 1  0CF00400x       Rx   d 8 00 AA E2 2E FF FF FF FF
   25.300000 1  0CF00300x       Rx   d 8 00 62 2D FF FF FF FF FF
   25.300000 1  18FEF100x       Rx   d 8 FF DE 68 00 00 00 FF FF
   25.300000 1  18FEF200x       Rx   d 8 68 02 FF FF FF FF FF FF
   25.400000 1  0CF00400x       Rx   d 8 00 B2 DA 2E FF FF FF FF
   25.400000 1  0CF00300x       Rx   d 8 00 63 35 FF FF FF FF FF
   25.400000 1  18FEF100x       Rx   d 8 FF D8 68 00 00 00 FF FF
   25.400000 1  18FEF200x       Rx   d 8 8C 02 FF FF FF FF FF FF
   25.500000 1  0CF00400x       Rx   d 8 00 B4 CF 2E FF FF FF FF
   25.500000 1  0CF00300x       Rx   d 8 00 59 37 FF FF FF FF FF
   25.500000 1  18FEF100x       Rx   d 8 FF C8 68 00 00 00 FF FF
   25.500000 1  18FEF200x       Rx   d 8 C6 02 FF FF FF FF FF FF
   25.500000 1  18FEF600x       Rx   d 8 FF 5E 55 FF FF FF FF FF
   25.500000 1  18FEEF00x       Rx   d 8 FF FF FF 64 FF FF FF FF
   25.600000 1  0CF00400x       Rx   d 8 00 B6 DD 2E FF FF FF FF
   25.600000 1  0CF00300x       Rx   d 8 00 64 39 FF FF FF FF FF
   25.600000 1  18FEF100x       Rx   d 8 FF C5 68 00 00 00 FF FF
   25.600000 1  18FEF200x       Rx   d 8 BC 02 FF FF FF FF FF FF
   25.700000 1  0CF00400x       Rx   d 8 00 A7 E9 2E FF FF FF FF
   25.700000 1  0CF00300x       Rx   d 8 00 67 2A FF FF FF FF FF
   25.700000 1  18FEF100x       Rx   d 8 FF D5 68 00 00 00 FF FF
   25.700000 1  18FEF200x       Rx   d 8 AC 02 FF FF FF FF FF FF
   25.800000 1  0CF00400x       Rx   d 8 00 B5 E6 2E FF FF FF FF
   25.800000 1  0CF00300x       Rx   d 8 00 67 38 FF FF FF FF FF
   25.800000 1  18FEF100x       Rx   d 8 FF FD 68 00 00 00 FF FF
   25.800000 1  18FEF200x       Rx   d 8 99 02 FF FF FF FF FF FF
   25.900000 1  0CF00400x       Rx   d 8 00 B1 E4 2E FF FF FF FF
   25.900000 1  0CF00300x       Rx   d 8 00 6B 34 FF FF FF FF FF
   25.900000 1  18FEF100x       Rx   d 8 FF 1A 69 00 00 00 FF FF
   25.900000 1  18FEF200x       Rx   d 8 13 03 FF FF FF FF FF FF
   26.000000 1  0CF00400x       Rx   d 8 00 AF E6 2E FF FF FF FF
   26.000000 1  0CF00300x       Rx   d 8 00 5E 32 FF FF FF FF FF
   26.000000 1  18FEF100x       Rx   d 8 FF FA 68 00 00 00 FF FF
   26.000000 1  18FEF200x       Rx   d 8 8F 02 FF FF FF FF FF FF
   26.000000 1  18FEF600x       Rx   d 8 FF 5B 54 FF FF FF FF FF
   26.000000 1  18FEEF00x       Rx   d 8 FF FF FF 5F FF FF FF FF
   26.000000 1  18FEEE00x       Rx   d 9 7F 3C EE 2D FF FF FF 00 FF
   26.000000 1  18FEF700x       Rx   d 8 FF FF FF FF FF FF 19 01
   26.000000 1  18FEF803x       Rx   d 8 FF FF FF FF FA 2B FF FF
   26.000000 1  18FEFC00x       Rx   d 8 FF F9 FF FF FF FF FF FF
   26.000000 1  18FEF500x       Rx   d 9 CA FF FF A0 24 FF FF FF FF
   26.000000 1  18F00503x       Rx   d 8 87 FF FF 87 FF FF FF FF
   26.100000 1  0CF00400x       Rx   d 8 00 B6 EA 2E FF FF FF FF
   26.100000 1  0CF00300x       Rx   d 8 00 58 39 FF FF FF FF FF
   26.100000 1  18FEF100x       Rx   d 8 FF 09 69 00 00 00 FF FF
   26.100000 1  18FEF200x       Rx   d 8 FB 02 FF FF FF FF FF FF
   26.200000 1  0CF00400x       Rx   d 8 00 A6 E1 2E FF FF FF FF
   26.200000 1  0CF00300x       Rx   d 8 00 68 29 FF FF FF FF FF
   26.200000 1  18FEF100x       Rx   d 8 FF 08 69 00 00 00 FF FF
   26.200000 1  18FEF200x       Rx   d 8 AB 02 FF FF FF FF FF FF
   26.300000 1  0CF00400x       Rx   d 8 00 B3 D4 2E FF FF FF FF
   26.300000 1  0CF00300x       Rx   d 8 00 6C 36 FF FF FF FF FF
   26.300000 1  18FEF100x       Rx   d 8 FF F2 68 00 00 00 FF FF
   26.300000 1  18FEF200x       Rx   d 8 BD 02 FF FF FF FF FF FF
   26.400000 1  0CF00400x       Rx   d 8 00 A8 E3 2E FF FF FF FF
   26.400000 1  0CF00300x       Rx   d 8 00 58 2B FF FF FF FF FF
   26.400000 1  18FEF100x       Rx   d 8 FF 0F 69 00 00 00 FF FF
   26.400000 1  18FEF200x       Rx   d 8 8E 02 FF FF FF FF FF FF
   26.500000 1  0CF00400x       Rx   d 8 00 A5 E3 2E FF FF FF FF
   26.500000 1  0CF00300x       Rx   d 8 00 5A 28 FF FF FF FF FF
   26.500000 1  18FEF100x       Rx   d 8 FF 19 69 00 00 00 FF FF
   26.500000 1  18FEF200x       Rx   d 8 78 02 FF FF FF FF FF FF
   26.500000 1  18FEF600x       Rx   d 8 FF 5A 57 FF FF FF FF FF
   26.500000 1  18FEEF00x       Rx   d 8 FF FF FF 62 FF FF FF FF
   26.600000 1  0CF00400x       Rx   d 8 00 AC ED 2E FF FF FF FF
   26.600000 1  0CF00300x       Rx   d 8 00 5E 2F FF FF FF FF FF
   26.600000 1  18FEF100x       Rx   d 8 FF 26 69 00 00 00 FF FF
   26.600000 1  18FEF200x       Rx   d 8 8D 02 FF FF FF FF FF FF
   26.700000 1  0CF00400x       Rx   d 8 00 A5 D9 2E FF FF FF FF
   26.700000 1  0CF00300x       Rx   d 8 00 6A 28 FF FF FF FF FF
   26.700000 1  18FEF100x       Rx   d 8 FF 3A 69 00 00 00 FF FF
   26.700000 1  18FEF200x       Rx   d 8 95 02 FF FF FF FF FF FF
   26.800000 1  0CF00400x       Rx   d 8 00 AB DF 2E FF FF FF FF
   26.800000 1  0CF00300x       Rx   d 8 00 60 2E FF FF FF FF FF
   26.800000 1  18FEF100x       Rx   d 8 FF 31 69 00 00 00 FF FF
   26.800000 1  18FEF200x       Rx   d 8 BE 02 FF FF FF FF FF FF
   26.900000 1  0CF00400x       Rx   d 8 00 B1 ED 2E FF FF FF FF
   26.900000 1  0CF00300x       Rx   d 8 00 67 34 FF FF FF FF FF
   26.900000 1  18FEF100x       Rx   d 8 FF 25 69 00 00 00 FF FF
   26.900000 1  18FEF200x       Rx   d 8 8C 02 FF FF FF FF FF FF
   27.000000 1  0CF00400x       Rx   d 8 00 B4 FC 2E FF FF FF FF
   27.000000 1  0CF00300x       Rx   d 8 00 5B 37 FF FF FF FF FF
   27.000000 1  18FEF100x       Rx   d 8 FF 14 69 00 00 00 FF FF
   27.000000 1  18FEF200x       Rx   d 8 E8 02 FF FF FF FF FF FF
   27.000000 1  18FEF600x       Rx   d 8 FF 5B 55 FF FF FF FF FF
   27.000000 1  18FEEF00x       Rx   d 8 FF FF FF 65 FF FF FF FF
   27.000000 1  18FEEE00x       Rx   d 9 81 3C 3A 2E FF FF FF 00 FF
   27.000000 1  18FEF700x       Rx   d 8 FF FF FF FF FF FF 1D 01
   27.000000 1  18FEF803x       Rx   d 8 FF FF FF FF 80 2C FF FF
   27.000000 1  18FEFC00x       Rx   d 8 FF F9 FF FF FF FF FF FF
   27.000000 1  18FEF500x       Rx   d 9 CA FF FF A0 24 FF FF FF FF
   27.000000 1  18F00503x       Rx   d 8 87 FF FF 87 FF FF FF FF
   27.100000 1  0CF00400x       Rx   d 8 00 AC 0E 2F FF FF FF FF
   27.100000 1  0CF00300x       Rx   d 8 00 61 2F FF FF FF FF FF
   27.100000 1  18FEF100x       Rx   d 8 FF 00 69 00 00 00 FF FF
   27.100000 1  18FEF200x       Rx   d 8 C2 02 FF FF FF FF FF FF
   27.200000 1  0CF00400x       Rx   d 8 00 B5 1C 2F FF FF FF FF
   27.200000 1  0CF00300x       Rx   d 8 00 64 38 FF FF FF FF FF
   27.200000 1  18FEF100x       Rx   d 8 FF 0D 69 00 00 00 FF FF
   27.200000 1  18FEF200x       Rx   d 8 F9 02 FF FF FF FF FF FF
   27.300000 1  0CF00400x       Rx   d 8 00 A6 0C 2F FF FF FF FF
   27.300000 1  0CF00300x       Rx   d 8 00 5F 29 FF FF FF FF FF
   27.300000 1  18FEF100x       Rx   d 8 FF 1A 69 00 00 00 FF FF
   27.300000 1  18FEF200x       Rx   d 8 92 02 FF FF FF FF FF FF
   27.400000 1  0CF00400x       Rx   d 8 00 B7 09 2F FF FF FF FF
   27.400000 1  0CF00300x       Rx   d 8 00 66 3A FF FF FF FF FF
   27.400000 1  18FEF100x       Rx   d 8 FF 35 69 00 00 00 FF FF
   27.400000 1  18FEF200x       Rx   d 8 62 02 FF FF FF FF FF FF
   27.500000 1  0CF00400x       Rx   d 8 00 B0 F8 2E FF FF FF FF
   27.500000 1  0CF00300x       Rx   d 8 00 61 33 FF FF FF FF FF
   27.500000 1  18FEF100x       Rx   d 8 FF 1C 69 00 00 00 FF FF
   27.500000 1  18FEF200x       Rx   d 8 D6 02 FF FF FF FF FF FF
   27.500000 1  18FEF600x       Rx   d 8 FF 5C 56 FF FF FF FF FF
   27.500000 1  18FEEF00x       Rx   d 8 FF FF FF 63 FF FF FF FF
   27.600000 1  0CF00400x       Rx   d 8 00 B4 FD 2E FF FF FF FF
   27.600000 1  0CF00300x       Rx   d 8 00 5E 37 FF FF FF FF FF
   27.600000 1  18FEF100x       Rx   d 8 FF F4 68 00 00 00 FF FF
   27.600000 1  18FEF200x       Rx   d 8 D6 02 FF FF FF FF FF FF
   27.700000 1  0CF00400x       Rx   d 8 00 A8 0E 2F FF FF FF FF
   27.700000 1  0CF00300x       Rx   d 8 00 58 2B FF FF FF FF FF
   27.700000 1  18FEF100x       Rx   d 8 FF EC 68 00 00 00 FF FF
   27.700000 1  18FEF200x       Rx   d 8 D5 02 FF FF FF FF FF FF
   27.800000 1  0CF00400x       Rx   d 8 00 AC 13 2F FF FF FF FF
   27.800000 1  0CF00300x       Rx   d 8 00 5A 2F FF FF FF FF FF
   27.800000 1  18FEF100x       Rx   d 8 FF E1 68 00 00 00 FF FF
   27.800000 1  18FEF200x       Rx   d 8 CF 02 FF FF FF FF FF FF
   27.900000 1  0CF00400x       Rx   d 8 00 B7 20 2F FF FF FF FF
   27.900000 1  0CF00300x       Rx   d 8 00 60 3A FF FF FF FF FF
   27.900000 1  18FEF100x       Rx   d 8 FF 08 69 00 00 00 FF FF
   27.900000 1  18FEF200x       Rx   d 8 E9 02 FF FF FF FF FF FF
   28.000000 1  0CF00400x       Rx   d 8 00 AC 26 2F FF FF FF FF
   28.000000 1  0CF00300x       Rx   d 8 00 5B 2F FF FF FF FF FF
   28.000000 1  18FEF100x       Rx   d 8 FF 0F 69 00 00 00 FF FF
   28.000000 1  18FEF200x       Rx   d 8 1E 03 FF FF FF FF FF FF
   28.000000 1  18FEF600x       Rx   d 8 FF 5A 53 FF FF FF FF FF
   28.000000 1  18FEEF00x       Rx   d 8 FF FF FF 5F FF FF FF FF
   28.000000 1  18FEEE00x       Rx   d 9 80 3C A7 2D FF FF FF 00 FF
   28.000000 1  18FEF700x       Rx   d 8 FF FF FF FF FF FF 1D 01
   28.000000 1  18FEF803x       Rx   d 8 FF FF FF FF 98 2C FF FF
   28.000000 1  18FEFC00x       Rx   d 8 FF F9 FF FF FF FF FF FF
   28.000000 1  18FEF500x       Rx   d 9 CA FF FF A0 24 FF FF FF FF
   28.000000 1  18F00503x       Rx   d 8 87 FF FF 87 FF FF FF FF
   28.100000 1  0CF00400x       Rx   d 8 00 AD 29 2F FF FF FF FF
   28.100000 1  0CF00300x       Rx   d 8 00 68 30 FF FF FF FF FF
   28.100000 1  18FEF100x       Rx   d 8 FF E9 68 00 00 00 FF FF
   28.100000 1  18FEF200x       Rx   d 8 94 02 FF FF FF FF FF FF
   28.200000 1  0CF00400x       Rx   d 8 00 A7 2C 2F FF FF FF FF
   28.200000 1  0CF00300x       Rx   d 8 00 66 2A FF FF FF FF FF
   28.200000 1  18FEF100x       Rx   d 8 FF D9 68 00 00 00 FF FF
   28.200000 1  18FEF200x       Rx   d 8 7F 02 FF FF FF FF FF FF
   28.300000 1  0CF00400x       Rx   d 8 00 B3 1E 2F FF FF FF FF
   28.300000 1  0CF00300x       Rx   d 8 00 5C 36 FF FF FF FF FF
   28.300000 1  18FEF100x       Rx   d 8 FF DC 68 00 00 00 FF FF
   28.300000 1  18FEF200x       Rx   d 8 58 02 FF FF FF FF FF FF
   28.400000 1  0CF00400x       Rx   d 8 00 A7 2C 2F FF FF FF FF
   28.400000 1  0CF00300x       Rx   d 8 00 68 2A FF FF FF FF FF
   28.400000 1  18FEF100x       Rx   d 8 FF F8 68 00 00 00 FF FF
   28.400000 1  18FEF200x       Rx   d 8 1D 03 FF FF FF FF FF FF
   28.500000 1  0CF00400x       Rx   d 8 00 A5 26 2F FF FF FF FF
   28.500000 1  0CF00300x       Rx   d 8 00 5B 28 FF FF FF FF FF
   28.500000 1  18FEF100x       Rx   d 8 FF D9 68 00 00 00 FF FF
   28.500000 1  18FEF200x       Rx   d 8 61 02 FF FF FF FF FF FF
   28.500000 1  18FEF600x       Rx   d 8 FF 55 56 FF FF FF FF FF
   28.500000 1  18FEEF00x       Rx   d 8 FF FF FF 66 FF FF FF FF
   28.600000 1  0CF00400x       Rx   d 8 00 AD 29 2F FF FF FF FF
   28.600000 1  0CF00300x       Rx   d 8 00 60 30 FF FF FF FF FF
   28.600000 1  18FEF100x       Rx   d 8 FF C2 68 00 00 00 FF FF
   28.600000 1  18FEF200x       Rx   d 8 18 03 FF FF FF FF FF FF
   28.700000 1  0CF00400x       Rx   d 8 00 B1 21 2F FF FF FF FF
   28.700000 1  0CF00300x       Rx   d 8 00 6B 34 FF FF FF FF FF
   28.700000 1  18FEF100x       Rx   d 8 FF E0 68 00 00 00 FF FF
   28.700000 1  18FEF200x       Rx   d 8 AB 02 FF FF FF FF FF FF
   28.800000 1  0CF00400x       Rx   d 8 00 AC 2A 2F FF FF FF FF
   28.800000 1  0CF00300x       Rx   d 8 00 5C 2F FF FF FF FF FF
   28.800000 1  18FEF100x       Rx   d 8 FF EF 68 00 00 00 FF FF
   28.800000 1  18FEF200x       Rx   d 8 10 03 FF FF FF FF FF FF
   28.900000 1  0CF00400x       Rx   d 8 00 AB 23 2F FF FF FF FF
   28.900000 1  0CF00300x       Rx   d 8 00 5E 2E FF FF FF FF FF
   28.900000 1  18FEF100x       Rx   d 8 FF CD 68 00 00 00 FF FF
   28.900000 1  18FEF200x       Rx   d 8 DD 02 FF FF FF FF FF FF
   29.000000 1  0CF00400x       Rx   d 8 00 B2 20 2F FF FF FF FF
   29.000000 1  0CF00300x       Rx   d 8 00 59 35 FF FF FF FF FF
   29.000000 1  18FEF100x       Rx   d 8 FF DF 68 00 00 00 FF FF
   29.000000 1  18FEF200x       Rx   d 8 1D 03 FF FF FF FF FF FF
   29.000000 1  18FEF600x       Rx   d 8 FF 5D 54 FF FF FF FF FF
   29.000000 1  18FEEF00x       Rx   d 8 FF FF FF 64 FF FF FF FF
   29.000000 1  18FEEE00x       Rx   d 9 7E 3C E2 2D FF FF FF 00 FF
   29.000000 1  18FEF700x       Rx   d 8 FF FF FF FF FF FF 18 01
   29.000000 1  18FEF803x       Rx   d 8 FF FF FF FF 58 2C FF FF
   29.000000 1  18FEFC00x       Rx   d 8 FF F9 FF FF FF FF FF FF
   29.000000 1  18FEF500x       Rx   d 9 CA FF FF A0 24 FF FF FF FF
   29.000000 1  18F00503x       Rx   d 8 87 FF FF 87 FF FF FF FF
   29.100000 1  0CF00400x       Rx   d 8 00 B6 23 2F FF FF FF FF
   29.100000 1  0CF00300x       Rx   d 8 00 6C 39 FF FF FF FF FF
   29.100000 1  18FEF100x       Rx   d 8 FF C6 68 00 00 00 FF FF
   29.100000 1  18FEF200x       Rx   d 8 84 02 FF FF FF FF FF FF
   29.200000 1  0CF00400x       Rx   d 8 00 B5 1B 2F FF FF FF FF
   29.200000 1  0CF00300x       Rx   d 8 00 62 38 FF FF FF FF FF
   29.200000 1  18FEF100x       Rx   d 8 FF B5 68 00 00 00 FF FF
   29.200000 1  18FEF200x       Rx   d 8 6C 02 FF FF FF FF FF FF
   29.300000 1  0CF00400x       Rx   d 8 00 B1 1B 2F FF FF FF FF
   29.300000 1  0CF00300x       Rx   d 8 00 59 34 FF FF FF FF FF
   29.300000 1  18FEF100x       Rx   d 8 FF 92 68 00 00 00 FF FF
   29.300000 1  18FEF200x       Rx   d 8 A0 02 FF FF FF FF FF FF
   29.400000 1  0CF00400x       Rx   d 8 00 B1 0D 2F FF FF FF FF
   29.400000 1  0CF00300x       Rx   d 8 00 65 34 FF FF FF FF FF
   29.400000 1  18FEF100x       Rx   d 8 FF 94 68 00 00 00 FF FF
   29.400000 1  18FEF200x       Rx   d 8 9C 02 FF FF FF FF FF FF
   29.500000 1  0CF00400x       Rx   d 8 00 B3 1D 2F FF FF FF FF
   29.500000 1  0CF00300x       Rx   d 8 00 64 36 FF FF FF FF FF
   29.500000 1  18FEF100x       Rx   d 8 FF 8A 68 00 00 00 FF FF
   29.500000 1  18FEF200x       Rx   d 8 D2 02 FF FF FF FF FF FF
   29.500000 1  18FEF600x       Rx   d 8 FF 5C 56 FF FF FF FF FF
   29.500000 1  18FEEF00x       Rx   d 8 FF FF FF 60 FF FF FF FF
   29.600000 1  0CF00400x       Rx   d 8 00 B4 2B 2F FF FF FF FF
   29.600000 1  0CF00300x       Rx   d 8 00 62 37 FF FF FF FF FF
   29.600000 1  18FEF100x       Rx   d 8 FF 87 68 00 00 00 FF FF
   29.600000 1  18FEF200x       Rx   d 8 F2 02 FF FF FF FF FF FF
   29.700000 1  0CF00400x       Rx   d 8 00 AE 2E 2F FF FF FF FF
   29.700000 1  0CF00300x       Rx   d 8 00 5A 31 FF FF FF FF FF
   29.700000 1  18FEF100x       Rx   d 8 FF B0 68 00 00 00 FF FF
   29.700000 1  18FEF200x       Rx   d 8 10 03 FF FF FF FF FF FF
   29.800000 1  0CF00400x       Rx   d 8 00 AC 2D 2F FF FF FF FF
   29.800000 1  0CF00300x       Rx   d 8 00 5A 2F FF FF FF FF FF
   29.800000 1  18FEF100x       Rx   d 8 FF C6 68 00 00 00 FF FF
   29.800000 1  18FEF200x       Rx   d 8 F0 02 FF FF FF FF FF FF
   29.900000 1  0CF00400x       Rx   d 8 00 A7 3C 2F FF FF FF FF
   29.900000 1  0CF00300x       Rx   d 8 00 62 2A FF FF FF FF FF
   29.900000 1  18FEF100x       Rx   d 8 FF ED 68 00 00 00 FF FF
   29.900000 1  18FEF200x       Rx   d 8 E6 02 FF FF FF FF FF FF
   30.000000 1  0CF00400x       Rx   d 8 00 AA 3C 2F FF FF FF FF
   30.000000 1  0CF00300x       Rx   d 8 00 67 2D FF FF FF FF FF
   30.000000 1  18FEF100x       Rx   d 8 FF D7 68 00 00 00 FF FF
   30.000000 1  18FEF200x       Rx   d 8 E2 02 FF FF FF FF FF FF
   30.000000 1  18FEF600x       Rx   d 8 FF 5E 55 FF FF FF FF FF
   30.000000 1  18FEEF00x       Rx   d 8 FF FF FF 64 FF FF FF FF
   30.000000 1  18FEEE00x       Rx   d 9 7F 3C 21 2E FF FF FF 00 FF
   30.000000 1  18FEF700x       Rx   d 8 FF FF FF FF FF FF 1A 01
   30.000000 1  18FEF803x       Rx   d 8 FF FF FF FF BA 2C FF FF
   30.000000 1  18FEFC00x       Rx   d 8 FF F9 FF FF FF FF FF FF
   30.000000 1  18FEF500x       Rx   d 9 CA FF FF A0 24 FF FF FF FF
   30.000000 1  18F00503x       Rx   d 8 87 FF FF 87 FF FF FF FF
   30.000000 1  18FEE500x       Rx   d 8 40 0D 03 00 FF FF FF FF
   30.100000 1  0CF00400x       Rx   d 8 00 B0 28 2F FF FF FF FF
   30.100000 1  0CF00300x       Rx   d 8 00 63 33 FF FF FF FF FF
   30.100000 1  18FEF100x       Rx   d 8 FF CE 68 00 00 00 FF FF
   30.100000 1  18FEF200x       Rx   d 8 F9 02 FF FF FF FF FF FF
   30.200000 1  0CF00400x       Rx   d 8 00 A8 12 2F FF FF FF FF
   30.200000 1  0CF00300x       Rx   d 8 00 68 2B FF FF FF FF FF
   30.200000 1  18FEF100x       Rx   d 8 FF B5 68 00 00 00 FF FF
   30.200000 1  18FEF200x       Rx   d 8 93 02 FF FF FF FF FF FF
   30.300000 1  0CF00400x       Rx   d 8 00 B6 FC 2E FF FF FF FF
   30.300000 1  0CF00300x       Rx   d 8 00 5A 39 FF FF FF FF FF
   30.300000 1  18FEF100x       Rx   d 8 FF D1 68 00 00 00 FF FF
   30.300000 1  18FEF200x       Rx   d 8 F7 02 FF FF FF FF FF FF
   30.400000 1  0CF00400x       Rx   d 8 00 B8 02 2F FF FF FF FF
   30.400000 1  0CF00300x       Rx   d 8 00 61 3B FF FF FF FF FF
   30.400000 1  18FEF100x       Rx   d 8 FF F4 68 00 00 00 FF FF
   30.400000 1  18FEF200x       Rx   d 8 F4 02 FF FF FF FF FF FF
