; CANalyzer/CANoe ASC Log File
; Generated by J1939 Test Data Generator
; Date: Thu Jan 22 09:56:12 AM 2026
;
date Thu Jan 22 09:56:12 AM 2026
base hex  timestamps absolute
no internal events logged

    0.000000 1  0CF00400x       Rx   d 8 00 8A 0C 02 FF FF FF FF
    0.000000 1  0CF00300x       Rx   d 8 00 00 0D FF FF FF FF FF
    0.000000 1  18FEF100x       Rx   d 8 FF 00 00 00 00 00 FF FF
    0.000000 1  18FEF200x       Rx   d 8 40 00 FF FF FF FF FF FF
    0.000000 1  18FEF600x       Rx   d 8 FF 32 3C FF FF FF FF FF
    0.000000 1  18FEEF00x       Rx   d 8 FF FF FF 30 FF FF FF FF
    0.000000 1  18FEEE00x       Rx   d 9 3C 3C 00 24 FF FF FF 00 FF
    0.000000 1  18FEF700x       Rx   d 8 FF FF FF FF FF FF 15 01
    0.000000 1  18FEF803x       Rx   d 8 FF FF FF FF 60 23 FF FF
    0.000000 1  18FEFC00x       Rx   d 8 FF F9 FF FF FF FF FF FF
    0.000000 1  18FEF500x       Rx   d 9 CA FF FF A0 24 FF FF FF FF
    0.000000 1  18F00503x       Rx   d 8 7D FF FF 7D FF FF FF FF
    0.000000 1  18FEE500x       Rx   d 8 40 0D 03 00 FF FF FF FF
    0.100000 1  0CF00400x       Rx   d 8 00 8A EC 03 FF FF FF FF
    0.100000 1  0CF00300x       Rx   d 8 00 00 0D FF FF FF FF FF
    0.100000 1  18FEF100x       Rx   d 8 FF 00 00 00 00 00 FF FF
    0.100000 1  18FEF200x       Rx   d 8 36 00 FF FF FF FF FF FF
    0.200000 1  0CF00400x       Rx   d 8 00 8A 80 05 FF FF FF FF
    0.200000 1  0CF00300x       Rx   d 8 00 00 0D FF FF FF FF FF
    0.200000 1  18FEF100x       Rx   d 8 FF 00 00 00 00 00 FF FF
    0.200000 1  18FEF200x       Rx   d 8 36 00 FF FF FF FF FF FF
    0.300000 1  0CF00400x       Rx   d 8 00 8A 05 07 FF FF FF FF
    0.300000 1  0CF00300x       Rx   d 8 00 00 0D FF FF FF FF FF
    0.300000 1  18FEF100x       Rx   d 8 FF 00 00 00 00 00 FF FF
    0.300000 1  18FEF200x       Rx   d 8 38 00 FF FF FF FF FF FF
    0.400000 1  0CF00400x       Rx   d 8 00 8B 68 08 FF FF FF FF
    0.400000 1  0CF00300x       Rx   d 8 00 00 0E FF FF FF FF FF
    0.400000 1  18FEF100x       Rx   d 8 FF 00 00 00 00 00 FF FF
    0.400000 1  18FEF200x       Rx   d 8 42 00 FF FF FF FF FF FF
    0.500000 1  0CF00400x       Rx   d 8 00 8C A3 09 FF FF FF FF
    0.500000 1  0CF00300x       Rx   d 8 00 00 0F FF FF FF FF FF
    0.500000 1  18FEF100x       Rx   d 8 FF 00 00 00 00 00 FF FF
    0.500000 1  18FEF200x       Rx   d 8 39 00 FF FF FF FF FF FF
    0.500000 1  18FEF600x       Rx   d 8 FF 33 3C FF FF FF FF FF
    0.500000 1  18FEEF00x       Rx   d 8 FF FF FF 34 FF FF FF FF
    0.600000 1  0CF00400x       Rx   d 8 00 8C BF 0A FF FF FF FF
    0.600000 1  0CF00300x       Rx   d 8 00 00 0F FF FF FF FF FF
    0.600000 1  18FEF100x       Rx   d 8 FF 00 00 00 00 00 FF FF
    0.600000 1  18FEF200x       Rx   d 8 40 00 FF FF FF FF FF FF
    0.700000 1  0CF00400x       Rx   d 8 00 8B AB 0B FF FF FF FF
    0.700000 1  0CF00300x       Rx   d 8 00 00 0E FF FF FF FF FF
    0.700000 1  18FEF100x       Rx   d 8 FF 00 00 00 00 00 FF FF
    0.700000 1  18FEF200x       Rx   d 8 34 00 FF FF FF FF FF FF
    0.800000 1  0CF00400x       Rx   d 8 00 8B 8C 0C FF FF FF FF
    0.800000 1  0CF00300x       Rx   d 8 00 00 0E FF FF FF FF FF
    0.800000 1  18FEF100x       Rx   d 8 FF 00 00 00 00 00 FF FF
    0.800000 1  18FEF200x       Rx   d 8 37 00 FF FF FF FF FF FF
    0.900000 1  0CF00400x       Rx   d 8 00 8C 58 0D FF FF FF FF
    0.900000 1  0CF00300x       Rx   d 8 00 00 0F FF FF FF FF FF
    0.900000 1  18FEF100x       Rx   d 8 FF 00 00 00 00 00 FF FF
    0.900000 1  18FEF200x       Rx   d 8 35 00 FF FF FF FF FF FF
    1.000000 1  0CF00400x       Rx   d 8 00 8C 1A 0E FF FF FF FF
    1.000000 1  0CF00300x       Rx   d 8 00 00 0F FF FF FF FF FF
    1.000000 1  18FEF100x       Rx   d 8 FF 00 00 00 00 00 FF FF
    1.000000 1  18FEF200x       Rx   d 8 42 00 FF FF FF FF FF FF
    1.000000 1  18FEF600x       Rx   d 8 FF 33 3C FF FF FF FF FF
    1.000000 1  18FEEF00x       Rx   d 8 FF FF FF 32 FF FF FF FF
    1.000000 1  18FEEE00x       Rx   d 9 3C 3C 02 24 FF FF FF 00 FF
    1.000000 1  18FEF700x       Rx   d 8 FF FF FF FF FF FF 16 01
    1.000000 1  18FEF803x       Rx   d 8 FF FF FF FF 62 23 FF FF
    1.000000 1  18FEFC00x       Rx   d 8 FF F9 FF FF FF FF FF FF
    1.000000 1  18FEF500x       Rx   d 9 CA FF FF A0 24 FF FF FF FF
    1.000000 1  18F00503x       Rx   d 8 7D FF FF 7D FF FF FF FF
    1.100000 1  0CF00400x       Rx   d 8 00 8A B0 0E FF FF FF FF
    1.100000 1  0CF00300x       Rx   d 8 00 00 0D FF FF FF FF FF
    1.100000 1  18FEF100x       Rx   d 8 FF 00 00 00 00 00 FF FF
    1.100000 1  18FEF200x       Rx   d 8 36 00 FF FF FF FF FF FF
    1.200000 1  0CF00400x       Rx   d 8 00 8B 4C 0F FF FF FF FF
    1.200000 1  0CF00300x       Rx   d 8 00 00 0E FF FF FF FF FF
    1.200000 1  18FEF100x       Rx   d 8 FF 00 00 00 00 00 FF FF
    1.200000 1  18FEF200x       Rx   d 8 44 00 FF FF FF FF FF FF
    1.300000 1  0CF00400x       Rx   d 8 00 8A C5 0F FF FF FF FF
    1.300000 1  0CF00300x       Rx   d 8 00 00 0D FF FF FF FF FF
    1.300000 1  18FEF100x       Rx   d 8 FF 00 00 00 00 00 FF FF
    1.300000 1  18FEF200x       Rx   d 8 3D 00 FF FF FF FF FF FF
    1.400000 1  0CF00400x       Rx   d 8 00 8A 36 10 FF FF FF FF
    1.400000 1  0CF00300x       Rx   d 8 00 00 0D FF FF FF FF FF
    1.400000 1  18FEF100x       Rx   d 8 FF 00 00 00 00 00 FF FF
    1.400000 1  18FEF200x       Rx   d 8 33 00 FF FF FF FF FF FF
    1.500000 1  0CF00400x       Rx   d 8 00 8C 92 10 FF FF FF FF
    1.500000 1  0CF00300x       Rx   d 8 00 00 0F FF FF FF FF FF
    1.500000 1  18FEF100x       Rx   d 8 FF 00 00 00 00 00 FF FF
    1.500000 1  18FEF200x       Rx   d 8 33 00 FF FF FF FF FF FF
    1.500000 1  18FEF600x       Rx   d 8 FF 33 3C FF FF FF FF FF
    1.500000 1  18FEEF00x       Rx   d 8 FF FF FF 31 FF FF FF FF
    1.600000 1  0CF00400x       Rx   d 8 00 8C 02 11 FF FF FF FF
    1.600000 1  0CF00300x       Rx   d 8 00 00 0F FF FF FF FF FF
    1.600000 1  18FEF100x       Rx   d 8 FF 00 00 00 00 00 FF FF
    1.600000 1  18FEF200x       Rx   d 8 32 00 FF FF FF FF FF FF
    1.700000 1  0CF00400x       Rx   d 8 00 8C 5C 11 FF FF FF FF
    1.700000 1  0CF00300x       Rx   d 8 00 00 0F FF FF FF FF FF
    1.700000 1  18FEF100x       Rx   d 8 FF 00 00 00 00 00 FF FF
    1.700000 1  18FEF200x       Rx   d 8 34 00 FF FF FF FF FF FF
    1.800000 1  0CF00400x       Rx   d 8 00 8D A6 11 FF FF FF FF
    1.800000 1  0CF00300x       Rx   d 8 00 00 10 FF FF FF FF FF
    1.800000 1  18FEF100x       Rx   d 8 FF 00 00 00 00 00 FF FF
    1.800000 1  18FEF200x       Rx   d 8 3C 00 FF FF FF FF FF FF
    1.900000 1  0CF00400x       Rx   d 8 00 8D F8 11 FF FF FF FF
    1.900000 1  0CF00300x       Rx   d 8 00 00 10 FF FF FF FF FF
    1.900000 1  18FEF100x       Rx   d 8 FF 00 00 00 00 00 FF FF
    1.900000 1  18FEF200x       Rx   d 8 3E 00 FF FF FF FF FF FF
    2.000000 1  0CF00400x       Rx   d 8 00 8C 3C 12 FF FF FF FF
    2.000000 1  0CF00300x       Rx   d 8 00 00 0F FF FF FF FF FF
    2.000000 1  18FEF100x       Rx   d 8 FF 00 00 00 00 00 FF FF
    2.000000 1  18FEF200x       Rx   d 8 32 00 FF FF FF FF FF FF
    2.000000 1  18FEF600x       Rx   d 8 FF 33 3C FF FF FF FF FF
    2.000000 1  18FEEF00x       Rx   d 8 FF FF FF 32 FF FF FF FF
    2.000000 1  18FEEE00x       Rx   d 9 3C 3C 04 24 FF FF FF 00 FF
    2.000000 1  18FEF700x       Rx   d 8 FF FF FF FF FF FF 12 01
    2.000000 1  18FEF803x       Rx   d 8 FF FF FF FF 64 23 FF FF
    2.000000 1  18FEFC00x       Rx   d 8 FF F9 FF FF FF FF FF FF
    2.000000 1  18FEF500x       Rx   d 9 CA FF FF A0 24 FF FF FF FF
    2.000000 1  18F00503x       Rx   d 8 7D FF FF 7D FF FF FF FF
    2.100000 1  0CF00400x       Rx   d 8 00 8D 62 12 FF FF FF FF
    2.100000 1  0CF00300x       Rx   d 8 00 00 10 FF FF FF FF FF
    2.100000 1  18FEF100x       Rx   d 8 FF 00 00 00 00 00 FF FF
    2.100000 1  18FEF200x       Rx   d 8 38 00 FF FF FF FF FF FF
    2.200000 1  0CF00400x       Rx   d 8 00 8D 9F 12 FF FF FF FF
    2.200000 1  0CF00300x       Rx   d 8 00 00 10 FF FF FF FF FF
    2.200000 1  18FEF100x       Rx   d 8 FF 00 00 00 00 00 FF FF
    2.200000 1  18FEF200x       Rx   d 8 33 00 FF FF FF FF FF FF
    2.300000 1  0CF00400x       Rx   d 8 00 8A D3 12 FF FF FF FF
    2.300000 1  0CF00300x       Rx   d 8 00 00 0D FF FF FF FF FF
    2.300000 1  18FEF100x       Rx   d 8 FF 00 00 00 00 00 FF FF
    2.300000 1  18FEF200x       Rx   d 8 37 00 FF FF FF FF FF FF
    2.400000 1  0CF00400x       Rx   d 8 00 8A F7 12 FF FF FF FF
    2.400000 1  0CF00300x       Rx   d 8 00 00 0D FF FF FF FF FF
    2.400000 1  18FEF100x       Rx   d 8 FF 00 00 00 00 00 FF FF
    2.400000 1  18FEF200x       Rx   d 8 36 00 FF FF FF FF FF FF
    2.500000 1  0CF00400x       Rx   d 8 00 8C 29 13 FF FF FF FF
    2.500000 1  0CF00300x       Rx   d 8 00 00 0F FF FF FF FF FF
    2.500000 1  18FEF100x       Rx   d 8 FF 00 00 00 00 00 FF FF
    2.500000 1  18FEF200x       Rx   d 8 34 00 FF FF FF FF FF FF
    2.500000 1  18FEF600x       Rx   d 8 FF 32 3C FF FF FF FF FF
    2.500000 1  18FEEF00x       Rx   d 8 FF FF FF 32 FF FF FF FF
    2.600000 1  0CF00400x       Rx   d 8 00 8C 41 13 FF FF FF FF
    2.600000 1  0CF00300x       Rx   d 8 00 00 0F FF FF FF FF FF
    2.600000 1  18FEF100x       Rx   d 8 FF 00 00 00 00 00 FF FF
    2.600000 1  18FEF200x       Rx   d 8 33 00 FF FF FF FF FF FF
    2.700000 1  0CF00400x       Rx   d 8 00 8D 54 13 FF FF FF FF
    2.700000 1  0CF00300x       Rx   d 8 00 00 10 FF FF FF FF FF
    2.700000 1  18FEF100x       Rx   d 8 FF 00 00 00 00 00 FF FF
    2.700000 1  18FEF200x       Rx   d 8 36 00 FF FF FF FF FF FF
    2.800000 1  0CF00400x       Rx   d 8 00 8A 64 13 FF FF FF FF
    2.800000 1  0CF00300x       Rx   d 8 00 00 0D FF FF FF FF FF
    2.800000 1  18FEF100x       Rx   d 8 FF 00 00 00 00 00 FF FF
    2.800000 1  18FEF200x       Rx   d 8 3B 00 FF FF FF FF FF FF
    2.900000 1  0CF00400x       Rx   d 8 00 8A 85 13 FF FF FF FF
    2.900000 1  0CF00300x       Rx   d 8 00 00 0D FF FF FF FF FF
    2.900000 1  18FEF100x       Rx   d 8 FF 00 00 00 00 00 FF FF
    2.900000 1  18FEF200x       Rx   d 8 3A 00 FF FF FF FF FF FF
    3.000000 1  0CF00400x       Rx   d 8 00 8C A1 13 FF FF FF FF
    3.000000 1  0CF00300x       Rx   d 8 00 00 0F FF FF FF FF FF
    3.000000 1  18FEF100x       Rx   d 8 FF 00 00 00 00 00 FF FF
    3.000000 1  18FEF200x       Rx   d 8 3A 00 FF FF FF FF FF FF
    3.000000 1  18FEF600x       Rx   d 8 FF 33 3C FF FF FF FF FF
    3.000000 1  18FEEF00x       Rx   d 8 FF FF FF 2F FF FF FF FF
    3.000000 1  18FEEE00x       Rx   d 9 3C 3C 06 24 FF FF FF 00 FF
    3.000000 1  18FEF700x       Rx   d 8 FF FF FF FF FF FF 12 01
    3.000000 1  18FEF803x       Rx   d 8 FF FF FF FF 66 23 FF FF
    3.000000 1  18FEFC00x       Rx   d 8 FF F9 FF FF FF FF FF FF
    3.000000 1  18FEF500x       Rx   d 9 CA FF FF A0 24 FF FF FF FF
    3.000000 1  18F00503x       Rx   d 8 7D FF FF 7D FF FF FF FF
    3.100000 1  0CF00400x       Rx   d 8 00 8A BE 13 FF FF FF FF
    3.100000 1  0CF00300x       Rx   d 8 00 00 0D FF FF FF FF FF
    3.100000 1  18FEF100x       Rx   d 8 FF 00 00 00 00 00 FF FF
    3.100000 1  18FEF200x       Rx   d 8 3A 00 FF FF FF FF FF FF
    3.200000 1  0CF00400x       Rx   d 8 00 8D C4 13 FF FF FF FF
    3.200000 1  0CF00300x       Rx   d 8 00 00 10 FF FF FF FF FF
    3.200000 1  18FEF100x       Rx   d 8 FF 00 00 00 00 00 FF FF
    3.200000 1  18FEF200x       Rx   d 8 3D 00 FF FF FF FF FF FF
    3.300000 1  0CF00400x       Rx   d 8 00 8D E2 13 FF FF FF FF
    3.300000 1  0CF00300x       Rx   d 8 00 00 10 FF FF FF FF FF
    3.300000 1  18FEF100x       Rx   d 8 FF 00 00 00 00 00 FF FF
    3.300000 1  18FEF200x       Rx   d 8 42 00 FF FF FF FF FF FF
    3.400000 1  0CF00400x       Rx   d 8 00 8A ED 13 FF FF FF FF
    3.400000 1  0CF00300x       Rx   d 8 00 00 0D FF FF FF FF FF
    3.400000 1  18FEF100x       Rx   d 8 FF 00 00 00 00 00 FF FF
    3.400000 1  18FEF200x       Rx   d 8 39 00 FF FF FF FF FF FF
    3.500000 1  0CF00400x       Rx   d 8 00 8D EF 13 FF FF FF FF
    3.500000 1  0CF00300x       Rx   d 8 00 00 10 FF FF FF FF FF
    3.500000 1  18FEF100x       Rx   d 8 FF 00 00 00 00 00 FF FF
    3.500000 1  18FEF200x       Rx   d 8 45 00 FF FF FF FF FF FF
    3.500000 1  18FEF600x       Rx   d 8 FF 32 3C FF FF FF FF FF
    3.500000 1  18FEEF00x       Rx   d 8 FF FF FF 31 FF FF FF FF
    3.600000 1  0CF00400x       Rx   d 8 00 8C FA 13 FF FF FF FF
    3.600000 1  0CF00300x       Rx   d 8 00 00 0F FF FF FF FF FF
    3.600000 1  18FEF100x       Rx   d 8 FF 00 00 00 00 00 FF FF
    3.600000 1  18FEF200x       Rx   d 8 45 00 FF FF FF FF FF FF
    3.700000 1  0CF00400x       Rx   d 8 00 8C 04 14 FF FF FF FF
    3.700000 1  0CF00300x       Rx   d 8 00 00 0F FF FF FF FF FF
    3.700000 1  18FEF100x       Rx   d 8 FF 00 00 00 00 00 FF FF
    3.700000 1  18FEF200x       Rx   d 8 3C 00 FF FF FF FF FF FF
    3.800000 1  0CF00400x       Rx   d 8 00 8D 01 14 FF FF FF FF
    3.800000 1  0CF00300x       Rx   d 8 00 00 10 FF FF FF FF FF
    3.800000 1  18FEF100x       Rx   d 8 FF 00 00 00 00 00 FF FF
    3.800000 1  18FEF200x       Rx   d 8 3D 00 FF FF FF FF FF FF
    3.900000 1  0CF00400x       Rx   d 8 00 8A 00 14 FF FF FF FF
    3.900000 1  0CF00300x       Rx   d 8 00 00 0D FF FF FF FF FF
    3.900000 1  18FEF100x       Rx   d 8 FF 00 00 00 00 00 FF FF
    3.900000 1  18FEF200x       Rx   d 8 3D 00 FF FF FF FF FF FF
    4.000000 1  0CF00400x       Rx   d 8 00 8C 06 14 FF FF FF FF
    4.000000 1  0CF00300x       Rx   d 8 00 00 0F FF FF FF FF FF
    4.000000 1  18FEF100x       Rx   d 8 FF 00 00 00 00 00 FF FF
    4.000000 1  18FEF200x       Rx   d 8 36 00 FF FF FF FF FF FF
    4.000000 1  18FEF600x       Rx   d 8 FF 33 3C FF FF FF FF FF
    4.000000 1  18FEEF00x       Rx   d 8 FF FF FF 34 FF FF FF FF
    4.000000 1  18FEEE00x       Rx   d 9 3C 3C 08 24 FF FF FF 00 FF
    4.000000 1  18FEF700x       Rx   d 8 FF FF FF FF FF FF 15 01
    4.000000 1  18FEF803x       Rx   d 8 FF FF FF FF 68 23 FF FF
    4.000000 1  18FEFC00x       Rx   d 8 FF F9 FF FF FF FF FF FF
    4.000000 1  18FEF500x       Rx   d 9 CA FF FF A0 24 FF FF FF FF
    4.000000 1  18F00503x       Rx   d 8 7D FF FF 7D FF FF FF FF
    4.100000 1  0CF00400x       Rx   d 8 00 8B 05 14 FF FF FF FF
    4.100000 1  0CF00300x       Rx   d 8 00 00 0E FF FF FF FF FF
    4.100000 1  18FEF100x       Rx   d 8 FF 00 00 00 00 00 FF FF
    4.100000 1  18FEF200x       Rx   d 8 38 00 FF FF FF FF FF FF
    4.200000 1  0CF00400x       Rx   d 8 00 8B FE 13 FF FF FF FF
    4.200000 1  0CF00300x       Rx   d 8 00 00 0E FF FF FF FF FF
    4.200000 1  18FEF100x       Rx   d 8 FF 00 00 00 00 00 FF FF
    4.200000 1  18FEF200x       Rx   d 8 33 00 FF FF FF FF FF FF
    4.300000 1  0CF00400x       Rx   d 8 00 8D FF 13 FF FF FF FF
    4.300000 1  0CF00300x       Rx   d 8 00 00 10 FF FF FF FF FF
    4.300000 1  18FEF100x       Rx   d 8 FF 00 00 00 00 00 FF FF
    4.300000 1  18FEF200x       Rx   d 8 39 00 FF FF FF FF FF FF
    4.400000 1  0CF00400x       Rx   d 8 00 8C 12 14 FF FF FF FF
    4.400000 1  0CF00300x       Rx   d 8 00 00 0F FF FF FF FF FF
    4.400000 1  18FEF100x       Rx   d 8 FF 00 00 00 00 00 FF FF
    4.400000 1  18FEF200x       Rx   d 8 3F 00 FF FF FF FF FF FF
    4.500000 1  0CF00400x       Rx   d 8 00 8B 22 14 FF FF FF FF
    4.500000 1  0CF00300x       Rx   d 8 00 00 0E FF FF FF FF FF
    4.500000 1  18FEF100x       Rx   d 8 FF 00 00 00 00 00 FF FF
    4.500000 1  18FEF200x       Rx   d 8 34 00 FF FF FF FF FF FF
    4.500000 1  18FEF600x       Rx   d 8 FF 33 3C FF FF FF FF FF
    4.500000 1  18FEEF00x       Rx   d 8 FF FF FF 34 FF FF FF FF
    4.600000 1  0CF00400x       Rx   d 8 00 8C 1A 14 FF FF FF FF
    4.600000 1  0CF00300x       Rx   d 8 00 00 0F FF FF FF FF FF
    4.600000 1  18FEF100x       Rx   d 8 FF 00 00 00 00 00 FF FF
    4.600000 1  18FEF200x       Rx   d 8 40 00 FF FF FF FF FF FF
    4.700000 1  0CF00400x       Rx   d 8 00 8B 24 14 FF FF FF FF
    4.700000 1  0CF00300x       Rx   d 8 00 00 0E FF FF FF FF FF
    4.700000 1  18FEF100x       Rx   d 8 FF 00 00 00 00 00 FF FF
    4.700000 1  18FEF200x       Rx   d 8 42 00 FF FF FF FF FF FF
    4.800000 1  0CF00400x       Rx   d 8 00 8B 26 14 FF FF FF FF
    4.800000 1  0CF00300x       Rx   d 8 00 00 0E FF FF FF FF FF
    4.800000 1  18FEF100x       Rx   d 8 FF 00 00 00 00 00 FF FF
    4.800000 1  18FEF200x       Rx   d 8 3E 00 FF FF FF FF FF FF
    4.900000 1  0CF00400x       Rx   d 8 00 8C 32 14 FF FF FF FF
    4.900000 1  0CF00300x       Rx   d 8 00 00 0F FF FF FF FF FF
    4.900000 1  18FEF100x       Rx   d 8 FF 00 00 00 00 00 FF FF
    4.900000 1  18FEF200x       Rx   d 8 33 00 FF FF FF FF FF FF
    5.000000 1  0CF00400x       Rx   d 8 00 8C 41 14 FF FF FF FF
    5.000000 1  0CF00300x       Rx   d 8 00 00 0F FF FF FF FF FF
    5.000000 1  18FEF100x       Rx   d 8 FF 00 00 00 00 00 FF FF
    5.000000 1  18FEF200x       Rx   d 8 34 00 FF FF FF FF FF FF
    5.000000 1  18FEF600x       Rx   d 8 FF 33 3C FF FF FF FF FF
    5.000000 1  18FEEF00x       Rx   d 8 FF FF FF 32 FF FF FF FF
    5.000000 1  18FEEE00x       Rx   d 9 3C 3C 0A 24 FF FF FF 00 FF
    5.000000 1  18FEF700x       Rx   d 8 FF FF FF FF FF FF 11 01
    5.000000 1  18FEF803x       Rx   d 8 FF FF FF FF 6A 23 FF FF
    5.000000 1  18FEFC00x       Rx   d 8 FF F9 FF FF FF FF FF FF
    5.000000 1  18FEF500x       Rx   d 9 CA FF FF A0 24 FF FF FF FF
    5.000000 1  18F00503x       Rx   d 8 7D FF FF 7D FF FF FF FF
    5.100000 1  0CF00400x       Rx   d 8 00 8D 3D 14 FF FF FF FF
    5.100000 1  0CF00300x       Rx   d 8 00 00 10 FF FF FF FF FF
    5.100000 1  18FEF100x       Rx   d 8 FF 00 00 00 00 00 FF FF
    5.100000 1  18FEF200x       Rx   d 8 43 00 FF FF FF FF FF FF
    5.200000 1  0CF00400x       Rx   d 8 00 8A 37 14 FF FF FF FF
    5.200000 1  0CF00300x       Rx   d 8 00 00 0D FF FF FF FF FF
    5.200000 1  18FEF100x       Rx   d 8 FF 00 00 00 00 00 FF FF
    5.200000 1  18FEF200x       Rx   d 8 3A 00 FF FF FF FF FF FF
    5.300000 1  0CF00400x       Rx   d 8 00 8D 2E 14 FF FF FF FF
    5.300000 1  0CF00300x       Rx   d 8 00 00 10 FF FF FF FF FF
    5.300000 1  18FEF100x       Rx   d 8 FF 00 00 00 00 00 FF FF
    5.300000 1  18FEF200x       Rx   d 8 42 00 FF FF FF FF FF FF
    5.400000 1  0CF00400x       Rx   d 8 00 8C 22 14 FF FF FF FF
    5.400000 1  0CF00300x       Rx   d 8 00 00 0F FF FF FF FF FF
    5.400000 1  18FEF100x       Rx   d 8 FF 00 00 00 00 00 FF FF
    5.400000 1  18FEF200x       Rx   d 8 42 00 FF FF FF FF FF FF
    5.500000 1  0CF00400x       Rx   d 8 00 8B 31 14 FF FF FF FF
    5.500000 1  0CF00300x       Rx   d 8 00 00 0E FF FF FF FF FF
    5.500000 1  18FEF100x       Rx   d 8 FF 00 00 00 00 00 FF FF
    5.500000 1  18FEF200x       Rx   d 8 43 00 FF FF FF FF FF FF
    5.500000 1  18FEF600x       Rx   d 8 FF 33 3C FF FF FF FF FF
    5.500000 1  18FEEF00x       Rx   d 8 FF FF FF 30 FF FF FF FF
    5.600000 1  0CF00400x       Rx   d 8 00 8D 2B 14 FF FF FF FF
    5.600000 1  0CF00300x       Rx   d 8 00 00 10 FF FF FF FF FF
    5.600000 1  18FEF100x       Rx   d 8 FF 00 00 00 00 00 FF FF
    5.600000 1  18FEF200x       Rx   d 8 41 00 FF FF FF FF FF FF
    5.700000 1  0CF00400x       Rx   d 8 00 8A 1F 14 FF FF FF FF
    5.700000 1  0CF00300x       Rx   d 8 00 00 0D FF FF FF FF FF
    5.700000 1  18FEF100x       Rx   d 8 FF 00 00 00 00 00 FF FF
    5.700000 1  18FEF200x       Rx   d 8 45 00 FF FF FF FF FF FF
    5.800000 1  0CF00400x       Rx   d 8 00 8B 29 14 FF FF FF FF
    5.800000 1  0CF00300x       Rx   d 8 00 00 0E FF FF FF FF FF
    5.800000 1  18FEF100x       Rx   d 8 FF 00 00 00 00 00 FF FF
    5.800000 1  18FEF200x       Rx   d 8 44 00 FF FF FF FF FF FF
    5.900000 1  0CF00400x       Rx   d 8 00 8A 3C 14 FF FF FF FF
    5.900000 1  0CF00300x       Rx   d 8 00 00 0D FF FF FF FF FF
    5.900000 1  18FEF100x       Rx   d 8 FF 00 00 00 00 00 FF FF
    5.900000 1  18FEF200x       Rx   d 8 34 00 FF FF FF FF FF FF
    6.000000 1  0CF00400x       Rx   d 8 00 8B 45 14 FF FF FF FF
    6.000000 1  0CF00300x       Rx   d 8 00 00 0E FF FF FF FF FF
    6.000000 1  18FEF100x       Rx   d 8 FF 00 00 00 00 00 FF FF
    6.000000 1  18FEF200x       Rx   d 8 39 00 FF FF FF FF FF FF
    6.000000 1  18FEF600x       Rx   d 8 FF 33 3C FF FF FF FF FF
    6.000000 1  18FEEF00x       Rx   d 8 FF FF FF 32 FF FF FF FF
    6.000000 1  18FEEE00x       Rx   d 9 3C 3C 0C 24 FF FF FF 00 FF
    6.000000 1  18FEF700x       Rx   d 8 FF FF FF FF FF FF 14 01
    6.000000 1  18FEF803x       Rx   d 8 FF FF FF FF 6C 23 FF FF
    6.000000 1  18FEFC00x       Rx   d 8 FF F9 FF FF FF FF FF FF
    6.000000 1  18FEF500x       Rx   d 9 CA FF FF A0 24 FF FF FF FF
    6.000000 1  18F00503x       Rx   d 8 7D FF FF 7D FF FF FF FF
    6.100000 1  0CF00400x       Rx   d 8 00 8C 3E 14 FF FF FF FF
    6.100000 1  0CF00300x       Rx   d 8 00 00 0F FF FF FF FF FF
    6.100000 1  18FEF100x       Rx   d 8 FF 00 00 00 00 00 FF FF
    6.100000 1  18FEF200x       Rx   d 8 3C 00 FF FF FF FF FF FF
    6.200000 1  0CF00400x       Rx   d 8 00 8C 48 14 FF FF FF FF
    6.200000 1  0CF00300x       Rx   d 8 00 00 0F FF FF FF FF FF
    6.200000 1  18FEF100x       Rx   d 8 FF 00 00 00 00 00 FF FF
    6.200000 1  18FEF200x       Rx   d 8 3F 00 FF FF FF FF FF FF
    6.300000 1  0CF00400x       Rx   d 8 00 8D 42 14 FF FF FF FF
    6.300000 1  0CF00300x       Rx   d 8 00 00 10 FF FF FF FF FF
    6.300000 1  18FEF100x       Rx   d 8 FF 00 00 00 00 00 FF FF
    6.300000 1  18FEF200x       Rx   d 8 38 00 FF FF FF FF FF FF
    6.400000 1  0CF00400x       Rx   d 8 00 8B 41 14 FF FF FF FF
    6.400000 1  0CF00300x       Rx   d 8 00 00 0E FF FF FF FF FF
    6.400000 1  18FEF100x       Rx   d 8 FF 00 00 00 00 00 FF FF
    6.400000 1  18FEF200x       Rx   d 8 44 00 FF FF FF FF FF FF
    6.500000 1  0CF00400x       Rx   d 8 00 8C 4F 14 FF FF FF FF
    6.500000 1  0CF00300x       Rx   d 8 00 00 0F FF FF FF FF FF
    6.500000 1  18FEF100x       Rx   d 8 FF 00 00 00 00 00 FF FF
    6.500000 1  18FEF200x       Rx   d 8 32 00 FF FF FF FF FF FF
    6.500000 1  18FEF600x       Rx   d 8 FF 32 3C FF FF FF FF FF
    6.500000 1  18FEEF00x       Rx   d 8 FF FF FF 32 FF FF FF FF
    6.600000 1  0CF00400x       Rx   d 8 00 8C 4D 14 FF FF FF FF
    6.600000 1  0CF00300x       Rx   d 8 00 00 0F FF FF FF FF FF
    6.600000 1  18FEF100x       Rx   d 8 FF 00 00 00 00 00 FF FF
    6.600000 1  18FEF200x       Rx   d 8 3A 00 FF FF FF FF FF FF
    6.700000 1  0CF00400x       Rx   d 8 00 8D 4C 14 FF FF FF FF
    6.700000 1  0CF00300x       Rx   d 8 00 00 10 FF FF FF FF FF
    6.700000 1  18FEF100x       Rx   d 8 FF 00 00 00 00 00 FF FF
    6.700000 1  18FEF200x       Rx   d 8 33 00 FF FF FF FF FF FF
    6.800000 1  0CF00400x       Rx   d 8 00 8B 51 14 FF FF FF FF
    6.800000 1  0CF00300x       Rx   d 8 00 00 0E FF FF FF FF FF
    6.800000 1  18FEF100x       Rx   d 8 FF 00 00 00 00 00 FF FF
    6.800000 1  18FEF200x       Rx   d 8 3F 00 FF FF FF FF FF FF
    6.900000 1  0CF00400x       Rx   d 8 00 8A 47 14 FF FF FF FF
    6.900000 1  0CF00300x       Rx   d 8 00 00 0D FF FF FF FF FF
    6.900000 1  18FEF100x       Rx   d 8 FF 00 00 00 00 00 FF FF
    6.900000 1  18FEF200x       Rx   d 8 42 00 FF FF FF FF FF FF
    7.000000 1  0CF00400x       Rx   d 8 00 8C 45 14 FF FF FF FF
    7.000000 1  0CF00300x       Rx   d 8 00 00 0F FF FF FF FF FF
    7.000000 1  18FEF100x       Rx   d 8 FF 00 00 00 00 00 FF FF
    7.000000 1  18FEF200x       Rx   d 8 3B 00 FF FF FF FF FF FF
    7.000000 1  18FEF600x       Rx   d 8 FF 32 3C FF FF FF FF FF
    7.000000 1  18FEEF00x       Rx   d 8 FF FF FF 32 FF FF FF FF
    7.000000 1  18FEEE00x       Rx   d 9 3C 3C 0E 24 FF FF FF 00 FF
    7.000000 1  18FEF700x       Rx   d 8 FF FF FF FF FF FF 11 01
    7.000000 1  18FEF803x       Rx   d 8 FF FF FF FF 6E 23 FF FF
    7.000000 1  18FEFC00x       Rx   d 8 FF F9 FF FF FF FF FF FF
    7.000000 1  18FEF500x       Rx   d 9 CA FF FF A0 24 FF FF FF FF
    7.000000 1  18F00503x       Rx   d 8 7D FF FF 7D FF FF FF FF
    7.100000 1  0CF00400x       Rx   d 8 00 8A 4B 14 FF FF FF FF
    7.100000 1  0CF00300x       Rx   d 8 00 00 0D FF FF FF FF FF
    7.100000 1  18FEF100x       Rx   d 8 FF 00 00 00 00 00 FF FF
    7.100000 1  18FEF200x       Rx   d 8 34 00 FF FF FF FF FF FF
    7.200000 1  0CF00400x       Rx   d 8 00 8D 41 14 FF FF FF FF
    7.200000 1  0CF00300x       Rx   d 8 00 00 10 FF FF FF FF FF
    7.200000 1  18FEF100x       Rx   d 8 FF 00 00 00 00 00 FF FF
    7.200000 1  18FEF200x       Rx   d 8 36 00 FF FF FF FF FF FF
    7.300000 1  0CF00400x       Rx   d 8 00 8D 41 14 FF FF FF FF
    7.300000 1  0CF00300x       Rx   d 8 00 00 10 FF FF FF FF FF
    7.300000 1  18FEF100x       Rx   d 8 FF 00 00 00 00 00 FF FF
    7.300000 1  18FEF200x       Rx   d 8 3D 00 FF FF FF FF FF FF
    7.400000 1  0CF00400x       Rx   d 8 00 8C 4F 14 FF FF FF FF
    7.400000 1  0CF00300x       Rx   d 8 00 00 0F FF FF FF FF FF
    7.400000 1  18FEF100x       Rx   d 8 FF 00 00 00 00 00 FF FF
    7.400000 1  18FEF200x       Rx   d 8 42 00 FF FF FF FF FF FF
    7.500000 1  0CF00400x       Rx   d 8 00 8C 5C 14 FF FF FF FF
    7.500000 1  0CF00300x       Rx   d 8 00 00 0F FF FF FF FF FF
    7.500000 1  18FEF100x       Rx   d 8 FF 00 00 00 00 00 FF FF
    7.500000 1  18FEF200x       Rx   d 8 36 00 FF FF FF FF FF FF
    7.500000 1  18FEF600x       Rx   d 8 FF 32 3C FF FF FF FF FF
    7.500000 1  18FEEF00x       Rx   d 8 FF FF FF 30 FF FF FF FF
    7.600000 1  0CF00400x       Rx   d 8 00 8C 63 14 FF FF FF FF
    7.600000 1  0CF00300x       Rx   d 8 00 00 0F FF FF FF FF FF
    7.600000 1  18FEF100x       Rx   d 8 FF 00 00 00 00 00 FF FF
    7.600000 1  18FEF200x       Rx   d 8 33 00 FF FF FF FF FF FF
    7.700000 1  0CF00400x       Rx   d 8 00 8B 5A 14 FF FF FF FF
    7.700000 1  0CF00300x       Rx   d 8 00 00 0E FF FF FF FF FF
    7.700000 1  18FEF100x       Rx   d 8 FF 00 00 00 00 00 FF FF
    7.700000 1  18FEF200x       Rx   d 8 36 00 FF FF FF FF FF FF
    7.800000 1  0CF00400x       Rx   d 8 00 8A 5F 14 FF FF FF FF
    7.800000 1  0CF00300x       Rx   d 8 00 00 0D FF FF FF FF FF
    7.800000 1  18FEF100x       Rx   d 8 FF 00 00 00 00 00 FF FF
    7.800000 1  18FEF200x       Rx   d 8 3A 00 FF FF FF FF FF FF
    7.900000 1  0CF00400x       Rx   d 8 00 8D 5B 14 FF FF FF FF
    7.900000 1  0CF00300x       Rx   d 8 00 00 10 FF FF FF FF FF
    7.900000 1  18FEF100x       Rx   d 8 FF 00 00 00 00 00 FF FF
    7.900000 1  18FEF200x       Rx   d 8 43 00 FF FF FF FF FF FF
    8.000000 1  0CF00400x       Rx   d 8 00 8A 56 14 FF FF FF FF
    8.000000 1  0CF00300x       Rx   d 8 00 00 0D FF FF FF FF FF
    8.000000 1  18FEF100x       Rx   d 8 FF 00 00 00 00 00 FF FF
    8.000000 1  18FEF200x       Rx   d 8 43 00 FF FF FF FF FF FF
    8.000000 1  18FEF600x       Rx   d 8 FF 32 3C FF FF FF FF FF
    8.000000 1  18FEEF00x       Rx   d 8 FF FF FF 33 FF FF FF FF
    8.000000 1  18FEEE00x       Rx   d 9 3C 3C 10 24 FF FF FF 00 FF
    8.000000 1  18FEF700x       Rx   d 8 FF FF FF FF FF FF 17 01
    8.000000 1  18FEF803x       Rx   d 8 FF FF FF FF 70 23 FF FF
    8.000000 1  18FEFC00x       Rx   d 8 FF F9 FF FF FF FF FF FF
    8.000000 1  18FEF500x       Rx   d 9 CA FF FF A0 24 FF FF FF FF
    8.000000 1  18F00503x       Rx   d 8 7D FF FF 7D FF FF FF FF
    8.100000 1  0CF00400x       Rx   d 8 00 8C 53 14 FF FF FF FF
    8.100000 1  0CF00300x       Rx   d 8 00 00 0F FF FF FF FF FF
    8.100000 1  18FEF100x       Rx   d 8 FF 00 00 00 00 00 FF FF
    8.100000 1  18FEF200x       Rx   d 8 36 00 FF FF FF FF FF FF
    8.200000 1  0CF00400x       Rx   d 8 00 8A 51 14 FF FF FF FF
    8.200000 1  0CF00300x       Rx   d 8 00 00 0D FF FF FF FF FF
    8.200000 1  18FEF100x       Rx   d 8 FF 00 00 00 00 00 FF FF
    8.200000 1  18FEF200x       Rx   d 8 3A 00 FF FF FF FF FF FF
    8.300000 1  0CF00400x       Rx   d 8 00 8A 4F 14 FF FF FF FF
    8.300000 1  0CF00300x       Rx   d 8 00 00 0D FF FF FF FF FF
    8.300000 1  18FEF100x       Rx   d 8 FF 00 00 00 00 00 FF FF
    8.300000 1  18FEF200x       Rx   d 8 39 00 FF FF FF FF FF FF
    8.400000 1  0CF00400x       Rx   d 8 00 8C 40 14 FF FF FF FF
    8.400000 1  0CF00300x       Rx   d 8 00 00 0F FF FF FF FF FF
    8.400000 1  18FEF100x       Rx   d 8 FF 00 00 00 00 00 FF FF
    8.400000 1  18FEF200x       Rx   d 8 33 00 FF FF FF FF FF FF
    8.500000 1  0CF00400x       Rx   d 8 00 8B 39 14 FF FF FF FF
    8.500000 1  0CF00300x       Rx   d 8 00 00 0E FF FF FF FF FF
    8.500000 1  18FEF100x       Rx   d 8 FF 00 00 00 00 00 FF FF
    8.500000 1  18FEF200x       Rx   d 8 41 00 FF FF FF FF FF FF
    8.500000 1  18FEF600x       Rx   d 8 FF 33 3C FF FF FF FF FF
    8.500000 1  18FEEF00x       Rx   d 8 FF FF FF 31 FF FF FF FF
    8.600000 1  0CF00400x       Rx   d 8 00 8A 33 14 FF FF FF FF
    8.600000 1  0CF00300x       Rx   d 8 00 00 0D FF FF FF FF FF
    8.600000 1  18FEF100x       Rx   d 8 FF 00 00 00 00 00 FF FF
    8.600000 1  18FEF200x       Rx   d 8 45 00 FF FF FF FF FF FF
    8.700000 1  0CF00400x       Rx   d 8 00 8D 3B 14 FF FF FF FF
    8.700000 1  0CF00300x       Rx   d 8 00 00 10 FF FF FF FF FF
    8.700000 1  18FEF100x       Rx   d 8 FF 00 00 00 00 00 FF FF
    8.700000 1  18FEF200x       Rx   d 8 44 00 FF FF FF FF FF FF
    8.800000 1  0CF00400x       Rx   d 8 00 8A 2D 14 FF FF FF FF
    8.800000 1  0CF00300x       Rx   d 8 00 00 0D FF FF FF FF FF
    8.800000 1  18FEF100x       Rx   d 8 FF 00 00 00 00 00 FF FF
    8.800000 1  18FEF200x       Rx   d 8 3D 00 FF FF FF FF FF FF
    8.900000 1  0CF00400x       Rx   d 8 00 8D 37 14 FF FF FF FF
    8.900000 1  0CF00300x       Rx   d 8 00 00 10 FF FF FF FF FF
    8.900000 1  18FEF100x       Rx   d 8 FF 00 00 00 00 00 FF FF
    8.900000 1  18FEF200x       Rx   d 8 40 00 FF FF FF FF FF FF
    9.000000 1  0CF00400x       Rx   d 8 00 8D 44 14 FF FF FF FF
    9.000000 1  0CF00300x       Rx   d 8 00 00 10 FF FF FF FF FF
    9.000000 1  18FEF100x       Rx   d 8 FF 00 00 00 00 00 FF FF
    9.000000 1  18FEF200x       Rx   d 8 38 00 FF FF FF FF FF FF
    9.000000 1  18FEF600x       Rx   d 8 FF 32 3C FF FF FF FF FF
    9.000000 1  18FEEF00x       Rx   d 8 FF FF FF 2F FF FF FF FF
    9.000000 1  18FEEE00x       Rx   d 9 3C 3C 12 24 FF FF FF 00 FF
    9.000000 1  18FEF700x       Rx   d 8 FF FF FF FF FF FF 15 01
    9.000000 1  18FEF803x       Rx   d 8 FF FF FF FF 72 23 FF FF
    9.000000 1  18FEFC00x       Rx   d 8 FF F9 FF FF FF FF FF FF
    9.000000 1  18FEF500x       Rx   d 9 CA FF FF A0 24 FF FF FF FF
    9.000000 1  18F00503x       Rx   d 8 7D FF FF 7D FF FF FF FF
    9.100000 1  0CF00400x       Rx   d 8 00 8B 54 14 FF FF FF FF
    9.100000 1  0CF00300x       Rx   d 8 00 00 0E FF FF FF FF FF
    9.100000 1  18FEF100x       Rx   d 8 FF 00 00 00 00 00 FF FF
    9.100000 1  18FEF200x       Rx   d 8 3F 00 FF FF FF FF FF FF
    9.200000 1  0CF00400x       Rx   d 8 00 8D 47 14 FF FF FF FF
    9.200000 1  0CF00300x       Rx   d 8 00 00 10 FF FF FF FF FF
    9.200000 1  18FEF100x       Rx   d 8 FF 00 00 00 00 00 FF FF
    9.200000 1  18FEF200x       Rx   d 8 34 00 FF FF FF FF FF FF
    9.300000 1  0CF00400x       Rx   d 8 00 8B 50 14 FF FF FF FF
    9.300000 1  0CF00300x       Rx   d 8 00 00 0E FF FF FF FF FF
    9.300000 1  18FEF100x       Rx   d 8 FF 00 00 00 00 00 FF FF
    9.300000 1  18FEF200x       Rx   d 8 3C 00 FF FF FF FF FF FF
    9.400000 1  0CF00400x       Rx   d 8 00 8D 5C 14 FF FF FF FF
    9.400000 1  0CF00300x       Rx   d 8 00 00 10 FF FF FF FF FF
    9.400000 1  18FEF100x       Rx   d 8 FF 00 00 00 00 00 FF FF
    9.400000 1  18FEF200x       Rx   d 8 3E 00 FF FF FF FF FF FF
    9.500000 1  0CF00400x       Rx   d 8 00 8B 61 14 FF FF FF FF
    9.500000 1  0CF00300x       Rx   d 8 00 00 0E FF FF FF FF FF
    9.500000 1  18FEF100x       Rx   d 8 FF 00 00 00 00 00 FF FF
    9.500000 1  18FEF200x       Rx   d 8 37 00 FF FF FF FF FF FF
    9.500000 1  18FEF600x       Rx   d 8 FF 33 3C FF FF FF FF FF
    9.500000 1  18FEEF00x       Rx   d 8 FF FF FF 34 FF FF FF FF
    9.600000 1  0CF00400x       Rx   d 8 00 8B 60 14 FF FF FF FF
    9.600000 1  0CF00300x       Rx   d 8 00 00 0E FF FF FF FF FF
    9.600000 1  18FEF100x       Rx   d 8 FF 00 00 00 00 00 FF FF
    9.600000 1  18FEF200x       Rx   d 8 37 00 FF FF FF FF FF FF
    9.700000 1  0CF00400x       Rx   d 8 00 8A 69 14 FF FF FF FF
    9.700000 1  0CF00300x       Rx   d 8 00 00 0D FF FF FF FF FF
    9.700000 1  18FEF100x       Rx   d 8 FF 00 00 00 00 00 FF FF
    9.700000 1  18FEF200x       Rx   d 8 3B 00 FF FF FF FF FF FF
    9.800000 1  0CF00400x       Rx   d 8 00 8A 63 14 FF FF FF FF
    9.800000 1  0CF00300x       Rx   d 8 00 00 0D FF FF FF FF FF
    9.800000 1  18FEF100x       Rx   d 8 FF 00 00 00 00 00 FF FF
    9.800000 1  18FEF200x       Rx   d 8 36 00 FF FF FF FF FF FF
    9.900000 1  0CF00400x       Rx   d 8 00 8D 5C 14 FF FF FF FF
    9.900000 1  0CF00300x       Rx   d 8 00 00 10 FF FF FF FF FF
    9.900000 1  18FEF100x       Rx   d 8 FF 00 00 00 00 00 FF FF
    9.900000 1  18FEF200x       Rx   d 8 32 00 FF FF FF FF FF FF
   10.000000 1  0CF00400x       Rx   d 8 00 8C 4D 14 FF FF FF FF
   10.000000 1  0CF00300x       Rx   d 8 00 00 0F FF FF FF FF FF
   10.000000 1  18FEF100x       Rx   d 8 FF 00 00 00 00 00 FF FF
   10.000000 1  18FEF200x       Rx   d 8 3F 00 FF FF FF FF FF FF
   10.000000 1  18FEF600x       Rx   d 8 FF 32 3C FF FF FF FF FF
   10.000000 1  18FEEF00x       Rx   d 8 FF FF FF 33 FF FF FF FF
   10.000000 1  18FEEE00x       Rx   d 9 3C 3C 14 24 FF FF FF 00 FF
   10.000000 1  18FEF700x       Rx   d 8 FF FF FF FF FF FF 15 01
   10.000000 1  18FEF803x       Rx   d 8 FF FF FF FF 74 23 FF FF
   10.000000 1  18FEFC00x       Rx   d 8 FF F9 FF FF FF FF FF FF
   10.000000 1  18FEF500x       Rx   d 9 CA FF FF A0 24 FF FF FF FF
   10.000000 1  18F00503x       Rx   d 8 7D FF FF 7D FF FF FF FF
   10.000000 1  18FEE500x       Rx   d 8 40 0D 03 00 FF FF FF FF
   10.100000 1  0CF00400x       Rx   d 8 00 8D 4D 14 FF FF FF FF
   10.100000 1  0CF00300x       Rx   d 8 00 00 10 FF FF FF FF FF
   10.100000 1  18FEF100x       Rx   d 8 FF 00 00 00 00 00 FF FF
   10.100000 1  18FEF200x       Rx   d 8 3F 00 FF FF FF FF FF FF
   10.200000 1  0CF00400x       Rx   d 8 00 8B 50 14 FF FF FF FF
   10.200000 1  0CF00300x       Rx   d 8 00 00 0E FF FF FF FF FF
   10.200000 1  18FEF100x       Rx   d 8 FF 00 00 00 00 00 FF FF
   10.200000 1  18FEF200x       Rx   d 8 40 00 FF FF FF FF FF FF
   10.300000 1  0CF00400x       Rx   d 8 00 8B 57 14 FF FF FF FF
   10.300000 1  0CF00300x       Rx   d 8 00 00 0E FF FF FF FF FF
   10.300000 1  18FEF100x       Rx   d 8 FF 00 00 00 00 00 FF FF
   10.300000 1  18FEF200x       Rx   d 8 35 00 FF FF FF FF FF FF
   10.400000 1  0CF00400x       Rx   d 8 00 8D 57 14 FF FF FF FF
   10.400000 1  0CF00300x       Rx   d 8 00 00 10 FF FF FF FF FF
   10.400000 1  18FEF100x       Rx   d 8 FF 00 00 00 00 00 FF FF
   10.400000 1  18FEF200x       Rx   d 8 3B 00 FF FF FF FF FF FF
   10.500000 1  0CF00400x       Rx   d 8 00 8C 65 14 FF FF FF FF
   10.500000 1  0CF00300x       Rx   d 8 00 00 0F FF FF FF FF FF
   10.500000 1  18FEF100x       Rx   d 8 FF 00 00 00 00 00 FF FF
   10.500000 1  18FEF200x       Rx   d 8 35 00 FF FF FF FF FF FF
   10.500000 1  18FEF600x       Rx   d 8 FF 32 3C FF FF FF FF FF
   10.500000 1  18FEEF00x       Rx   d 8 FF FF FF 30 FF FF FF FF
   10.600000 1  0CF00400x       Rx   d 8 00 8A 59 14 FF FF FF FF
   10.600000 1  0CF00300x       Rx   d 8 00 00 0D FF FF FF FF FF
   10.600000 1  18FEF100x       Rx   d 8 FF 00 00 00 00 00 FF FF
   10.600000 1  18FEF200x       Rx   d 8 45 00 FF FF FF FF FF FF
   10.700000 1  0CF00400x       Rx   d 8 00 8A 5E 14 FF FF FF FF
   10.700000 1  0CF00300x       Rx   d 8 00 00 0D FF FF FF FF FF
   10.700000 1  18FEF100x       Rx   d 8 FF 00 00 00 00 00 FF FF
   10.700000 1  18FEF200x       Rx   d 8 43 00 FF FF FF FF FF FF
   10.800000 1  0CF00400x       Rx   d 8 00 8B 5C 14 FF FF FF FF
   10.800000 1  0CF00300x       Rx   d 8 00 00 0E FF FF FF FF FF
   10.800000 1  18FEF100x       Rx   d 8 FF 00 00 00 00 00 FF FF
   10.800000 1  18FEF200x       Rx   d 8 44 00 FF FF FF FF FF FF
   10.900000 1  0CF00400x       Rx   d 8 00 8B 65 14 FF FF FF FF
   10.900000 1  0CF00300x       Rx   d 8 00 00 0E FF FF FF FF FF
   10.900000 1  18FEF100x       Rx   d 8 FF 00 00 00 00 00 FF FF
   10.900000 1  18FEF200x       Rx   d 8 33 00 FF FF FF FF FF FF
   11.000000 1  0CF00400x       Rx   d 8 00 8B 65 14 FF FF FF FF
   11.000000 1  0CF00300x       Rx   d 8 00 00 0E FF FF FF FF FF
   11.000000 1  18FEF100x       Rx   d 8 FF 00 00 00 00 00 FF FF
   11.000000 1  18FEF200x       Rx   d 8 41 00 FF FF FF FF FF FF
   11.000000 1  18FEF600x       Rx   d 8 FF 33 3C FF FF FF FF FF
   11.000000 1  18FEEF00x       Rx   d 8 FF FF FF 30 FF FF FF FF
   11.000000 1  18FEEE00x       Rx   d 9 3C 3C 16 24 FF FF FF 00 FF
   11.000000 1  18FEF700x       Rx   d 8 FF FF FF FF FF FF 14 01
   11.000000 1  18FEF803x       Rx   d 8 FF FF FF FF 76 23 FF FF
   11.000000 1  18FEFC00x       Rx   d 8 FF F9 FF FF FF FF FF FF
   11.000000 1  18FEF500x       Rx   d 9 CA FF FF A0 24 FF FF FF FF
   11.000000 1  18F00503x       Rx   d 8 7D FF FF 7D FF FF FF FF
   11.100000 1  0CF00400x       Rx   d 8 00 8A 6C 14 FF FF FF FF
   11.100000 1  0CF00300x       Rx   d 8 00 00 0D FF FF FF FF FF
   11.100000 1  18FEF100x       Rx   d 8 FF 00 00 00 00 00 FF FF
   11.100000 1  18FEF200x       Rx   d 8 3A 00 FF FF FF FF FF FF
   11.200000 1  0CF00400x       Rx   d 8 00 8B 79 14 FF FF FF FF
   11.200000 1  0CF00300x       Rx   d 8 00 00 0E FF FF FF FF FF
   11.200000 1  18FEF100x       Rx   d 8 FF 00 00 00 00 00 FF FF
   11.200000 1  18FEF200x       Rx   d 8 40 00 FF FF FF FF FF FF
   11.300000 1  0CF00400x       Rx   d 8 00 8A 6B 14 FF FF FF FF
   11.300000 1  0CF00300x       Rx   d 8 00 00 0D FF FF FF FF FF
   11.300000 1  18FEF100x       Rx   d 8 FF 00 00 00 00 00 FF FF
   11.300000 1  18FEF200x       Rx   d 8 35 00 FF FF FF FF FF FF
   11.400000 1  0CF00400x       Rx   d 8 00 8B 59 14 FF FF FF FF
   11.400000 1  0CF00300x       Rx   d 8 00 00 0E FF FF FF FF FF
   11.400000 1  18FEF100x       Rx   d 8 FF 00 00 00 00 00 FF FF
   11.400000 1  18FEF200x       Rx   d 8 36 00 FF FF FF FF FF FF
   11.500000 1  0CF00400x       Rx   d 8 00 8B 5E 14 FF FF FF FF
   11.500000 1  0CF00300x       Rx   d 8 00 00 0E FF FF FF FF FF
   11.500000 1  18FEF100x       Rx   d 8 FF 00 00 00 00 00 FF FF
   11.500000 1  18FEF200x       Rx   d 8 41 00 FF FF FF FF FF FF
   11.500000 1  18FEF600x       Rx   d 8 FF 33 3C FF FF FF FF FF
   11.500000 1  18FEEF00x       Rx   d 8 FF FF FF 34 FF FF FF FF
   11.600000 1  0CF00400x       Rx   d 8 00 8D 62 14 FF FF FF FF
   11.600000 1  0CF00300x       Rx   d 8 00 00 10 FF FF FF FF FF
   11.600000 1  18FEF100x       Rx   d 8 FF 00 00 00 00 00 FF FF
   11.600000 1  18FEF200x       Rx   d 8 3E 00 FF FF FF FF FF FF
   11.700000 1  0CF00400x       Rx   d 8 00 8A 6B 14 FF FF FF FF
   11.700000 1  0CF00300x       Rx   d 8 00 00 0D FF FF FF FF FF
   11.700000 1  18FEF100x       Rx   d 8 FF 00 00 00 00 00 FF FF
   11.700000 1  18FEF200x       Rx   d 8 40 00 FF FF FF FF FF FF
   11.800000 1  0CF00400x       Rx   d 8 00 8A 61 14 FF FF FF FF
   11.800000 1  0CF00300x       Rx   d 8 00 00 0D FF FF FF FF FF
   11.800000 1  18FEF100x       Rx   d 8 FF 00 00 00 00 00 FF FF
   11.800000 1  18FEF200x       Rx   d 8 44 00 FF FF FF FF FF FF
   11.900000 1  0CF00400x       Rx   d 8 00 8A 5F 14 FF FF FF FF
   11.900000 1  0CF00300x       Rx   d 8 00 00 0D FF FF FF FF FF
   11.900000 1  18FEF100x       Rx   d 8 FF 00 00 00 00 00 FF FF
   11.900000 1  18FEF200x       Rx   d 8 38 00 FF FF FF FF FF FF
   12.000000 1  0CF00400x       Rx   d 8 00 8D 50 14 FF FF FF FF
   12.000000 1  0CF00300x       Rx   d 8 00 00 10 FF FF FF FF FF
   12.000000 1  18FEF100x       Rx   d 8 FF 00 00 00 00 00 FF FF
   12.000000 1  18FEF200x       Rx   d 8 45 00 FF FF FF FF FF FF
   12.000000 1  18FEF600x       Rx   d 8 FF 33 3C FF FF FF FF FF
   12.000000 1  18FEEF00x       Rx   d 8 FF FF FF 32 FF FF FF FF
   12.000000 1  18FEEE00x       Rx   d 9 3C 3C 19 24 FF FF FF 00 FF
   12.000000 1  18FEF700x       Rx   d 8 FF FF FF FF FF FF 17 01
   12.000000 1  18FEF803x       Rx   d 8 FF FF FF FF 79 23 FF FF
   12.000000 1  18FEFC00x       Rx   d 8 FF F9 FF FF FF FF FF FF
   12.000000 1  18FEF500x       Rx   d 9 CA FF FF A0 24 FF FF FF FF
   12.000000 1  18F00503x       Rx   d 8 7D FF FF 7D FF FF FF FF
   12.100000 1  0CF00400x       Rx   d 8 00 8B 56 14 FF FF FF FF
   12.100000 1  0CF00300x       Rx   d 8 00 00 0E FF FF FF FF FF
   12.100000 1  18FEF100x       Rx   d 8 FF 00 00 00 00 00 FF FF
   12.100000 1  18FEF200x       Rx   d 8 3B 00 FF FF FF FF FF FF
   12.200000 1  0CF00400x       Rx   d 8 00 8A 63 14 FF FF FF FF
   12.200000 1  0CF00300x       Rx   d 8 00 00 0D FF FF FF FF FF
   12.200000 1  18FEF100x       Rx   d 8 FF 00 00 00 00 00 FF FF
   12.200000 1  18FEF200x       Rx   d 8 3B 00 FF FF FF FF FF FF
   12.300000 1  0CF00400x       Rx   d 8 00 8B 5C 14 FF FF FF FF
   12.300000 1  0CF00300x       Rx   d 8 00 00 0E FF FF FF FF FF
   12.300000 1  18FEF100x       Rx   d 8 FF 00 00 00 00 00 FF FF
   12.300000 1  18FEF200x       Rx   d 8 38 00 FF FF FF FF FF FF
   12.400000 1  0CF00400x       Rx   d 8 00 8D 54 14 FF FF FF FF
   12.400000 1  0CF00300x       Rx   d 8 00 00 10 FF FF FF FF FF
   12.400000 1  18FEF100x       Rx   d 8 FF 00 00 00 00 00 FF FF
   12.400000 1  18FEF200x       Rx   d 8 3B 00 FF FF FF FF FF FF
   12.500000 1  0CF00400x       Rx   d 8 00 8D 4E 14 FF FF FF FF
   12.500000 1  0CF00300x       Rx   d 8 00 00 10 FF FF FF FF FF
   12.500000 1  18FEF100x       Rx   d 8 FF 00 00 00 00 00 FF FF
   12.500000 1  18FEF200x       Rx   d 8 45 00 FF FF FF FF FF FF
   12.500000 1  18FEF600x       Rx   d 8 FF 32 3C FF FF FF FF FF
   12.500000 1  18FEEF00x       Rx   d 8 FF FF FF 32 FF FF FF FF
   12.600000 1  0CF00400x       Rx   d 8 00 8B 4F 14 FF FF FF FF
   12.600000 1  0CF00300x       Rx   d 8 00 00 0E FF FF FF FF FF
   12.600000 1  18FEF100x       Rx   d 8 FF 00 00 00 00 00 FF FF
   12.600000 1  18FEF200x       Rx   d 8 41 00 FF FF FF FF FF FF
   12.700000 1  0CF00400x       Rx   d 8 00 8A 58 14 FF FF FF FF
   12.700000 1  0CF00300x       Rx   d 8 00 00 0D FF FF FF FF FF
   12.700000 1  18FEF100x       Rx   d 8 FF 00 00 00 00 00 FF FF
   12.700000 1  18FEF200x       Rx   d 8 3A 00 FF FF FF FF FF FF
   12.800000 1  0CF00400x       Rx   d 8 00 8D 4B 14 FF FF FF FF
   12.800000 1  0CF00300x       Rx   d 8 00 00 10 FF FF FF FF FF
   12.800000 1  18FEF100x       Rx   d 8 FF 00 00 00 00 00 FF FF
   12.800000 1  18FEF200x       Rx   d 8 35 00 FF FF FF FF FF FF
   12.900000 1  0CF00400x       Rx   d 8 00 8A 4D 14 FF FF FF FF
   12.900000 1  0CF00300x       Rx   d 8 00 00 0D FF FF FF FF FF
   12.900000 1  18FEF100x       Rx   d 8 FF 00 00 00 00 00 FF FF
   12.900000 1  18FEF200x       Rx   d 8 3B 00 FF FF FF FF FF FF
   13.000000 1  0CF00400x       Rx   d 8 00 8B 58 14 FF FF FF FF
   13.000000 1  0CF00300x       Rx   d 8 00 00 0E FF FF FF FF FF
   13.000000 1  18FEF100x       Rx   d 8 FF 00 00 00 00 00 FF FF
   13.000000 1  18FEF200x       Rx   d 8 37 00 FF FF FF FF FF FF
   13.000000 1  18FEF600x       Rx   d 8 FF 33 3C FF FF FF FF FF
   13.000000 1  18FEEF00x       Rx   d 8 FF FF FF 32 FF FF FF FF
   13.000000 1  18FEEE00x       Rx   d 9 3C 3C 1B 24 FF FF FF 00 FF
   13.000000 1  18FEF700x       Rx   d 8 FF FF FF FF FF FF 16 01
   13.000000 1  18FEF803x       Rx   d 8 FF FF FF FF 7B 23 FF FF
   13.000000 1  18FEFC00x       Rx   d 8 FF F9 FF FF FF FF FF FF
   13.000000 1  18FEF500x       Rx   d 9 CA FF FF A0 24 FF FF FF FF
   13.000000 1  18F00503x       Rx   d 8 7D FF FF 7D FF FF FF FF
   13.100000 1  0CF00400x       Rx   d 8 00 8A 66 14 FF FF FF FF
   13.100000 1  0CF00300x       Rx   d 8 00 00 0D FF FF FF FF FF
   13.100000 1  18FEF100x       Rx   d 8 FF 00 00 00 00 00 FF FF
   13.100000 1  18FEF200x       Rx   d 8 44 00 FF FF FF FF FF FF
   13.200000 1  0CF00400x       Rx   d 8 00 8D 70 14 FF FF FF FF
   13.200000 1  0CF00300x       Rx   d 8 00 00 10 FF FF FF FF FF
   13.200000 1  18FEF100x       Rx   d 8 FF 00 00 00 00 00 FF FF
   13.200000 1  18FEF200x       Rx   d 8 3A 00 FF FF FF FF FF FF
   13.300000 1  0CF00400x       Rx   d 8 00 8D 6D 14 FF FF FF FF
   13.300000 1  0CF00300x       Rx   d 8 00 00 10 FF FF FF FF FF
   13.300000 1  18FEF100x       Rx   d 8 FF 00 00 00 00 00 FF FF
   13.300000 1  18FEF200x       Rx   d 8 3D 00 FF FF FF FF FF FF
   13.400000 1  0CF00400x       Rx   d 8 00 8A 6A 14 FF FF FF FF
   13.400000 1  0CF00300x       Rx   d 8 00 00 0D FF FF FF FF FF
   13.400000 1  18FEF100x       Rx   d 8 FF 00 00 00 00 00 FF FF
   13.400000 1  18FEF200x       Rx   d 8 3D 00 FF FF FF FF FF FF
   13.500000 1  0CF00400x       Rx   d 8 00 8B 66 14 FF FF FF FF
   13.500000 1  0CF00300x       Rx   d 8 00 00 0E FF FF FF FF FF
   13.500000 1  18FEF100x       Rx   d 8 FF 00 00 00 00 00 FF FF
   13.500000 1  18FEF200x       Rx   d 8 3D 00 FF FF FF FF FF FF
   13.500000 1  18FEF600x       Rx   d 8 FF 32 3C FF FF FF FF FF
   13.500000 1  18FEEF00x       Rx   d 8 FF FF FF 32 FF FF FF FF
   13.600000 1  0CF00400x       Rx   d 8 00 8A 6C 14 FF FF FF FF
   13.600000 1  0CF00300x       Rx   d 8 00 00 0D FF FF FF FF FF
   13.600000 1  18FEF100x       Rx   d 8 FF 00 00 00 00 00 FF FF
   13.600000 1  18FEF200x       Rx   d 8 42 00 FF FF FF FF FF FF
   13.700000 1  0CF00400x       Rx   d 8 00 8D 6F 14 FF FF FF FF
   13.700000 1  0CF00300x       Rx   d 8 00 00 10 FF FF FF FF FF
   13.700000 1  18FEF100x       Rx   d 8 FF 00 00 00 00 00 FF FF
   13.700000 1  18FEF200x       Rx   d 8 32 00 FF FF FF FF FF FF
   13.800000 1  0CF00400x       Rx   d 8 00 8D 6E 14 FF FF FF FF
   13.800000 1  0CF00300x       Rx   d 8 00 00 10 FF FF FF FF FF
   13.800000 1  18FEF100x       Rx   d 8 FF 00 00 00 00 00 FF FF
   13.800000 1  18FEF200x       Rx   d 8 3C 00 FF FF FF FF FF FF
   13.900000 1  0CF00400x       Rx   d 8 00 8B 72 14 FF FF FF FF
   13.900000 1  0CF00300x       Rx   d 8 00 00 0E FF FF FF FF FF
   13.900000 1  18FEF100x       Rx   d 8 FF 00 00 00 00 00 FF FF
   13.900000 1  18FEF200x       Rx   d 8 3B 00 FF FF FF FF FF FF
   14.000000 1  0CF00400x       Rx   d 8 00 8C 6A 14 FF FF FF FF
   14.000000 1  0CF00300x       Rx   d 8 00 00 0F FF FF FF FF FF
   14.000000 1  18FEF100x       Rx   d 8 FF 00 00 00 00 00 FF FF
   14.000000 1  18FEF200x       Rx   d 8 43 00 FF FF FF FF FF FF
   14.000000 1  18FEF600x       Rx   d 8 FF 33 3C FF FF FF FF FF
   14.000000 1  18FEEF00x       Rx   d 8 FF FF FF 33 FF FF FF FF
   14.000000 1  18FEEE00x       Rx   d 9 3C 3C 1D 24 FF FF FF 00 FF
   14.000000 1  18FEF700x       Rx   d 8 FF FF FF FF FF FF 16 01
   14.000000 1  18FEF803x       Rx   d 8 FF FF FF FF 7D 23 FF FF
   14.000000 1  18FEFC00x       Rx   d 8 FF F9 FF FF FF FF FF FF
   14.000000 1  18FEF500x       Rx   d 9 CA FF FF A0 24 FF FF FF FF
   14.000000 1  18F00503x       Rx   d 8 7D FF FF 7D FF FF FF FF
   14.100000 1  0CF00400x       Rx   d 8 00 8B 63 14 FF FF FF FF
   14.100000 1  0CF00300x       Rx   d 8 00 00 0E FF FF FF FF FF
   14.100000 1  18FEF100x       Rx   d 8 FF 00 00 00 00 00 FF FF
   14.100000 1  18FEF200x       Rx   d 8 43 00 FF FF FF FF FF FF
   14.200000 1  0CF00400x       Rx   d 8 00 8C 54 14 FF FF FF FF
   14.200000 1  0CF00300x       Rx   d 8 00 00 0F FF FF FF FF FF
   14.200000 1  18FEF100x       Rx   d 8 FF 00 00 00 00 00 FF FF
   14.200000 1  18FEF200x       Rx   d 8 40 00 FF FF FF FF FF FF
   14.300000 1  0CF00400x       Rx   d 8 00 8C 46 14 FF FF FF FF
   14.300000 1  0CF00300x       Rx   d 8 00 00 0F FF FF FF FF FF
   14.300000 1  18FEF100x       Rx   d 8 FF 00 00 00 00 00 FF FF
   14.300000 1  18FEF200x       Rx   d 8 3F 00 FF FF FF FF FF FF
   14.400000 1  0CF00400x       Rx   d 8 00 8D 39 14 FF FF FF FF
   14.400000 1  0CF00300x       Rx   d 8 00 00 10 FF FF FF FF FF
   14.400000 1  18FEF100x       Rx   d 8 FF 00 00 00 00 00 FF FF
   14.400000 1  18FEF200x       Rx   d 8 34 00 FF FF FF FF FF FF
   14.500000 1  0CF00400x       Rx   d 8 00 8D 3D 14 FF FF FF FF
   14.500000 1  0CF00300x       Rx   d 8 00 00 10 FF FF FF FF FF
   14.500000 1  18FEF100x       Rx   d 8 FF 00 00 00 00 00 FF FF
   14.500000 1  18FEF200x       Rx   d 8 43 00 FF FF FF FF FF FF
   14.500000 1  18FEF600x       Rx   d 8 FF 32 3C FF FF FF FF FF
   14.500000 1  18FEEF00x       Rx   d 8 FF FF FF 2F FF FF FF FF
   14.600000 1  0CF00400x       Rx   d 8 00 8D 37 14 FF FF FF FF
   14.600000 1  0CF00300x       Rx   d 8 00 00 10 FF FF FF FF FF
   14.600000 1  18FEF100x       Rx   d 8 FF 00 00 00 00 00 FF FF
   14.600000 1  18FEF200x       Rx   d 8 37 00 FF FF FF FF FF FF
   14.700000 1  0CF00400x       Rx   d 8 00 8D 29 14 FF FF FF FF
   14.700000 1  0CF00300x       Rx   d 8 00 00 10 FF FF FF FF FF
   14.700000 1  18FEF100x       Rx   d 8 FF 00 00 00 00 00 FF FF
   14.700000 1  18FEF200x       Rx   d 8 35 00 FF FF FF FF FF FF
   14.800000 1  0CF00400x       Rx   d 8 00 8C 28 14 FF FF FF FF
   14.800000 1  0CF00300x       Rx   d 8 00 00 0F FF FF FF FF FF
   14.800000 1  18FEF100x       Rx   d 8 FF 00 00 00 00 00 FF FF
   14.800000 1  18FEF200x       Rx   d 8 37 00 FF FF FF FF FF FF
   14.900000 1  0CF00400x       Rx   d 8 00 8B 23 14 FF FF FF FF
   14.900000 1  0CF00300x       Rx   d 8 00 00 0E FF FF FF FF FF
   14.900000 1  18FEF100x       Rx   d 8 FF 00 00 00 00 00 FF FF
   14.900000 1  18FEF200x       Rx   d 8 3D 00 FF FF FF FF FF FF
   15.000000 1  0CF00400x       Rx   d 8 00 8B 37 14 FF FF FF FF
   15.000000 1  0CF00300x       Rx   d 8 00 00 0E FF FF FF FF FF
   15.000000 1  18FEF100x       Rx   d 8 FF 00 00 00 00 00 FF FF
   15.000000 1  18FEF200x       Rx   d 8 37 00 FF FF FF FF FF FF
   15.000000 1  18FEF600x       Rx   d 8 FF 33 3C FF FF FF FF FF
   15.000000 1  18FEEF00x       Rx   d 8 FF FF FF 32 FF FF FF FF
   15.000000 1  18FEEE00x       Rx   d 9 3C 3C 1F 24 FF FF FF 00 FF
   15.000000 1  18FEF700x       Rx   d 8 FF FF FF FF FF FF 14 01
   15.000000 1  18FEF803x       Rx   d 8 FF FF FF FF 7F 23 FF FF
   15.000000 1  18FEFC00x       Rx   d 8 FF F9 FF FF FF FF FF FF
   15.000000 1  18FEF500x       Rx   d 9 CA FF FF A0 24 FF FF FF FF
   15.000000 1  18F00503x       Rx   d 8 7D FF FF 7D FF FF FF FF
   15.100000 1  0CF00400x       Rx   d 8 00 8C 3F 14 FF FF FF FF
   15.100000 1  0CF00300x       Rx   d 8 00 00 0F FF FF FF FF FF
   15.100000 1  18FEF100x       Rx   d 8 FF 00 00 00 00 00 FF FF
   15.100000 1  18FEF200x       Rx   d 8 3B 00 FF FF FF FF FF FF
   15.200000 1  0CF00400x       Rx   d 8 00 8D 3A 14 FF FF FF FF
   15.200000 1  0CF00300x       Rx   d 8 00 00 10 FF FF FF FF FF
   15.200000 1  18FEF100x       Rx   d 8 FF 00 00 00 00 00 FF FF
   15.200000 1  18FEF200x       Rx   d 8 3E 00 FF FF FF FF FF FF
   15.300000 1  0CF00400x       Rx   d 8 00 8C 42 14 FF FF FF FF
   15.300000 1  0CF00300x       Rx   d 8 00 00 0F FF FF FF FF FF
   15.300000 1  18FEF100x       Rx   d 8 FF 00 00 00 00 00 FF FF
   15.300000 1  18FEF200x       Rx   d 8 3E 00 FF FF FF FF FF FF
   15.400000 1  0CF00400x       Rx   d 8 00 8B 48 14 FF FF FF FF
   15.400000 1  0CF00300x       Rx   d 8 00 00 0E FF FF FF FF FF
   15.400000 1  18FEF100x       Rx   d 8 FF 00 00 00 00 00 FF FF
   15.400000 1  18FEF200x       Rx   d 8 40 00 FF FF FF FF FF FF
   15.500000 1  0CF00400x       Rx   d 8 00 8C 42 14 FF FF FF FF
   15.500000 1  0CF00300x       Rx   d 8 00 00 0F FF FF FF FF FF
   15.500000 1  18FEF100x       Rx   d 8 FF 00 00 00 00 00 FF FF
   15.500000 1  18FEF200x       Rx   d 8 3C 00 FF FF FF FF FF FF
   15.500000 1  18FEF600x       Rx   d 8 FF 32 3C FF FF FF FF FF
   15.500000 1  18FEEF00x       Rx   d 8 FF FF FF 30 FF FF FF FF
   15.600000 1  0CF00400x       Rx   d 8 00 8D 44 14 FF FF FF FF
   15.600000 1  0CF00300x       Rx   d 8 00 00 10 FF FF FF FF FF
   15.600000 1  18FEF100x       Rx   d 8 FF 00 00 00 00 00 FF FF
   15.600000 1  18FEF200x       Rx   d 8 42 00 FF FF FF FF FF FF
   15.700000 1  0CF00400x       Rx   d 8 00 8C 4F 14 FF FF FF FF
   15.700000 1  0CF00300x       Rx   d 8 00 00 0F FF FF FF FF FF
   15.700000 1  18FEF100x       Rx   d 8 FF 00 00 00 00 00 FF FF
   15.700000 1  18FEF200x       Rx   d 8 45 00 FF FF FF FF FF FF
   15.800000 1  0CF00400x       Rx   d 8 00 8D 5E 14 FF FF FF FF
   15.800000 1  0CF00300x       Rx   d 8 00 00 10 FF FF FF FF FF
   15.800000 1  18FEF100x       Rx   d 8 FF 00 00 00 00 00 FF FF
   15.800000 1  18FEF200x       Rx   d 8 45 00 FF FF FF FF FF FF
   15.900000 1  0CF00400x       Rx   d 8 00 8D 59 14 FF FF FF FF
   15.900000 1  0CF00300x       Rx   d 8 00 00 10 FF FF FF FF FF
   15.900000 1  18FEF100x       Rx   d 8 FF 00 00 00 00 00 FF FF
   15.900000 1  18FEF200x       Rx   d 8 3B 00 FF FF FF FF FF FF
   16.000000 1  0CF00400x       Rx   d 8 00 8C 5D 14 FF FF FF FF
   16.000000 1  0CF00300x       Rx   d 8 00 00 0F FF FF FF FF FF
   16.000000 1  18FEF100x       Rx   d 8 FF 00 00 00 00 00 FF FF
   16.000000 1  18FEF200x       Rx   d 8 34 00 FF FF FF FF FF FF
   16.000000 1  18FEF600x       Rx   d 8 FF 33 3C FF FF FF FF FF
   16.000000 1  18FEEF00x       Rx   d 8 FF FF FF 34 FF FF FF FF
   16.000000 1  18FEEE00x       Rx   d 9 3D 3C 21 24 FF FF FF 00 FF
   16.000000 1  18FEF700x       Rx   d 8 FF FF FF FF FF FF 11 01
   16.000000 1  18FEF803x       Rx   d 8 FF FF FF FF 81 23 FF FF
   16.000000 1  18FEFC00x       Rx   d 8 FF F9 FF FF FF FF FF FF
   16.000000 1  18FEF500x       Rx   d 9 CA FF FF A0 24 FF FF FF FF
   16.000000 1  18F00503x       Rx   d 8 7D FF FF 7D FF FF FF FF
   16.100000 1  0CF00400x       Rx   d 8 00 8D 4D 14 FF FF FF FF
   16.100000 1  0CF00300x       Rx   d 8 00 00 10 FF FF FF FF FF
   16.100000 1  18FEF100x       Rx   d 8 FF 00 00 00 00 00 FF FF
   16.100000 1  18FEF200x       Rx   d 8 36 00 FF FF FF FF FF FF
   16.200000 1  0CF00400x       Rx   d 8 00 8D 57 14 FF FF FF FF
   16.200000 1  0CF00300x       Rx   d 8 00 00 10 FF FF FF FF FF
   16.200000 1  18FEF100x       Rx   d 8 FF 00 00 00 00 00 FF FF
   16.200000 1  18FEF200x       Rx   d 8 34 00 FF FF FF FF FF FF
   16.300000 1  0CF00400x       Rx   d 8 00 8B 50 14 FF FF FF FF
   16.300000 1  0CF00300x       Rx   d 8 00 00 0E FF FF FF FF FF
   16.300000 1  18FEF100x       Rx   d 8 FF 00 00 00 00 00 FF FF
   16.300000 1  18FEF200x       Rx   d 8 34 00 FF FF FF FF FF FF
   16.400000 1  0CF00400x       Rx   d 8 00 8C 56 14 FF FF FF FF
   16.400000 1  0CF00300x       Rx   d 8 00 00 0F FF FF FF FF FF
   16.400000 1  18FEF100x       Rx   d 8 FF 00 00 00 00 00 FF FF
   16.400000 1  18FEF200x       Rx   d 8 40 00 FF FF FF FF FF FF
   16.500000 1  0CF00400x       Rx   d 8 00 8A 52 14 FF FF FF FF
   16.500000 1  0CF00300x       Rx   d 8 00 00 0D FF FF FF FF FF
   16.500000 1  18FEF100x       Rx   d 8 FF 00 00 00 00 00 FF FF
   16.500000 1  18FEF200x       Rx   d 8 45 00 FF FF FF FF FF FF
   16.500000 1  18FEF600x       Rx   d 8 FF 32 3C FF FF FF FF FF
   16.500000 1  18FEEF00x       Rx   d 8 FF FF FF 31 FF FF FF FF
   16.600000 1  0CF00400x       Rx   d 8 00 8B 4E 14 FF FF FF FF
   16.600000 1  0CF00300x       Rx   d 8 00 00 0E FF FF FF FF FF
   16.600000 1  18FEF100x       Rx   d 8 FF 00 00 00 00 00 FF FF
   16.600000 1  18FEF200x       Rx   d 8 33 00 FF FF FF FF FF FF
   16.700000 1  0CF00400x       Rx   d 8 00 8D 4F 14 FF FF FF FF
   16.700000 1  0CF00300x       Rx   d 8 00 00 10 FF FF FF FF FF
   16.700000 1  18FEF100x       Rx   d 8 FF 00 00 00 00 00 FF FF
   16.700000 1  18FEF200x       Rx   d 8 35 00 FF FF FF FF FF FF
   16.800000 1  0CF00400x       Rx   d 8 00 8B 5B 14 FF FF FF FF
   16.800000 1  0CF00300x       Rx   d 8 00 00 0E FF FF FF FF FF
   16.800000 1  18FEF100x       Rx   d 8 FF 00 00 00 00 00 FF FF
   16.800000 1  18FEF200x       Rx   d 8 3D 00 FF FF FF FF FF FF
   16.900000 1  0CF00400x       Rx   d 8 00 8A 63 14 FF FF FF FF
   16.900000 1  0CF00300x       Rx   d 8 00 00 0D FF FF FF FF FF
   16.900000 1  18FEF100x       Rx   d 8 FF 00 00 00 00 00 FF FF
   16.900000 1  18FEF200x       Rx   d 8 33 00 FF FF FF FF FF FF
   17.000000 1  0CF00400x       Rx   d 8 00 8A 57 14 FF FF FF FF
   17.000000 1  0CF00300x       Rx   d 8 00 00 0D FF FF FF FF FF
   17.000000 1  18FEF100x       Rx   d 8 FF 00 00 00 00 00 FF FF
   17.000000 1  18FEF200x       Rx   d 8 34 00 FF FF FF FF FF FF
   17.000000 1  18FEF600x       Rx   d 8 FF 33 3C FF FF FF FF FF
   17.000000 1  18FEEF00x       Rx   d 8 FF FF FF 31 FF FF FF FF
   17.000000 1  18FEEE00x       Rx   d 9 3D 3C 23 24 FF FF FF 00 FF
   17.000000 1  18FEF700x       Rx   d 8 FF FF FF FF FF FF 17 01
   17.000000 1  18FEF803x       Rx   d 8 FF FF FF FF 83 23 FF FF
   17.000000 1  18FEFC00x       Rx   d 8 FF F9 FF FF FF FF FF FF
   17.000000 1  18FEF500x       Rx   d 9 CA FF FF A0 24 FF FF FF FF
   17.000000 1  18F00503x       Rx   d 8 7D FF FF 7D FF FF FF FF
   17.100000 1  0CF00400x       Rx   d 8 00 8D 47 14 FF FF FF FF
   17.100000 1  0CF00300x       Rx   d 8 00 00 10 FF FF FF FF FF
   17.100000 1  18FEF100x       Rx   d 8 FF 00 00 00 00 00 FF FF
   17.100000 1  18FEF200x       Rx   d 8 37 00 FF FF FF FF FF FF
   17.200000 1  0CF00400x       Rx   d 8 00 8A 4D 14 FF FF FF FF
   17.200000 1  0CF00300x       Rx   d 8 00 00 0D FF FF FF FF FF
   17.200000 1  18FEF100x       Rx   d 8 FF 00 00 00 00 00 FF FF
   17.200000 1  18FEF200x       Rx   d 8 36 00 FF FF FF FF FF FF
   17.300000 1  0CF00400x       Rx   d 8 00 8A 43 14 FF FF FF FF
   17.300000 1  0CF00300x       Rx   d 8 00 00 0D FF FF FF FF FF
   17.300000 1  18FEF100x       Rx   d 8 FF 00 00 00 00 00 FF FF
   17.300000 1  18FEF200x       Rx   d 8 40 00 FF FF FF FF FF FF
   17.400000 1  0CF00400x       Rx   d 8 00 8C 4D 14 FF FF FF FF
   17.400000 1  0CF00300x       Rx   d 8 00 00 0F FF FF FF FF FF
   17.400000 1  18FEF100x       Rx   d 8 FF 00 00 00 00 00 FF FF
   17.400000 1  18FEF200x       Rx   d 8 44 00 FF FF FF FF FF FF
   17.500000 1  0CF00400x       Rx   d 8 00 8D 56 14 FF FF FF FF
   17.500000 1  0CF00300x       Rx   d 8 00 00 10 FF FF FF FF FF
   17.500000 1  18FEF100x       Rx   d 8 FF 00 00 00 00 00 FF FF
   17.500000 1  18FEF200x       Rx   d 8 45 00 FF FF FF FF FF FF
   17.500000 1  18FEF600x       Rx   d 8 FF 33 3C FF FF FF FF FF
   17.500000 1  18FEEF00x       Rx   d 8 FF FF FF 31 FF FF FF FF
   17.600000 1  0CF00400x       Rx   d 8 00 8B 55 14 FF FF FF FF
   17.600000 1  0CF00300x       Rx   d 8 00 00 0E FF FF FF FF FF
   17.600000 1  18FEF100x       Rx   d 8 FF 00 00 00 00 00 FF FF
   17.600000 1  18FEF200x       Rx   d 8 44 00 FF FF FF FF FF FF
   17.700000 1  0CF00400x       Rx   d 8 00 8C 47 14 FF FF FF FF
   17.700000 1  0CF00300x       Rx   d 8 00 00 0F FF FF FF FF FF
   17.700000 1  18FEF100x       Rx   d 8 FF 00 00 00 00 00 FF FF
   17.700000 1  18FEF200x       Rx   d 8 3E 00 FF FF FF FF FF FF
   17.800000 1  0CF00400x       Rx   d 8 00 8D 42 14 FF FF FF FF
   17.800000 1  0CF00300x       Rx   d 8 00 00 10 FF FF FF FF FF
   17.800000 1  18FEF100x       Rx   d 8 FF 00 00 00 00 00 FF FF
   17.800000 1  18FEF200x       Rx   d 8 3E 00 FF FF FF FF FF FF
   17.900000 1  0CF00400x       Rx   d 8 00 8D 4A 14 FF FF FF FF
   17.900000 1  0CF00300x       Rx   d 8 00 00 10 FF FF FF FF FF
   17.900000 1  18FEF100x       Rx   d 8 FF 00 00 00 00 00 FF FF
   17.900000 1  18FEF200x       Rx   d 8 40 00 FF FF FF FF FF FF
   18.000000 1  0CF00400x       Rx   d 8 00 8A 49 14 FF FF FF FF
   18.000000 1  0CF00300x       Rx   d 8 00 00 0D FF FF FF FF FF
   18.000000 1  18FEF100x       Rx   d 8 FF 00 00 00 00 00 FF FF
   18.000000 1  18FEF200x       Rx   d 8 3A 00 FF FF FF FF FF FF
   18.000000 1  18FEF600x       Rx   d 8 FF 32 3C FF FF FF FF FF
   18.000000 1  18FEEF00x       Rx   d 8 FF FF FF 31 FF FF FF FF
   18.000000 1  18FEEE00x       Rx   d 9 3D 3C 25 24 FF FF FF 00 FF
   18.000000 1  18FEF700x       Rx   d 8 FF FF FF FF FF FF 10 01
   18.000000 1  18FEF803x       Rx   d 8 FF FF FF FF 85 23 FF FF
   18.000000 1  18FEFC00x       Rx   d 8 FF F9 FF FF FF FF FF FF
   18.000000 1  18FEF500x       Rx   d 9 CA FF FF A0 24 FF FF FF FF
   18.000000 1  18F00503x       Rx   d 8 7D FF FF 7D FF FF FF FF
   18.100000 1  0CF00400x       Rx   d 8 00 8C 47 14 FF FF FF FF
   18.100000 1  0CF00300x       Rx   d 8 00 00 0F FF FF FF FF FF
   18.100000 1  18FEF100x       Rx   d 8 FF 00 00 00 00 00 FF FF
   18.100000 1  18FEF200x       Rx   d 8 44 00 FF FF FF FF FF FF
   18.200000 1  0CF00400x       Rx   d 8 00 8A 53 14 FF FF FF FF
   18.200000 1  0CF00300x       Rx   d 8 00 00 0D FF FF FF FF FF
   18.200000 1  18FEF100x       Rx   d 8 FF 00 00 00 00 00 FF FF
   18.200000 1  18FEF200x       Rx   d 8 42 00 FF FF FF FF FF FF
   18.300000 1  0CF00400x       Rx   d 8 00 8C 55 14 FF FF FF FF
   18.300000 1  0CF00300x       Rx   d 8 00 00 0F FF FF FF FF FF
   18.300000 1  18FEF100x       Rx   d 8 FF 00 00 00 00 00 FF FF
   18.300000 1  18FEF200x       Rx   d 8 39 00 FF FF FF FF FF FF
   18.400000 1  0CF00400x       Rx   d 8 00 8D 5D 14 FF FF FF FF
   18.400000 1  0CF00300x       Rx   d 8 00 00 10 FF FF FF FF FF
   18.400000 1  18FEF100x       Rx   d 8 FF 00 00 00 00 00 FF FF
   18.400000 1  18FEF200x       Rx   d 8 3E 00 FF FF FF FF FF FF
   18.500000 1  0CF00400x       Rx   d 8 00 8A 5E 14 FF FF FF FF
   18.500000 1  0CF00300x       Rx   d 8 00 00 0D FF FF FF FF FF
   18.500000 1  18FEF100x       Rx   d 8 FF 00 00 00 00 00 FF FF
   18.500000 1  18FEF200x       Rx   d 8 34 00 FF FF FF FF FF FF
   18.500000 1  18FEF600x       Rx   d 8 FF 33 3C FF FF FF FF FF
   18.500000 1  18FEEF00x       Rx   d 8 FF FF FF 30 FF FF FF FF
   18.600000 1  0CF00400x       Rx   d 8 00 8D 58 14 FF FF FF FF
   18.600000 1  0CF00300x       Rx   d 8 00 00 10 FF FF FF FF FF
   18.600000 1  18FEF100x       Rx   d 8 FF 00 00 00 00 00 FF FF
   18.600000 1  18FEF200x       Rx   d 8 42 00 FF FF FF FF FF FF
   18.700000 1  0CF00400x       Rx   d 8 00 8C 61 14 FF FF FF FF
   18.700000 1  0CF00300x       Rx   d 8 00 00 0F FF FF FF FF FF
   18.700000 1  18FEF100x       Rx   d 8 FF 00 00 00 00 00 FF FF
   18.700000 1  18FEF200x       Rx   d 8 44 00 FF FF FF FF FF FF
   18.800000 1  0CF00400x       Rx   d 8 00 8A 58 14 FF FF FF FF
   18.800000 1  0CF00300x       Rx   d 8 00 00 0D FF FF FF FF FF
   18.800000 1  18FEF100x       Rx   d 8 FF 00 00 00 00 00 FF FF
   18.800000 1  18FEF200x       Rx   d 8 38 00 FF FF FF FF FF FF
   18.900000 1  0CF00400x       Rx   d 8 00 8C 63 14 FF FF FF FF
   18.900000 1  0CF00300x       Rx   d 8 00 00 0F FF FF FF FF FF
   18.900000 1  18FEF100x       Rx   d 8 FF 00 00 00 00 00 FF FF
   18.900000 1  18FEF200x       Rx   d 8 3E 00 FF FF FF FF FF FF
   19.000000 1  0CF00400x       Rx   d 8 00 8A 69 14 FF FF FF FF
   19.000000 1  0CF00300x       Rx   d 8 00 00 0D FF FF FF FF FF
   19.000000 1  18FEF100x       Rx   d 8 FF 00 00 00 00 00 FF FF
   19.000000 1  18FEF200x       Rx   d 8 39 00 FF FF FF FF FF FF
   19.000000 1  18FEF600x       Rx   d 8 FF 32 3C FF FF FF FF FF
   19.000000 1  18FEEF00x       Rx   d 8 FF FF FF 31 FF FF FF FF
   19.000000 1  18FEEE00x       Rx   d 9 3D 3C 27 24 FF FF FF 00 FF
   19.000000 1  18FEF700x       Rx   d 8 FF FF FF FF FF FF 15 01
   19.000000 1  18FEF803x       Rx   d 8 FF FF FF FF 87 23 FF FF
   19.000000 1  18FEFC00x       Rx   d 8 FF F9 FF FF FF FF FF FF
   19.000000 1  18FEF500x       Rx   d 9 CA FF FF A0 24 FF FF FF FF
   19.000000 1  18F00503x       Rx   d 8 7D FF FF 7D FF FF FF FF
   19.100000 1  0CF00400x       Rx   d 8 00 8C 6F 14 FF FF FF FF
   19.100000 1  0CF00300x       Rx   d 8 00 00 0F FF FF FF FF FF
   19.100000 1  18FEF100x       Rx   d 8 FF 00 00 00 00 00 FF FF
   19.100000 1  18FEF200x       Rx   d 8 35 00 FF FF FF FF FF FF
   19.200000 1  0CF00400x       Rx   d 8 00 8B 72 14 FF FF FF FF
   19.200000 1  0CF00300x       Rx   d 8 00 00 0E FF FF FF FF FF
   19.200000 1  18FEF100x       Rx   d 8 FF 00 00 00 00 00 FF FF
   19.200000 1  18FEF200x       Rx   d 8 3A 00 FF FF FF FF FF FF
   19.300000 1  0CF00400x       Rx   d 8 00 8A 76 14 FF FF FF FF
   19.300000 1  0CF00300x       Rx   d 8 00 00 0D FF FF FF FF FF
   19.300000 1  18FEF100x       Rx   d 8 FF 00 00 00 00 00 FF FF
   19.300000 1  18FEF200x       Rx   d 8 3F 00 FF FF FF FF FF FF
   19.400000 1  0CF00400x       Rx   d 8 00 8A 78 14 FF FF FF FF
   19.400000 1  0CF00300x       Rx   d 8 00 00 0D FF FF FF FF FF
   19.400000 1  18FEF100x       Rx   d 8 FF 00 00 00 00 00 FF FF
   19.400000 1  18FEF200x       Rx   d 8 32 00 FF FF FF FF FF FF
   19.500000 1  0CF00400x       Rx   d 8 00 8A 6B 14 FF FF FF FF
   19.500000 1  0CF00300x       Rx   d 8 00 00 0D FF FF FF FF FF
   19.500000 1  18FEF100x       Rx   d 8 FF 00 00 00 00 00 FF FF
   19.500000 1  18FEF200x       Rx   d 8 32 00 FF FF FF FF FF FF
   19.500000 1  18FEF600x       Rx   d 8 FF 32 3C FF FF FF FF FF
   19.500000 1  18FEEF00x       Rx   d 8 FF FF FF 31 FF FF FF FF
   19.600000 1  0CF00400x       Rx   d 8 00 8B 5E 14 FF FF FF FF
   19.600000 1  0CF00300x       Rx   d 8 00 00 0E FF FF FF FF FF
   19.600000 1  18FEF100x       Rx   d 8 FF 00 00 00 00 00 FF FF
   19.600000 1  18FEF200x       Rx   d 8 42 00 FF FF FF FF FF FF
   19.700000 1  0CF00400x       Rx   d 8 00 8D 4E 14 FF FF FF FF
   19.700000 1  0CF00300x       Rx   d 8 00 00 10 FF FF FF FF FF
   19.700000 1  18FEF100x       Rx   d 8 FF 00 00 00 00 00 FF FF
   19.700000 1  18FEF200x       Rx   d 8 44 00 FF FF FF FF FF FF
   19.800000 1  0CF00400x       Rx   d 8 00 8C 51 14 FF FF FF FF
   19.800000 1  0CF00300x       Rx   d 8 00 00 0F FF FF FF FF FF
   19.800000 1  18FEF100x       Rx   d 8 FF 00 00 00 00 00 FF FF
   19.800000 1  18FEF200x       Rx   d 8 34 00 FF FF FF FF FF FF
   19.900000 1  0CF00400x       Rx   d 8 00 8D 4B 14 FF FF FF FF
   19.900000 1  0CF00300x       Rx   d 8 00 00 10 FF FF FF FF FF
   19.900000 1  18FEF100x       Rx   d 8 FF 00 00 00 00 00 FF FF
   19.900000 1  18FEF200x       Rx   d 8 44 00 FF FF FF FF FF FF
   20.000000 1  0CF00400x       Rx   d 8 00 8A 57 14 FF FF FF FF
   20.000000 1  0CF00300x       Rx   d 8 00 00 0D FF FF FF FF FF
   20.000000 1  18FEF100x       Rx   d 8 FF 00 00 00 00 00 FF FF
   20.000000 1  18FEF200x       Rx   d 8 39 00 FF FF FF FF FF FF
   20.000000 1  18FEF600x       Rx   d 8 FF 33 3C FF FF FF FF FF
   20.000000 1  18FEEF00x       Rx   d 8 FF FF FF 32 FF FF FF FF
   20.000000 1  18FEEE00x       Rx   d 9 3D 3C 29 24 FF FF FF 00 FF
   20.000000 1  18FEF700x       Rx   d 8 FF FF FF FF FF FF 12 01
   20.000000 1  18FEF803x       Rx   d 8 FF FF FF FF 89 23 FF FF
   20.000000 1  18FEFC00x       Rx   d 8 FF F9 FF FF FF FF FF FF
   20.000000 1  18FEF500x       Rx   d 9 CA FF FF A0 24 FF FF FF FF
   20.000000 1  18F00503x       Rx   d 8 7D FF FF 7D FF FF FF FF
   20.000000 1  18FEE500x       Rx   d 8 40 0D 03 00 FF FF FF FF
   20.100000 1  0CF00400x       Rx   d 8 00 8B 51 14 FF FF FF FF
   20.100000 1  0CF00300x       Rx   d 8 00 00 0E FF FF FF FF FF
   20.100000 1  18FEF100x       Rx   d 8 FF 00 00 00 00 00 FF FF
   20.100000 1  18FEF200x       Rx   d 8 34 00 FF FF FF FF FF FF
   20.200000 1  0CF00400x       Rx   d 8 00 8B 5E 14 FF FF FF FF
   20.200000 1  0CF00300x       Rx   d 8 00 00 0E FF FF FF FF FF
   20.200000 1  18FEF100x       Rx   d 8 FF 00 00 00 00 00 FF FF
   20.200000 1  18FEF200x       Rx   d 8 42 00 FF FF FF FF FF FF
   20.300000 1  0CF00400x       Rx   d 8 00 8A 51 14 FF FF FF FF
   20.300000 1  0CF00300x       Rx   d 8 00 00 0D FF FF FF FF FF
   20.300000 1  18FEF100x       Rx   d 8 FF 00 00 00 00 00 FF FF
   20.300000 1  18FEF200x       Rx   d 8 3F 00 FF FF FF FF FF FF
   20.400000 1  0CF00400x       Rx   d 8 00 8B 5A 14 FF FF FF FF
   20.400000 1  0CF00300x       Rx   d 8 00 00 0E FF FF FF FF FF
   20.400000 1  18FEF100x       Rx   d 8 FF 00 00 00 00 00 FF FF
   20.400000 1  18FEF200x       Rx   d 8 3A 00 FF FF FF FF FF FF
   20.500000 1  0CF00400x       Rx   d 8 00 8C 5B 14 FF FF FF FF
   20.500000 1  0CF00300x       Rx   d 8 00 00 0F FF FF FF FF FF
   20.500000 1  18FEF100x       Rx   d 8 FF 00 00 00 00 00 FF FF
   20.500000 1  18FEF200x       Rx   d 8 3E 00 FF FF FF FF FF FF
   20.500000 1  18FEF600x       Rx   d 8 FF 33 3C FF FF FF FF FF
   20.500000 1  18FEEF00x       Rx   d 8 FF FF FF 33 FF FF FF FF
   20.600000 1  0CF00400x       Rx   d 8 00 8B 4C 14 FF FF FF FF
   20.600000 1  0CF00300x       Rx   d 8 00 00 0E FF FF FF FF FF
   20.600000 1  18FEF100x       Rx   d 8 FF 00 00 00 00 00 FF FF
   20.600000 1  18FEF200x       Rx   d 8 33 00 FF FF FF FF FF FF
   20.700000 1  0CF00400x       Rx   d 8 00 8B 46 14 FF FF FF FF
   20.700000 1  0CF00300x       Rx   d 8 00 00 0E FF FF FF FF FF
   20.700000 1  18FEF100x       Rx   d 8 FF 00 00 00 00 00 FF FF
   20.700000 1  18FEF200x       Rx   d 8 33 00 FF FF FF FF FF FF
   20.800000 1  0CF00400x       Rx   d 8 00 8C 52 14 FF FF FF FF
   20.800000 1  0CF00300x       Rx   d 8 00 00 0F FF FF FF FF FF
   20.800000 1  18FEF100x       Rx   d 8 FF 00 00 00 00 00 FF FF
   20.800000 1  18FEF200x       Rx   d 8 3D 00 FF FF FF FF FF FF
   20.900000 1  0CF00400x       Rx   d 8 00 8B 5F 14 FF FF FF FF
   20.900000 1  0CF00300x       Rx   d 8 00 00 0E FF FF FF FF FF
   20.900000 1  18FEF100x       Rx   d 8 FF 00 00 00 00 00 FF FF
   20.900000 1  18FEF200x       Rx   d 8 38 00 FF FF FF FF FF FF
   21.000000 1  0CF00400x       Rx   d 8 00 8A 52 14 FF FF FF FF
   21.000000 1  0CF00300x       Rx   d 8 00 00 0D FF FF FF FF FF
   21.000000 1  18FEF100x       Rx   d 8 FF 00 00 00 00 00 FF FF
   21.000000 1  18FEF200x       Rx   d 8 38 00 FF FF FF FF FF FF
   21.000000 1  18FEF600x       Rx   d 8 FF 32 3C FF FF FF FF FF
   21.000000 1  18FEEF00x       Rx   d 8 FF FF FF 33 FF FF FF FF
   21.000000 1  18FEEE00x       Rx   d 9 3D 3C 2B 24 FF FF FF 00 FF
   21.000000 1  18FEF700x       Rx   d 8 FF FF FF FF FF FF 15 01
   21.000000 1  18FEF803x       Rx   d 8 FF FF FF FF 8B 23 FF FF
   21.000000 1  18FEFC00x       Rx   d 8 FF F9 FF FF FF FF FF FF
   21.000000 1  18FEF500x       Rx   d 9 CA FF FF A0 24 FF FF FF FF
   21.000000 1  18F00503x       Rx   d 8 7D FF FF 7D FF FF FF FF
   21.100000 1  0CF00400x       Rx   d 8 00 8A 52 14 FF FF FF FF
   21.100000 1  0CF00300x       Rx   d 8 00 00 0D FF FF FF FF FF
   21.100000 1  18FEF100x       Rx   d 8 FF 00 00 00 00 00 FF FF
   21.100000 1  18FEF200x       Rx   d 8 3A 00 FF FF FF FF FF FF
   21.200000 1  0CF00400x       Rx   d 8 00 8B 47 14 FF FF FF FF
   21.200000 1  0CF00300x       Rx   d 8 00 00 0E FF FF FF FF FF
   21.200000 1  18FEF100x       Rx   d 8 FF 00 00 00 00 00 FF FF
   21.200000 1  18FEF200x       Rx   d 8 38 00 FF FF FF FF FF FF
   21.300000 1  0CF00400x       Rx   d 8 00 8C 51 14 FF FF FF FF
   21.300000 1  0CF00300x       Rx   d 8 00 00 0F FF FF FF FF FF
   21.300000 1  18FEF100x       Rx   d 8 FF 00 00 00 00 00 FF FF
   21.300000 1  18FEF200x       Rx   d 8 3F 00 FF FF FF FF FF FF
   21.400000 1  0CF00400x       Rx   d 8 00 8C 58 14 FF FF FF FF
   21.400000 1  0CF00300x       Rx   d 8 00 00 0F FF FF FF FF FF
   21.400000 1  18FEF100x       Rx   d 8 FF 00 00 00 00 00 FF FF
   21.400000 1  18FEF200x       Rx   d 8 38 00 FF FF FF FF FF FF
   21.500000 1  0CF00400x       Rx   d 8 00 8B 4C 14 FF FF FF FF
   21.500000 1  0CF00300x       Rx   d 8 00 00 0E FF FF FF FF FF
   21.500000 1  18FEF100x       Rx   d 8 FF 00 00 00 00 00 FF FF
   21.500000 1  18FEF200x       Rx   d 8 39 00 FF FF FF FF FF FF
   21.500000 1  18FEF600x       Rx   d 8 FF 33 3C FF FF FF FF FF
   21.500000 1  18FEEF00x       Rx   d 8 FF FF FF 32 FF FF FF FF
   21.600000 1  0CF00400x       Rx   d 8 00 8B 5A 14 FF FF FF FF
   21.600000 1  0CF00300x       Rx   d 8 00 00 0E FF FF FF FF FF
   21.600000 1  18FEF100x       Rx   d 8 FF 00 00 00 00 00 FF FF
   21.600000 1  18FEF200x       Rx   d 8 42 00 FF FF FF FF FF FF
   21.700000 1  0CF00400x       Rx   d 8 00 8C 63 14 FF FF FF FF
   21.700000 1  0CF00300x       Rx   d 8 00 00 0F FF FF FF FF FF
   21.700000 1  18FEF100x       Rx   d 8 FF 00 00 00 00 00 FF FF
   21.700000 1  18FEF200x       Rx   d 8 3E 00 FF FF FF FF FF FF
   21.800000 1  0CF00400x       Rx   d 8 00 8B 5D 14 FF FF FF FF
   21.800000 1  0CF00300x       Rx   d 8 00 00 0E FF FF FF FF FF
   21.800000 1  18FEF100x       Rx   d 8 FF 00 00 00 00 00 FF FF
   21.800000 1  18FEF200x       Rx   d 8 44 00 FF FF FF FF FF FF
   21.900000 1  0CF00400x       Rx   d 8 00 8A 53 14 FF FF FF FF
   21.900000 1  0CF00300x       Rx   d 8 00 00 0D FF FF FF FF FF
   21.900000 1  18FEF100x       Rx   d 8 FF 00 00 00 00 00 FF FF
   21.900000 1  18FEF200x       Rx   d 8 34 00 FF FF FF FF FF FF
   22.000000 1  0CF00400x       Rx   d 8 00 8D 5D 14 FF FF FF FF
   22.000000 1  0CF00300x       Rx   d 8 00 00 10 FF FF FF FF FF
   22.000000 1  18FEF100x       Rx   d 8 FF 00 00 00 00 00 FF FF
   22.000000 1  18FEF200x       Rx   d 8 41 00 FF FF FF FF FF FF
   22.000000 1  18FEF600x       Rx   d 8 FF 32 3C FF FF FF FF FF
   22.000000 1  18FEEF00x       Rx   d 8 FF FF FF 31 FF FF FF FF
   22.000000 1  18FEEE00x       Rx   d 9 3D 3C 2D 24 FF FF FF 00 FF
   22.000000 1  18FEF700x       Rx   d 8 FF FF FF FF FF FF 11 01
   22.000000 1  18FEF803x       Rx   d 8 FF FF FF FF 8D 23 FF FF
   22.000000 1  18FEFC00x       Rx   d 8 FF F9 FF FF FF FF FF FF
   22.000000 1  18FEF500x       Rx   d 9 CA FF FF A0 24 FF FF FF FF
   22.000000 1  18F00503x       Rx   d 8 7D FF FF 7D FF FF FF FF
   22.100000 1  0CF00400x       Rx   d 8 00 8A 58 14 FF FF FF FF
   22.100000 1  0CF00300x       Rx   d 8 00 00 0D FF FF FF FF FF
   22.100000 1  18FEF100x       Rx   d 8 FF 00 00 00 00 00 FF FF
   22.100000 1  18FEF200x       Rx   d 8 42 00 FF FF FF FF FF FF
   22.200000 1  0CF00400x       Rx   d 8 00 8B 55 14 FF FF FF FF
   22.200000 1  0CF00300x       Rx   d 8 00 00 0E FF FF FF FF FF
   22.200000 1  18FEF100x       Rx   d 8 FF 00 00 00 00 00 FF FF
   22.200000 1  18FEF200x       Rx   d 8 3A 00 FF FF FF FF FF FF
   22.300000 1  0CF00400x       Rx   d 8 00 8B 5D 14 FF FF FF FF
   22.300000 1  0CF00300x       Rx   d 8 00 00 0E FF FF FF FF FF
   22.300000 1  18FEF100x       Rx   d 8 FF 00 00 00 00 00 FF FF
   22.300000 1  18FEF200x       Rx   d 8 42 00 FF FF FF FF FF FF
   22.400000 1  0CF00400x       Rx   d 8 00 8B 66 14 FF FF FF FF
   22.400000 1  0CF00300x       Rx   d 8 00 00 0E FF FF FF FF FF
   22.400000 1  18FEF100x       Rx   d 8 FF 00 00 00 00 00 FF FF
   22.400000 1  18FEF200x       Rx   d 8 3B 00 FF FF FF FF FF FF
   22.500000 1  0CF00400x       Rx   d 8 00 8C 60 14 FF FF FF FF
   22.500000 1  0CF00300x       Rx   d 8 00 00 0F FF FF FF FF FF
   22.500000 1  18FEF100x       Rx   d 8 FF 00 00 00 00 00 FF FF
   22.500000 1  18FEF200x       Rx   d 8 42 00 FF FF FF FF FF FF
   22.500000 1  18FEF600x       Rx   d 8 FF 33 3C FF FF FF FF FF
   22.500000 1  18FEEF00x       Rx   d 8 FF FF FF 33 FF FF FF FF
   22.600000 1  0CF00400x       Rx   d 8 00 8C 56 14 FF FF FF FF
   22.600000 1  0CF00300x       Rx   d 8 00 00 0F FF FF FF FF FF
   22.600000 1  18FEF100x       Rx   d 8 FF 00 00 00 00 00 FF FF
   22.600000 1  18FEF200x       Rx   d 8 34 00 FF FF FF FF FF FF
   22.700000 1  0CF00400x       Rx   d 8 00 8B 61 14 FF FF FF FF
   22.700000 1  0CF00300x       Rx   d 8 00 00 0E FF FF FF FF FF
   22.700000 1  18FEF100x       Rx   d 8 FF 00 00 00 00 00 FF FF
   22.700000 1  18FEF200x       Rx   d 8 44 00 FF FF FF FF FF FF
   22.800000 1  0CF00400x       Rx   d 8 00 8D 5D 14 FF FF FF FF
   22.800000 1  0CF00300x       Rx   d 8 00 00 10 FF FF FF FF FF
   22.800000 1  18FEF100x       Rx   d 8 FF 00 00 00 00 00 FF FF
   22.800000 1  18FEF200x       Rx   d 8 38 00 FF FF FF FF FF FF
   22.900000 1  0CF00400x       Rx   d 8 00 8C 4D 14 FF FF FF FF
   22.900000 1  0CF00300x       Rx   d 8 00 00 0F FF FF FF FF FF
   22.900000 1  18FEF100x       Rx   d 8 FF 00 00 00 00 00 FF FF
   22.900000 1  18FEF200x       Rx   d 8 39 00 FF FF FF FF FF FF
   23.000000 1  0CF00400x       Rx   d 8 00 8D 5B 14 FF FF FF FF
   23.000000 1  0CF00300x       Rx   d 8 00 00 10 FF FF FF FF FF
   23.000000 1  18FEF100x       Rx   d 8 FF 00 00 00 00 00 FF FF
   23.000000 1  18FEF200x       Rx   d 8 34 00 FF FF FF FF FF FF
   23.000000 1  18FEF600x       Rx   d 8 FF 33 3C FF FF FF FF FF
   23.000000 1  18FEEF00x       Rx   d 8 FF FF FF 33 FF FF FF FF
   23.000000 1  18FEEE00x       Rx   d 9 3D 3C 2F 24 FF FF FF 00 FF
   23.000000 1  18FEF700x       Rx   d 8 FF FF FF FF FF FF 12 01
   23.000000 1  18FEF803x       Rx   d 8 FF FF FF FF 8F 23 FF FF
   23.000000 1  18FEFC00x       Rx   d 8 FF F9 FF FF FF FF FF FF
   23.000000 1  18FEF500x       Rx   d 9 CA FF FF A0 24 FF FF FF FF
   23.000000 1  18F00503x       Rx   d 8 7D FF FF 7D FF FF FF FF
   23.100000 1  0CF00400x       Rx   d 8 00 8C 65 14 FF FF FF FF
   23.100000 1  0CF00300x       Rx   d 8 00 00 0F FF FF FF FF FF
   23.100000 1  18FEF100x       Rx   d 8 FF 00 00 00 00 00 FF FF
   23.100000 1  18FEF200x       Rx   d 8 3A 00 FF FF FF FF FF FF
   23.200000 1  0CF00400x       Rx   d 8 00 8B 55 14 FF FF FF FF
   23.200000 1  0CF00300x       Rx   d 8 00 00 0E FF FF FF FF FF
   23.200000 1  18FEF100x       Rx   d 8 FF 00 00 00 00 00 FF FF
   23.200000 1  18FEF200x       Rx   d 8 40 00 FF FF FF FF FF FF
   23.300000 1  0CF00400x       Rx   d 8 00 8B 48 14 FF FF FF FF
   23.300000 1  0CF00300x       Rx   d 8 00 00 0E FF FF FF FF FF
   23.300000 1  18FEF100x       Rx   d 8 FF 00 00 00 00 00 FF FF
   23.300000 1  18FEF200x       Rx   d 8 3A 00 FF FF FF FF FF FF
   23.400000 1  0CF00400x       Rx   d 8 00 8A 48 14 FF FF FF FF
   23.400000 1  0CF00300x       Rx   d 8 00 00 0D FF FF FF FF FF
   23.400000 1  18FEF100x       Rx   d 8 FF 00 00 00 00 00 FF FF
   23.400000 1  18FEF200x       Rx   d 8 32 00 FF FF FF FF FF FF
   23.500000 1  0CF00400x       Rx   d 8 00 8A 40 14 FF FF FF FF
   23.500000 1  0CF00300x       Rx   d 8 00 00 0D FF FF FF FF FF
   23.500000 1  18FEF100x       Rx   d 8 FF 00 00 00 00 00 FF FF
   23.500000 1  18FEF200x       Rx   d 8 36 00 FF FF FF FF FF FF
   23.500000 1  18FEF600x       Rx   d 8 FF 32 3C FF FF FF FF FF
   23.500000 1  18FEEF00x       Rx   d 8 FF FF FF 32 FF FF FF FF
   23.600000 1  0CF00400x       Rx   d 8 00 8A 47 14 FF FF FF FF
   23.600000 1  0CF00300x       Rx   d 8 00 00 0D FF FF FF FF FF
   23.600000 1  18FEF100x       Rx   d 8 FF 00 00 00 00 00 FF FF
   23.600000 1  18FEF200x       Rx   d 8 3C 00 FF FF FF FF FF FF
   23.700000 1  0CF00400x       Rx   d 8 00 8C 57 14 FF FF FF FF
   23.700000 1  0CF00300x       Rx   d 8 00 00 0F FF FF FF FF FF
   23.700000 1  18FEF100x       Rx   d 8 FF 00 00 00 00 00 FF FF
   23.700000 1  18FEF200x       Rx   d 8 3E 00 FF FF FF FF FF FF
   23.800000 1  0CF00400x       Rx   d 8 00 8A 4F 14 FF FF FF FF
   23.800000 1  0CF00300x       Rx   d 8 00 00 0D FF FF FF FF FF
   23.800000 1  18FEF100x       Rx   d 8 FF 00 00 00 00 00 FF FF
   23.800000 1  18FEF200x       Rx   d 8 40 00 FF FF FF FF FF FF
   23.900000 1  0CF00400x       Rx   d 8 00 8C 57 14 FF FF FF FF
   23.900000 1  0CF00300x       Rx   d 8 00 00 0F FF FF FF FF FF
   23.900000 1  18FEF100x       Rx   d 8 FF 00 00 00 00 00 FF FF
   23.900000 1  18FEF200x       Rx   d 8 3C 00 FF FF FF FF FF FF
   24.000000 1  0CF00400x       Rx   d 8 00 8D 4C 14 FF FF FF FF
   24.000000 1  0CF00300x       Rx   d 8 00 00 10 FF FF FF FF FF
   24.000000 1  18FEF100x       Rx   d 8 FF 00 00 00 00 00 FF FF
   24.000000 1  18FEF200x       Rx   d 8 3E 00 FF FF FF FF FF FF
   24.000000 1  18FEF600x       Rx   d 8 FF 32 3C FF FF FF FF FF
   24.000000 1  18FEEF00x       Rx   d 8 FF FF FF 32 FF FF FF FF
   24.000000 1  18FEEE00x       Rx   d 9 3D 3C 31 24 FF FF FF 00 FF
   24.000000 1  18FEF700x       Rx   d 8 FF FF FF FF FF FF 16 01
   24.000000 1  18FEF803x       Rx   d 8 FF FF FF FF 91 23 FF FF
   24.000000 1  18FEFC00x       Rx   d 8 FF F9 FF FF FF FF FF FF
   24.000000 1  18FEF500x       Rx   d 9 CA FF FF A0 24 FF FF FF FF
   24.000000 1  18F00503x       Rx   d 8 7D FF FF 7D FF FF FF FF
   24.100000 1  0CF00400x       Rx   d 8 00 8D 3F 14 FF FF FF FF
   24.100000 1  0CF00300x       Rx   d 8 00 00 10 FF FF FF FF FF
   24.100000 1  18FEF100x       Rx   d 8 FF 00 00 00 00 00 FF FF
   24.100000 1  18FEF200x       Rx   d 8 32 00 FF FF FF FF FF FF
   24.200000 1  0CF00400x       Rx   d 8 00 8D 32 14 FF FF FF FF
   24.200000 1  0CF00300x       Rx   d 8 00 00 10 FF FF FF FF FF
   24.200000 1  18FEF100x       Rx   d 8 FF 00 00 00 00 00 FF FF
   24.200000 1  18FEF200x       Rx   d 8 3C 00 FF FF FF FF FF FF
   24.300000 1  0CF00400x       Rx   d 8 00 8A 3D 14 FF FF FF FF
   24.300000 1  0CF00300x       Rx   d 8 00 00 0D FF FF FF FF FF
   24.300000 1  18FEF100x       Rx   d 8 FF 00 00 00 00 00 FF FF
   24.300000 1  18FEF200x       Rx   d 8 43 00 FF FF FF FF FF FF
   24.400000 1  0CF00400x       Rx   d 8 00 8B 33 14 FF FF FF FF
   24.400000 1  0CF00300x       Rx   d 8 00 00 0E FF FF FF FF FF
   24.400000 1  18FEF100x       Rx   d 8 FF 00 00 00 00 00 FF FF
   24.400000 1  18FEF200x       Rx   d 8 43 00 FF FF FF FF FF FF
   24.500000 1  0CF00400x       Rx   d 8 00 8B 45 14 FF FF FF FF
   24.500000 1  0CF00300x       Rx   d 8 00 00 0E FF FF FF FF FF
   24.500000 1  18FEF100x       Rx   d 8 FF 00 00 00 00 00 FF FF
   24.500000 1  18FEF200x       Rx   d 8 3C 00 FF FF FF FF FF FF
   24.500000 1  18FEF600x       Rx   d 8 FF 32 3C FF FF FF FF FF
   24.500000 1  18FEEF00x       Rx   d 8 FF FF FF 34 FF FF FF FF
   24.600000 1  0CF00400x       Rx   d 8 00 8A 4D 14 FF FF FF FF
   24.600000 1  0CF00300x       Rx   d 8 00 00 0D FF FF FF FF FF
   24.600000 1  18FEF100x       Rx   d 8 FF 00 00 00 00 00 FF FF
   24.600000 1  18FEF200x       Rx   d 8 3C 00 FF FF FF FF FF FF
   24.700000 1  0CF00400x       Rx   d 8 00 8C 40 14 FF FF FF FF
   24.700000 1  0CF00300x       Rx   d 8 00 00 0F FF FF FF FF FF
   24.700000 1  18FEF100x       Rx   d 8 FF 00 00 00 00 00 FF FF
   24.700000 1  18FEF200x       Rx   d 8 3A 00 FF FF FF FF FF FF
   24.800000 1  0CF00400x       Rx   d 8 00 8A 3D 14 FF FF FF FF
   24.800000 1  0CF00300x       Rx   d 8 00 00 0D FF FF FF FF FF
   24.800000 1  18FEF100x       Rx   d 8 FF 00 00 00 00 00 FF FF
   24.800000 1  18FEF200x       Rx   d 8 45 00 FF FF FF FF FF FF
   24.900000 1  0CF00400x       Rx   d 8 00 8D 4E 14 FF FF FF FF
   24.900000 1  0CF00300x       Rx   d 8 00 00 10 FF FF FF FF FF
   24.900000 1  18FEF100x       Rx   d 8 FF 00 00 00 00 00 FF FF
   24.900000 1  18FEF200x       Rx   d 8 39 00 FF FF FF FF FF FF
   25.000000 1  0CF00400x       Rx   d 8 00 8D 54 14 FF FF FF FF
   25.000000 1  0CF00300x       Rx   d 8 00 00 10 FF FF FF FF FF
   25.000000 1  18FEF100x       Rx   d 8 FF 00 00 00 00 00 FF FF
   25.000000 1  18FEF200x       Rx   d 8 41 00 FF FF FF FF FF FF
   25.000000 1  18FEF600x       Rx   d 8 FF 32 3C FF FF FF FF FF
   25.000000 1  18FEEF00x       Rx   d 8 FF FF FF 32 FF FF FF FF
   25.000000 1  18FEEE00x       Rx   d 9 3D 3C 33 24 FF FF FF 00 FF
   25.000000 1  18FEF700x       Rx   d 8 FF FF FF FF FF FF 10 01
   25.000000 1  18FEF803x       Rx   d 8 FF FF FF FF 93 23 FF FF
   25.000000 1  18FEFC00x       Rx   d 8 FF F9 FF FF FF FF FF FF
   25.000000 1  18FEF500x       Rx   d 9 CA FF FF A0 24 FF FF FF FF
   25.000000 1  18F00503x       Rx   d 8 7D FF FF 7D FF FF FF FF
   25.100000 1  0CF00400x       Rx   d 8 00 8D 46 14 FF FF FF FF
   25.100000 1  0CF00300x       Rx   d 8 00 00 10 FF FF FF FF FF
   25.100000 1  18FEF100x       Rx   d 8 FF 00 00 00 00 00 FF FF
   25.100000 1  18FEF200x       Rx   d 8 3D 00 FF FF FF FF FF FF
   25.200000 1  0CF00400x       Rx   d 8 00 8D 4C 14 FF FF FF FF
   25.200000 1  0CF00300x       Rx   d 8 00 00 10 FF FF FF FF FF
   25.200000 1  18FEF100x       Rx   d 8 FF 00 00 00 00 00 FF FF
   25.200000 1  18FEF200x       Rx   d 8 3D 00 FF FF FF FF FF FF
   25.300000 1  0CF00400x       Rx   d 8 00 8C 49 14 FF FF FF FF
   25.300000 1  0CF00300x       Rx   d 8 00 00 0F FF FF FF FF FF
   25.300000 1  18FEF100x       Rx   d 8 FF 00 00 00 00 00 FF FF
   25.300000 1  18FEF200x       Rx   d 8 40 00 FF FF FF FF FF FF
   25.400000 1  0CF00400x       Rx   d 8 00 8C 46 14 FF FF FF FF
   25.400000 1  0CF00300x       Rx   d 8 00 00 0F FF FF FF FF FF
   25.400000 1  18FEF100x       Rx   d 8 FF 00 00 00 00 00 FF FF
   25.400000 1  18FEF200x       Rx   d 8 3A 00 FF FF FF FF FF FF
   25.500000 1  0CF00400x       Rx   d 8 00 8D 40 14 FF FF FF FF
   25.500000 1  0CF00300x       Rx   d 8 00 00 10 FF FF FF FF FF
   25.500000 1  18FEF100x       Rx   d 8 FF 00 00 00 00 00 FF FF
   25.500000 1  18FEF200x       Rx   d 8 43 00 FF FF FF FF FF FF
   25.500000 1  18FEF600x       Rx   d 8 FF 32 3C FF FF FF FF FF
   25.500000 1  18FEEF00x       Rx   d 8 FF FF FF 30 FF FF FF FF
   25.600000 1  0CF00400x       Rx   d 8 00 8B 4F 14 FF FF FF FF
   25.600000 1  0CF00300x       Rx   d 8 00 00 0E FF FF FF FF FF
   25.600000 1  18FEF100x       Rx   d 8 FF 00 00 00 00 00 FF FF
   25.600000 1  18FEF200x       Rx   d 8 42 00 FF FF FF FF FF FF
   25.700000 1  0CF00400x       Rx   d 8 00 8A 4A 14 FF FF FF FF
   25.700000 1  0CF00300x       Rx   d 8 00 00 0D FF FF FF FF FF
   25.700000 1  18FEF100x       Rx   d 8 FF 00 00 00 00 00 FF FF
   25.700000 1  18FEF200x       Rx   d 8 43 00 FF FF FF FF FF FF
   25.800000 1  0CF00400x       Rx   d 8 00 8C 58 14 FF FF FF FF
   25.800000 1  0CF00300x       Rx   d 8 00 00 0F FF FF FF FF FF
   25.800000 1  18FEF100x       Rx   d 8 FF 00 00 00 00 00 FF FF
   25.800000 1  18FEF200x       Rx   d 8 34 00 FF FF FF FF FF FF
   25.900000 1  0CF00400x       Rx   d 8 00 8D 4C 14 FF FF FF FF
   25.900000 1  0CF00300x       Rx   d 8 00 00 10 FF FF FF FF FF
   25.900000 1  18FEF100x       Rx   d 8 FF 00 00 00 00 00 FF FF
   25.900000 1  18FEF200x       Rx   d 8 39 00 FF FF FF FF FF FF
   26.000000 1  0CF00400x       Rx   d 8 00 8C 4E 14 FF FF FF FF
   26.000000 1  0CF00300x       Rx   d 8 00 00 0F FF FF FF FF FF
   26.000000 1  18FEF100x       Rx   d 8 FF 00 00 00 00 00 FF FF
   26.000000 1  18FEF200x       Rx   d 8 45 00 FF FF FF FF FF FF
   26.000000 1  18FEF600x       Rx   d 8 FF 32 3C FF FF FF FF FF
   26.000000 1  18FEEF00x       Rx   d 8 FF FF FF 31 FF FF FF FF
   26.000000 1  18FEEE00x       Rx   d 9 3D 3C 35 24 FF FF FF 00 FF
   26.000000 1  18FEF700x       Rx   d 8 FF FF FF FF FF FF 15 01
   26.000000 1  18FEF803x       Rx   d 8 FF FF FF FF 95 23 FF FF
   26.000000 1  18FEFC00x       Rx   d 8 FF F9 FF FF FF FF FF FF
   26.000000 1  18FEF500x       Rx   d 9 CA FF FF A0 24 FF FF FF FF
   26.000000 1  18F00503x       Rx   d 8 7D FF FF 7D FF FF FF FF
   26.100000 1  0CF00400x       Rx   d 8 00 8D 4F 14 FF FF FF FF
   26.100000 1  0CF00300x       Rx   d 8 00 00 10 FF FF FF FF FF
   26.100000 1  18FEF100x       Rx   d 8 FF 00 00 00 00 00 FF FF
   26.100000 1  18FEF200x       Rx   d 8 45 00 FF FF FF FF FF FF
   26.200000 1  0CF00400x       Rx   d 8 00 8C 4D 14 FF FF FF FF
   26.200000 1  0CF00300x       Rx   d 8 00 00 0F FF FF FF FF FF
   26.200000 1  18FEF100x       Rx   d 8 FF 00 00 00 00 00 FF FF
   26.200000 1  18FEF200x       Rx   d 8 41 00 FF FF FF FF FF FF
   26.300000 1  0CF00400x       Rx   d 8 00 8D 43 14 FF FF FF FF
   26.300000 1  0CF00300x       Rx   d 8 00 00 10 FF FF FF FF FF
   26.300000 1  18FEF100x       Rx   d 8 FF 00 00 00 00 00 FF FF
   26.300000 1  18FEF200x       Rx   d 8 33 00 FF FF FF FF FF FF
   26.400000 1  0CF00400x       Rx   d 8 00 8A 39 14 FF FF FF FF
   26.400000 1  0CF00300x       Rx   d 8 00 00 0D FF FF FF FF FF
   26.400000 1  18FEF100x       Rx   d 8 FF 00 00 00 00 00 FF FF
   26.400000 1  18FEF200x       Rx   d 8 38 00 FF FF FF FF FF FF
   26.500000 1  0CF00400x       Rx   d 8 00 8D 48 14 FF FF FF FF
   26.500000 1  0CF00300x       Rx   d 8 00 00 10 FF FF FF FF FF
   26.500000 1  18FEF100x       Rx   d 8 FF 00 00 00 00 00 FF FF
   26.500000 1  18FEF200x       Rx   d 8 3D 00 FF FF FF FF FF FF
   26.500000 1  18FEF600x       Rx   d 8 FF 32 3C FF FF FF FF FF
   26.500000 1  18FEEF00x       Rx   d 8 FF FF FF 32 FF FF FF FF
   26.600000 1  0CF00400x       Rx   d 8 00 8C 43 14 FF FF FF FF
   26.600000 1  0CF00300x       Rx   d 8 00 00 0F FF FF FF FF FF
   26.600000 1  18FEF100x       Rx   d 8 FF 00 00 00 00 00 FF FF
   26.600000 1  18FEF200x       Rx   d 8 44 00 FF FF FF FF FF FF
   26.700000 1  0CF00400x       Rx   d 8 00 8C 49 14 FF FF FF FF
   26.700000 1  0CF00300x       Rx   d 8 00 00 0F FF FF FF FF FF
   26.700000 1  18FEF100x       Rx   d 8 FF 00 00 00 00 00 FF FF
   26.700000 1  18FEF200x       Rx   d 8 3D 00 FF FF FF FF FF FF
   26.800000 1  0CF00400x       Rx   d 8 00 8A 3B 14 FF FF FF FF
   26.800000 1  0CF00300x       Rx   d 8 00 00 0D FF FF FF FF FF
   26.800000 1  18FEF100x       Rx   d 8 FF 00 00 00 00 00 FF FF
   26.800000 1  18FEF200x       Rx   d 8 3F 00 FF FF FF FF FF FF
   26.900000 1  0CF00400x       Rx   d 8 00 8C 3A 14 FF FF FF FF
   26.900000 1  0CF00300x       Rx   d 8 00 00 0F FF FF FF FF FF
   26.900000 1  18FEF100x       Rx   d 8 FF 00 00 00 00 00 FF FF
   26.900000 1  18FEF200x       Rx   d 8 37 00 FF FF FF FF FF FF
   27.000000 1  0CF00400x       Rx   d 8 00 8D 3C 14 FF FF FF FF
   27.000000 1  0CF00300x       Rx   d 8 00 00 10 FF FF FF FF FF
   27.000000 1  18FEF100x       Rx   d 8 FF 00 00 00 00 00 FF FF
   27.000000 1  18FEF200x       Rx   d 8 33 00 FF FF FF FF FF FF
   27.000000 1  18FEF600x       Rx   d 8 FF 33 3C FF FF FF FF FF
   27.000000 1  18FEEF00x       Rx   d 8 FF FF FF 30 FF FF FF FF
   27.000000 1  18FEEE00x       Rx   d 9 3D 3C 37 24 FF FF FF 00 FF
   27.000000 1  18FEF700x       Rx   d 8 FF FF FF FF FF FF 10 01
   27.000000 1  18FEF803x       Rx   d 8 FF FF FF FF 97 23 FF FF
   27.000000 1  18FEFC00x       Rx   d 8 FF F9 FF FF FF FF FF FF
   27.000000 1  18FEF500x       Rx   d 9 CA FF FF A0 24 FF FF FF FF
   27.000000 1  18F00503x       Rx   d 8 7D FF FF 7D FF FF FF FF
   27.100000 1  0CF00400x       Rx   d 8 00 8B 3C 14 FF FF FF FF
   27.100000 1  0CF00300x       Rx   d 8 00 00 0E FF FF FF FF FF
   27.100000 1  18FEF100x       Rx   d 8 FF 00 00 00 00 00 FF FF
   27.100000 1  18FEF200x       Rx   d 8 38 00 FF FF FF FF FF FF
   27.200000 1  0CF00400x       Rx   d 8 00 8D 45 14 FF FF FF FF
   27.200000 1  0CF00300x       Rx   d 8 00 00 10 FF FF FF FF FF
   27.200000 1  18FEF100x       Rx   d 8 FF 00 00 00 00 00 FF FF
   27.200000 1  18FEF200x       Rx   d 8 39 00 FF FF FF FF FF FF
   27.300000 1  0CF00400x       Rx   d 8 00 8B 40 14 FF FF FF FF
   27.300000 1  0CF00300x       Rx   d 8 00 00 0E FF FF FF FF FF
   27.300000 1  18FEF100x       Rx   d 8 FF 00 00 00 00 00 FF FF
   27.300000 1  18FEF200x       Rx   d 8 33 00 FF FF FF FF FF FF
   27.400000 1  0CF00400x       Rx   d 8 00 8C 3E 14 FF FF FF FF
   27.400000 1  0CF00300x       Rx   d 8 00 00 0F FF FF FF FF FF
   27.400000 1  18FEF100x       Rx   d 8 FF 00 00 00 00 00 FF FF
   27.400000 1  18FEF200x       Rx   d 8 35 00 FF FF FF FF FF FF
   27.500000 1  0CF00400x       Rx   d 8 00 8B 42 14 FF FF FF FF
   27.500000 1  0CF00300x       Rx   d 8 00 00 0E FF FF FF FF FF
   27.500000 1  18FEF100x       Rx   d 8 FF 00 00 00 00 00 FF FF
   27.500000 1  18FEF200x       Rx   d 8 3C 00 FF FF FF FF FF FF
   27.500000 1  18FEF600x       Rx   d 8 FF 33 3C FF FF FF FF FF
   27.500000 1  18FEEF00x       Rx   d 8 FF FF FF 31 FF FF FF FF
   27.600000 1  0CF00400x       Rx   d 8 00 8A 3E 14 FF FF FF FF
   27.600000 1  0CF00300x       Rx   d 8 00 00 0D FF FF FF FF FF
   27.600000 1  18FEF100x       Rx   d 8 FF 00 00 00 00 00 FF FF
   27.600000 1  18FEF200x       Rx   d 8 45 00 FF FF FF FF FF FF
   27.700000 1  0CF00400x       Rx   d 8 00 8A 3B 14 FF FF FF FF
   27.700000 1  0CF00300x       Rx   d 8 00 00 0D FF FF FF FF FF
   27.700000 1  18FEF100x       Rx   d 8 FF 00 00 00 00 00 FF FF
   27.700000 1  18FEF200x       Rx   d 8 3F 00 FF FF FF FF FF FF
   27.800000 1  0CF00400x       Rx   d 8 00 8D 3E 14 FF FF FF FF
   27.800000 1  0CF00300x       Rx   d 8 00 00 10 FF FF FF FF FF
   27.800000 1  18FEF100x       Rx   d 8 FF 00 00 00 00 00 FF FF
   27.800000 1  18FEF200x       Rx   d 8 40 00 FF FF FF FF FF FF
   27.900000 1  0CF00400x       Rx   d 8 00 8B 3B 14 FF FF FF FF
   27.900000 1  0CF00300x       Rx   d 8 00 00 0E FF FF FF FF FF
   27.900000 1  18FEF100x       Rx   d 8 FF 00 00 00 00 00 FF FF
   27.900000 1  18FEF200x       Rx   d 8 3D 00 FF FF FF FF FF FF
   28.000000 1  0CF00400x       Rx   d 8 00 8D 3E 14 FF FF FF FF
   28.000000 1  0CF00300x       Rx   d 8 00 00 10 FF FF FF FF FF
   28.000000 1  18FEF100x       Rx   d 8 FF 00 00 00 00 00 FF FF
   28.000000 1  18FEF200x       Rx   d 8 3F 00 FF FF FF FF FF FF
   28.000000 1  18FEF600x       Rx   d 8 FF 32 3C FF FF FF FF FF
   28.000000 1  18FEEF00x       Rx   d 8 FF FF FF 34 FF FF FF FF
   28.000000 1  18FEEE00x       Rx   d 9 3D 3C 39 24 FF FF FF 00 FF
   28.000000 1  18FEF700x       Rx   d 8 FF FF FF FF FF FF 10 01
   28.000000 1  18FEF803x       Rx   d 8 FF FF FF FF 99 23 FF FF
   28.000000 1  18FEFC00x       Rx   d 8 FF F9 FF FF FF FF FF FF
   28.000000 1  18FEF500x       Rx   d 9 CA FF FF A0 24 FF FF FF FF
   28.000000 1  18F00503x       Rx   d 8 7D FF FF 7D FF FF FF FF
   28.100000 1  0CF00400x       Rx   d 8 00 8B 4F 14 FF FF FF FF
   28.100000 1  0CF00300x       Rx   d 8 00 00 0E FF FF FF FF FF
   28.100000 1  18FEF100x       Rx   d 8 FF 00 00 00 00 00 FF FF
   28.100000 1  18FEF200x       Rx   d 8 44 00 FF FF FF FF FF FF
   28.200000 1  0CF00400x       Rx   d 8 00 8C 45 14 FF FF FF FF
   28.200000 1  0CF00300x       Rx   d 8 00 00 0F FF FF FF FF FF
   28.200000 1  18FEF100x       Rx   d 8 FF 00 00 00 00 00 FF FF
   28.200000 1  18FEF200x       Rx   d 8 34 00 FF FF FF FF FF FF
   28.300000 1  0CF00400x       Rx   d 8 00 8B 45 14 FF FF FF FF
   28.300000 1  0CF00300x       Rx   d 8 00 00 0E FF FF FF FF FF
   28.300000 1  18FEF100x       Rx   d 8 FF 00 00 00 00 00 FF FF
   28.300000 1  18FEF200x       Rx   d 8 38 00 FF FF FF FF FF FF
   28.400000 1  0CF00400x       Rx   d 8 00 8D 3B 14 FF FF FF FF
   28.400000 1  0CF00300x       Rx   d 8 00 00 10 FF FF FF FF FF
   28.400000 1  18FEF100x       Rx   d 8 FF 00 00 00 00 00 FF FF
   28.400000 1  18FEF200x       Rx   d 8 38 00 FF FF FF FF FF FF
   28.500000 1  0CF00400x       Rx   d 8 00 8C 3E 14 FF FF FF FF
   28.500000 1  0CF00300x       Rx   d 8 00 00 0F FF FF FF FF FF
   28.500000 1  18FEF100x       Rx   d 8 FF 00 00 00 00 00 FF FF
   28.500000 1  18FEF200x       Rx   d 8 39 00 FF FF FF FF FF FF
   28.500000 1  18FEF600x       Rx   d 8 FF 32 3C FF FF FF FF FF
   28.500000 1  18FEEF00x       Rx   d 8 FF FF FF 33 FF FF FF FF
   28.600000 1  0CF00400x       Rx   d 8 00 8C 50 14 FF FF FF FF
   28.600000 1  0CF00300x       Rx   d 8 00 00 0F FF FF FF FF FF
   28.600000 1  18FEF100x       Rx   d 8 FF 00 00 00 00 00 FF FF
   28.600000 1  18FEF200x       Rx   d 8 3F 00 FF FF FF FF FF FF
   28.700000 1  0CF00400x       Rx   d 8 00 8D 4F 14 FF FF FF FF
   28.700000 1  0CF00300x       Rx   d 8 00 00 10 FF FF FF FF FF
   28.700000 1  18FEF100x       Rx   d 8 FF 00 00 00 00 00 FF FF
   28.700000 1  18FEF200x       Rx   d 8 3D 00 FF FF FF FF FF FF
   28.800000 1  0CF00400x       Rx   d 8 00 8A 51 14 FF FF FF FF
   28.800000 1  0CF00300x       Rx   d 8 00 00 0D FF FF FF FF FF
   28.800000 1  18FEF100x       Rx   d 8 FF 00 00 00 00 00 FF FF
   28.800000 1  18FEF200x       Rx   d 8 42 00 FF FF FF FF FF FF
   28.900000 1  0CF00400x       Rx   d 8 00 8A 57 14 FF FF FF FF
   28.900000 1  0CF00300x       Rx   d 8 00 00 0D FF FF FF FF FF
   28.900000 1  18FEF100x       Rx   d 8 FF 00 00 00 00 00 FF FF
   28.900000 1  18FEF200x       Rx   d 8 32 00 FF FF FF FF FF FF
   29.000000 1  0CF00400x       Rx   d 8 00 8C 4B 14 FF FF FF FF
   29.000000 1  0CF00300x       Rx   d 8 00 00 0F FF FF FF FF FF
   29.000000 1  18FEF100x       Rx   d 8 FF 00 00 00 00 00 FF FF
   29.000000 1  18FEF200x       Rx   d 8 44 00 FF FF FF FF FF FF
   29.000000 1  18FEF600x       Rx   d 8 FF 32 3C FF FF FF FF FF
   29.000000 1  18FEEF00x       Rx   d 8 FF FF FF 33 FF FF FF FF
   29.000000 1  18FEEE00x       Rx   d 9 3D 3C 3B 24 FF FF FF 00 FF
   29.000000 1  18FEF700x       Rx   d 8 FF FF FF FF FF FF 16 01
   29.000000 1  18FEF803x       Rx   d 8 FF FF FF FF 9B 23 FF FF
   29.000000 1  18FEFC00x       Rx   d 8 FF F9 FF FF FF FF FF FF
   29.000000 1  18FEF500x       Rx   d 9 CA FF FF A0 24 FF FF FF FF
   29.000000 1  18F00503x       Rx   d 8 7D FF FF 7D FF FF FF FF
   29.100000 1  0CF00400x       Rx   d 8 00 8A 53 14 FF FF FF FF
   29.100000 1  0CF00300x       Rx   d 8 00 00 0D FF FF FF FF FF
   29.100000 1  18FEF100x       Rx   d 8 FF 00 00 00 00 00 FF FF
   29.100000 1  18FEF200x       Rx   d 8 38 00 FF FF FF FF FF FF
   29.200000 1  0CF00400x       Rx   d 8 00 8B 54 14 FF FF FF FF
   29.200000 1  0CF00300x       Rx   d 8 00 00 0E FF FF FF FF FF
   29.200000 1  18FEF100x       Rx   d 8 FF 00 00 00 00 00 FF FF
   29.200000 1  18FEF200x       Rx   d 8 38 00 FF FF FF FF FF FF
   29.300000 1  0CF00400x       Rx   d 8 00 8C 5C 14 FF FF FF FF
   29.300000 1  0CF00300x       Rx   d 8 00 00 0F FF FF FF FF FF
   29.300000 1  18FEF100x       Rx   d 8 FF 00 00 00 00 00 FF FF
   29.300000 1  18FEF200x       Rx   d 8 3E 00 FF FF FF FF FF FF
   29.400000 1  0CF00400x       Rx   d 8 00 8C 53 14 FF FF FF FF
   29.400000 1  0CF00300x       Rx   d 8 00 00 0F FF FF FF FF FF
   29.400000 1  18FEF100x       Rx   d 8 FF 00 00 00 00 00 FF FF
   29.400000 1  18FEF200x       Rx   d 8 37 00 FF FF FF FF FF FF
   29.500000 1  0CF00400x       Rx   d 8 00 8C 49 14 FF FF FF FF
   29.500000 1  0CF00300x       Rx   d 8 00 00 0F FF FF FF FF FF
   29.500000 1  18FEF100x       Rx   d 8 FF 00 00 00 00 00 FF FF
   29.500000 1  18FEF200x       Rx   d 8 44 00 FF FF FF FF FF FF
   29.500000 1  18FEF600x       Rx   d 8 FF 32 3C FF FF FF FF FF
   29.500000 1  18FEEF00x       Rx   d 8 FF FF FF 31 FF FF FF FF
   29.600000 1  0CF00400x       Rx   d 8 00 8A 42 14 FF FF FF FF
   29.600000 1  0CF00300x       Rx   d 8 00 00 0D FF FF FF FF FF
   29.600000 1  18FEF100x       Rx   d 8 FF 00 00 00 00 00 FF FF
   29.600000 1  18FEF200x       Rx   d 8 45 00 FF FF FF FF FF FF
   29.700000 1  0CF00400x       Rx   d 8 00 8D 52 14 FF FF FF FF
   29.700000 1  0CF00300x       Rx   d 8 00 00 10 FF FF FF FF FF
   29.700000 1  18FEF100x       Rx   d 8 FF 00 00 00 00 00 FF FF
   29.700000 1  18FEF200x       Rx   d 8 40 00 FF FF FF FF FF FF
   29.800000 1  0CF00400x       Rx   d 8 00 8B 50 14 FF FF FF FF
   29.800000 1  0CF00300x       Rx   d 8 00 00 0E FF FF FF FF FF
   29.800000 1  18FEF100x       Rx   d 8 FF 00 00 00 00 00 FF FF
   29.800000 1  18FEF200x       Rx   d 8 3C 00 FF FF FF FF FF FF
   29.900000 1  0CF00400x       Rx   d 8 00 8A 56 14 FF FF FF FF
   29.900000 1  0CF00300x       Rx   d 8 00 00 0D FF FF FF FF FF
   29.900000 1  18FEF100x       Rx   d 8 FF 00 00 00 00 00 FF FF
   29.900000 1  18FEF200x       Rx   d 8 36 00 FF FF FF FF FF FF
   30.000000 1  0CF00400x       Rx   d 8 00 8C 57 14 FF FF FF FF
   30.000000 1  0CF00300x       Rx   d 8 00 00 0F FF FF FF FF FF
   30.000000 1  18FEF100x       Rx   d 8 FF 00 00 00 00 00 FF FF
   30.000000 1  18FEF200x       Rx   d 8 40 00 FF FF FF FF FF FF
   30.000000 1  18FEF600x       Rx   d 8 FF 32 3C FF FF FF FF FF
   30.000000 1  18FEEF00x       Rx   d 8 FF FF FF 31 FF FF FF FF
   30.000000 1  18FEEE00x       Rx   d 9 3D 3C 3D 24 FF FF FF 00 FF
   30.000000 1  18FEF700x       Rx   d 8 FF FF FF FF FF FF 10 01
   30.000000 1  18FEF803x       Rx   d 8 FF FF FF FF 9D 23 FF FF
   30.000000 1  18FEFC00x       Rx   d 8 FF F9 FF FF FF FF FF FF
   30.000000 1  18FEF500x       Rx   d 9 CA FF FF A0 24 FF FF FF FF
   30.000000 1  18F00503x       Rx   d 8 7D FF FF 7D FF FF FF FF
   30.000000 1  18FEE500x       Rx   d 8 40 0D 03 00 FF FF FF FF
   30.100000 1  0CF00400x       Rx   d 8 00 8A 5F 14 FF FF FF FF
   30.100000 1  0CF00300x       Rx   d 8 00 00 0D FF FF FF FF FF
   30.100000 1  18FEF100x       Rx   d 8 FF 00 00 00 00 00 FF FF
   30.100000 1  18FEF200x       Rx   d 8 3A 00 FF FF FF FF FF FF
   30.200000 1  0CF00400x       Rx   d 8 00 8B 69 14 FF FF FF FF
   30.200000 1  0CF00300x       Rx   d 8 00 00 0E FF FF FF FF FF
   30.200000 1  18FEF100x       Rx   d 8 FF 00 00 00 00 00 FF FF
   30.200000 1  18FEF200x       Rx   d 8 38 00 FF FF FF FF FF FF
   30.300000 1  0CF00400x       Rx   d 8 00 8A 74 14 FF FF FF FF
   30.300000 1  0CF00300x       Rx   d 8 00 00 0D FF FF FF FF FF
   30.300000 1  18FEF100x       Rx   d 8 FF 00 00 00 00 00 FF FF
   30.300000 1  18FEF200x       Rx   d 8 40 00 FF FF FF FF FF FF
   30.400000 1  0CF00400x       Rx   d 8 00 8A 7D 14 FF FF FF FF
   30.400000 1  0CF00300x       Rx   d 8 00 00 0D FF FF FF FF FF
   30.400000 1  18FEF100x       Rx   d 8 FF 00 00 00 00 00 FF FF
   30.400000 1  18FEF200x       Rx   d 8 44 00 FF FF FF FF FF FF
