; CANalyzer/CANoe compatible ASC log file
; Generated: J1939 Heavy-Duty Truck Test Data
; Vehicle: Generic Class 8 Truck
; Engine: 15L Diesel
; Transmission: 18-speed Automated Manual
; 
date Thu Jan 22 10:30:00 AM 2026
base hex  timestamps absolute
no internal events logged

   0.000000 1  0CF00400x       Rx   d 8 00 7D 7D 80 3E 00 00 00  ; EEC1: Engine 2000 RPM, 50% torque
   0.010000 1  0CF00400x       Rx   d 8 00 7D 7D 84 3E 00 00 00  ; EEC1: Engine 2001 RPM
   0.020000 1  0CF00400x       Rx   d 8 00 7D 7D 88 3E 00 00 00  ; EEC1: Engine 2002 RPM
   0.030000 1  0CF00400x       Rx   d 8 00 7D 7D 8C 3E 00 00 00  ; EEC1: Engine 2003 RPM
   0.040000 1  0CF00400x       Rx   d 8 00 7D 7D 90 3E 00 00 00  ; EEC1: Engine 2004 RPM
   0.050000 1  18F00300x       Rx   d 8 00 00 00 7D 80 3E FF FF  ; EEC2: 50% throttle, 2000 RPM limit
   0.100000 1  18FEEE00x       Rx   d 8 8C 8C 00 00 00 00 00 00  ; ET1: Coolant 100°C, Fuel 100°C
   0.200000 1  18FEEF00x       Rx   d 8 19 00 00 C8 00 00 00 00  ; EFLP1: Oil 500 kPa
   0.300000 1  18FEF100x       Rx   d 8 00 00 00 40 1F 00 00 00  ; CCVS: 80 km/h vehicle speed
   0.400000 1  18FEF600x       Rx   d 8 C8 00 00 00 00 00 00 00  ; IC1: Boost 200 kPa
   0.500000 1  18FEF700x       Rx   d 8 00 00 90 01 00 D8 00 00  ; VEP1: Battery 12.8V (0x190/0.05)
   0.600000 1  18F00503x       Rx   d 8 50 A4 00 80 3E 00 00 00  ; ETC2: Gear 8, Ratio 0.75
   0.700000 1  18FEE500x       Rx   d 8 FF 00 00 00 00 00 00 00  ; HOURS: Engine hours (placeholder)
   0.800000 1  18FEF500x       Rx   d 8 80 00 FF FF 00 00 00 00  ; AMB: Barometer 128 kPa, Temp 25°C
   0.900000 1  18FEFC00x       Rx   d 8 00 64 00 00 00 00 00 00  ; DD: Fuel level 50%
   1.000000 1  0CF00400x       Rx   d 8 00 7D 7D 80 3E 00 00 00  ; EEC1: repeat cycle
   1.010000 1  0CF00400x       Rx   d 8 00 7D 7D 84 3E 00 00 00
   1.020000 1  0CF00400x       Rx   d 8 00 7D 7D 88 3E 00 00 00
   1.030000 1  0CF00400x       Rx   d 8 00 7D 7D 8C 3E 00 00 00
   1.040000 1  0CF00400x       Rx   d 8 00 7D 7D 90 3E 00 00 00
   1.050000 1  18F00300x       Rx   d 8 00 00 00 7D 80 3E FF FF  ; EEC2
   1.100000 1  18FEEE00x       Rx   d 8 8E 8C 00 00 00 00 00 00  ; ET1: Coolant 102°C (warming up)
   1.200000 1  18FEEF00x       Rx   d 8 19 00 00 C8 00 00 00 00  ; EFLP1
   1.300000 1  18FEF100x       Rx   d 8 00 00 00 44 1F 00 00 00  ; CCVS: 81 km/h
   1.400000 1  18FEF600x       Rx   d 8 C8 00 00 00 00 00 00 00  ; IC1
   1.500000 1  18FEF700x       Rx   d 8 00 00 94 01 00 DC 00 00  ; VEP1: Battery 13.0V
   1.600000 1  18F00503x       Rx   d 8 50 A4 00 80 3E 00 00 00  ; ETC2
   2.000000 1  0CF00400x       Rx   d 8 00 7D 7D C0 4B 00 00 00  ; EEC1: Engine 2400 RPM (acceleration)
   2.010000 1  0CF00400x       Rx   d 8 00 8C 8C C4 4B 00 00 00  ; EEC1: Engine 2401 RPM, 75% torque
   2.020000 1  0CF00400x       Rx   d 8 00 8C 8C C8 4B 00 00 00  ; EEC1: Engine 2402 RPM
   2.100000 1  18FEEE00x       Rx   d 8 90 8E 00 00 00 00 00 00  ; ET1: Coolant 104°C
   2.300000 1  18FEF100x       Rx   d 8 00 00 00 80 25 00 00 00  ; CCVS: 95 km/h (speeding up)
   2.600000 1  18F00503x       Rx   d 8 51 A8 00 C0 4B 00 00 00  ; ETC2: Gear 9, upshift
   3.000000 1  0CF00400x       Rx   d 8 00 7D 7D 00 50 00 00 00  ; EEC1: Engine 2560 RPM (cruise)
   3.100000 1  18FEEE00x       Rx   d 8 8C 8C 00 00 00 00 00 00  ; ET1: Coolant stable 100°C
   3.300000 1  18FEF100x       Rx   d 8 00 00 00 00 28 00 00 00  ; CCVS: 100 km/h
   3.600000 1  18F00503x       Rx   d 8 52 AC 00 00 50 00 00 00  ; ETC2: Gear 10

; === DIAGNOSTIC MESSAGE TEST ===
   4.000000 1  18FECA00x       Rx   d 8 00 FF C0 00 BE 01 00 01  ; DM1: Active DTC - SPN 190 (Engine Speed), FMI 0
   4.100000 1  18FECA00x       Rx   d 8 00 FF C0 00 6E 00 02 01  ; DM1: Active DTC - SPN 110 (Coolant Temp), FMI 2
   4.200000 1  18FECB00x       Rx   d 8 00 FF 00 00 00 00 00 00  ; DM2: No previously active DTCs

; === TRANSPORT PROTOCOL TEST (BAM) ===
; Component Identification (PGN 65259) - larger than 8 bytes, uses TP
   5.000000 1  18ECFF00x       Rx   d 8 20 17 00 03 FF EB FE 00  ; TP.CM_BAM: 23 bytes, 3 packets, PGN 65259
   5.010000 1  18EBFF00x       Rx   d 8 01 44 45 4D 4F 2A 4D 46  ; TP.DT Packet 1: "DEMO*MF"
   5.060000 1  18EBFF00x       Rx   d 8 02 52 2A 44 45 4D 4F 20  ; TP.DT Packet 2: "R*DEMO "
   5.110000 1  18EBFF00x       Rx   d 8 03 53 4E 31 32 33 34 FF  ; TP.DT Packet 3: "SN1234" + fill

; === ABS/BRAKE MESSAGES ===
   6.000000 1  18F0010Bx       Rx   d 8 00 00 00 00 00 00 00 00  ; EBC1: ABS from Brake Controller (SA=0x0B)
   6.100000 1  0CFE6C0Bx       Rx   d 8 00 FF 00 00 00 00 00 00  ; Tractor/Trailer Bridge from Brakes

; === IDLE SCENARIO ===
   7.000000 1  0CF00400x       Rx   d 8 00 50 50 00 0C 00 00 00  ; EEC1: Idle 600 RPM, 25% torque
   7.010000 1  0CF00400x       Rx   d 8 00 50 50 04 0C 00 00 00  ; EEC1: Idle 601 RPM
   7.020000 1  0CF00400x       Rx   d 8 00 50 50 08 0C 00 00 00  ; EEC1: Idle 602 RPM
   7.100000 1  18FEEE00x       Rx   d 8 78 78 00 00 00 00 00 00  ; ET1: Coolant 80°C (cooling down)
   7.300000 1  18FEF100x       Rx   d 8 00 00 00 00 00 00 00 00  ; CCVS: 0 km/h (stopped)
   7.600000 1  18F00503x       Rx   d 8 7D 00 00 00 0C 00 00 00  ; ETC2: Neutral

; === ENGINE OFF ===
   8.000000 1  0CF00400x       Rx   d 8 00 7D 7D 00 00 00 00 00  ; EEC1: Engine 0 RPM
   8.100000 1  18FEEE00x       Rx   d 8 64 64 00 00 00 00 00 00  ; ET1: Coolant 60°C (cooling)
   8.500000 1  18FEF700x       Rx   d 8 00 00 80 01 00 C8 00 00  ; VEP1: Battery 12.0V (engine off)

; === REQUEST MESSAGE TEST ===
   9.000000 1  18EA00F9x       Rx   d 3 00 F0 00                 ; Request for PGN 61440 from diagnostic tool (0xF9)
   9.010000 1  0CF00400x       Rx   d 8 00 7D 7D 00 00 00 00 00  ; Response: EEC1

; === PROPRIETARY MESSAGE TEST ===
  10.000000 1  18EF0000x       Rx   d 8 FF FF FF FF FF FF FF FF  ; Proprietary A (manufacturer specific)
  10.100000 1  18FF0000x       Rx   d 8 00 01 02 03 04 05 06 07  ; Proprietary B

End TriggerBlock
