; CANalyzer/CANoe compatible ASC log file
; Generated: J1939 Heavy-Duty Truck Test Data
; Vehicle: Generic Class 8 Truck
; Engine: 15L Diesel
; Transmission: 18-speed Automated Manual
;
; ENCODING REFERENCE (per SAE J1939-71):
;   Engine Speed (SPN 190, PGN 61444 bytes 4-5): raw * 0.125 rpm, little-endian
;   Coolant Temp (SPN 110, PGN 65262 byte 1): raw - 40 °C
;   Vehicle Speed (SPN 84, PGN 65265 bytes 2-3): raw / 256 km/h, little-endian
;   Oil Pressure (SPN 100, PGN 65263 byte 4): raw * 4 kPa
;   Boost Pressure (SPN 102, PGN 65270 byte 2): raw * 2 kPa
;   Fuel Level (SPN 96, PGN 65276 byte 2): raw * 0.4 %
;   Battery Voltage (SPN 168, PGN 65271 bytes 5-6): raw * 0.05 V, little-endian
;   Current Gear (SPN 523, PGN 61445 byte 4): raw - 125
;
date Thu Jan 22 10:30:00 AM 2026
base hex  timestamps absolute
no internal events logged

; === HIGHWAY DRIVING SCENARIO (2000 RPM, 80 km/h) ===
; EEC1: Engine Speed = 0x3E80 = 16000 -> 16000 * 0.125 = 2000 RPM
; Torque bytes 2,3 = 0x7D = 125 -> 125 - 125 = 0% (neutral)
   0.000000 1  0CF00400x       Rx   d 8 00 7D 7D 80 3E 00 00 00  ; EEC1: 2000 RPM
   0.010000 1  0CF00400x       Rx   d 8 00 7D 7D 84 3E 00 00 00  ; EEC1: 2001 RPM (0x3E84=16004)
   0.020000 1  0CF00400x       Rx   d 8 00 7D 7D 88 3E 00 00 00  ; EEC1: 2002 RPM
   0.030000 1  0CF00400x       Rx   d 8 00 7D 7D 8C 3E 00 00 00  ; EEC1: 2003 RPM
   0.040000 1  0CF00400x       Rx   d 8 00 7D 7D 90 3E 00 00 00  ; EEC1: 2004 RPM

; EEC2: Throttle position byte 2 = 0x7D = 125 -> 125 * 0.4 = 50%
   0.050000 1  18F00300x       Rx   d 8 00 7D 64 FF FF FF FF FF  ; EEC2: 50% throttle, 100% load

; ET1: Coolant temp byte 1 = 0x8C = 140 -> 140 - 40 = 100°C
   0.100000 1  18FEEE00x       Rx   d 8 8C 8C FF FF FF FF FF FF  ; ET1: Coolant 100°C, Fuel 100°C

; EFLP1: Oil pressure byte 4 = 0x7D = 125 -> 125 * 4 = 500 kPa (72.5 psi)
   0.200000 1  18FEEF00x       Rx   d 8 FF FF FF 7D FF FF FF FF  ; EFLP1: Oil 500 kPa

; CCVS: Vehicle speed bytes 2-3 (1-indexed) = bytes [1]-[2] in 0-indexed
; For 80 km/h: 80 * 256 = 20480 = 0x5000, little-endian = 0x00, 0x50 at indices [1],[2]
   0.300000 1  18FEF100x       Rx   d 8 FF 00 50 FF FF FF FF FF  ; CCVS: 80 km/h

; IC1: Boost pressure byte 2 = 0x64 = 100 -> 100 * 2 = 200 kPa (29 psi)
   0.400000 1  18FEF600x       Rx   d 8 FF 64 FF FF FF FF FF FF  ; IC1: Boost 200 kPa

; VEP1: Battery voltage bytes 5-6 = 0x0100 (little-endian) = 256 -> 256 * 0.05 = 12.8V
   0.500000 1  18FEF700x       Rx   d 8 FF FF FF FF 00 01 FF FF  ; VEP1: Battery 12.8V

; ETC2: Current gear byte 4 = 0x85 = 133 -> 133 - 125 = 8th gear
; Selected gear byte 1 = 0x85 = 133 -> 133 - 125 = 8th gear
   0.600000 1  18F00503x       Rx   d 8 85 FF FF 85 FF FF FF FF  ; ETC2: Gear 8

; HOURS: Engine hours bytes 1-4 = 0x000F4240 = 1000000 -> 1000000 * 0.05 = 50000 hours
   0.700000 1  18FEE500x       Rx   d 8 40 42 0F 00 FF FF FF FF  ; HOURS: 50000 hours

; AMB: Barometric pressure byte 1 = 0x7F = 127 -> 127 * 0.5 = 63.5 kPa
; Ambient temp bytes 4-5 = 0x2198 = 8600 -> 8600 * 0.03125 - 273 = -4.25°C (cold day)
   0.800000 1  18FEF500x       Rx   d 8 7F FF FF 98 21 FF FF FF  ; AMB: Baro 63.5kPa, Temp -4°C

; DD: Fuel level byte 2 (1-indexed) = 0x7D = 125 -> 125 * 0.4 = 50%
; Per J1939-71: byte 1 = Washer Fluid (0xFF = N/A), byte 2 = Fuel Level 1
   0.900000 1  18FEFC00x       Rx   d 8 FF 7D FF FF FF FF FF FF  ; DD: Fuel 50%

; === REPEAT CYCLE ===
   1.000000 1  0CF00400x       Rx   d 8 00 7D 7D 80 3E 00 00 00  ; EEC1: 2000 RPM
   1.010000 1  0CF00400x       Rx   d 8 00 7D 7D 84 3E 00 00 00  ; EEC1: 2001 RPM
   1.020000 1  0CF00400x       Rx   d 8 00 7D 7D 88 3E 00 00 00  ; EEC1: 2002 RPM
   1.030000 1  0CF00400x       Rx   d 8 00 7D 7D 8C 3E 00 00 00  ; EEC1: 2003 RPM
   1.040000 1  0CF00400x       Rx   d 8 00 7D 7D 90 3E 00 00 00  ; EEC1: 2004 RPM
   1.050000 1  18F00300x       Rx   d 8 00 7D 64 FF FF FF FF FF  ; EEC2: 50% throttle

; ET1: Coolant warming up 0x8E = 142 -> 142 - 40 = 102°C
   1.100000 1  18FEEE00x       Rx   d 8 8E 8C FF FF FF FF FF FF  ; ET1: Coolant 102°C
   1.200000 1  18FEEF00x       Rx   d 8 FF FF FF 7D FF FF FF FF  ; EFLP1: Oil 500 kPa

; CCVS: 0x5100 = 20736 -> 20736/256 = 81 km/h
   1.300000 1  18FEF100x       Rx   d 8 FF 00 51 FF FF FF FF FF  ; CCVS: 81 km/h
   1.400000 1  18FEF600x       Rx   d 8 FF 64 FF FF FF FF FF FF  ; IC1: Boost 200 kPa

; VEP1: 0x0104 = 260 -> 260 * 0.05 = 13.0V
   1.500000 1  18FEF700x       Rx   d 8 FF FF FF FF 04 01 FF FF  ; VEP1: Battery 13.0V
   1.600000 1  18F00503x       Rx   d 8 85 FF FF 85 FF FF FF FF  ; ETC2: Gear 8

; === ACCELERATION SCENARIO ===
; EEC1: 0x4B00 = 19200 -> 19200 * 0.125 = 2400 RPM
; Torque = 0x96 = 150 -> 150 - 125 = 25% (positive torque demand)
   2.000000 1  0CF00400x       Rx   d 8 00 96 96 00 4B 00 00 00  ; EEC1: 2400 RPM, 25% torque
   2.010000 1  0CF00400x       Rx   d 8 00 96 96 04 4B 00 00 00  ; EEC1: 2401 RPM
   2.020000 1  0CF00400x       Rx   d 8 00 96 96 08 4B 00 00 00  ; EEC1: 2402 RPM

; ET1: 0x90 = 144 -> 144 - 40 = 104°C
   2.100000 1  18FEEE00x       Rx   d 8 90 8E FF FF FF FF FF FF  ; ET1: Coolant 104°C

; CCVS: 0x5F00 = 24320 -> 24320/256 = 95 km/h
   2.300000 1  18FEF100x       Rx   d 8 FF 00 5F FF FF FF FF FF  ; CCVS: 95 km/h

; ETC2: Upshift to gear 9 (0x86 = 134 -> 134 - 125 = 9)
   2.600000 1  18F00503x       Rx   d 8 86 FF FF 86 FF FF FF FF  ; ETC2: Gear 9

; === CRUISE SCENARIO ===
; EEC1: 0x5000 = 20480 -> 20480 * 0.125 = 2560 RPM
   3.000000 1  0CF00400x       Rx   d 8 00 7D 7D 00 50 00 00 00  ; EEC1: 2560 RPM

; ET1: Stable at 100°C
   3.100000 1  18FEEE00x       Rx   d 8 8C 8C FF FF FF FF FF FF  ; ET1: Coolant 100°C

; CCVS: 0x6400 = 25600 -> 25600/256 = 100 km/h
   3.300000 1  18FEF100x       Rx   d 8 FF 00 64 FF FF FF FF FF  ; CCVS: 100 km/h

; ETC2: Gear 10 (0x87 = 135 -> 135 - 125 = 10)
   3.600000 1  18F00503x       Rx   d 8 87 FF FF 87 FF FF FF FF  ; ETC2: Gear 10

; === DIAGNOSTIC MESSAGE TEST ===
; DM1: Active DTC structure (4 bytes per DTC after 2 lamp bytes):
;   Bytes 1-2: Lamp status (0x00FF = no lamps)
;   Bytes 3-4: SPN bits 0-15 = 0x00BE = 190 (Engine Speed)
;   Byte 5 bits 5-7: SPN bits 16-18 = 0, Bits 0-4: FMI = 0
;   Byte 6: Occurrence count = 1
   4.000000 1  18FECA00x       Rx   d 8 00 FF BE 00 00 01 FF FF  ; DM1: SPN 190, FMI 0, OC 1

; DM1: SPN 110 (Coolant Temp), FMI 2 (Erratic)
;   SPN 110 = 0x6E
   4.100000 1  18FECA00x       Rx   d 8 00 FF 6E 00 02 01 FF FF  ; DM1: SPN 110, FMI 2, OC 1

; DM2: No previously active DTCs (just lamp bytes)
   4.200000 1  18FECB00x       Rx   d 8 00 FF FF FF FF FF FF FF  ; DM2: No stored DTCs

; === TRANSPORT PROTOCOL TEST (BAM) ===
; TP.CM_BAM: Control byte 0x20, total size 23 bytes, 4 packets, PGN 65259 (0xFEEB)
   5.000000 1  18ECFF00x       Rx   d 8 20 17 00 04 FF EB FE 00  ; TP.CM: BAM, 23 bytes, 4 pkts, PGN 65259
   5.010000 1  18EBFF00x       Rx   d 8 01 44 45 4D 4F 2A 4D 46  ; TP.DT #1: "DEMO*MF"
   5.060000 1  18EBFF00x       Rx   d 8 02 52 2A 44 45 4D 4F 20  ; TP.DT #2: "R*DEMO "
   5.110000 1  18EBFF00x       Rx   d 8 03 53 4E 31 32 33 34 35  ; TP.DT #3: "SN12345"
   5.160000 1  18EBFF00x       Rx   d 8 04 36 37 FF FF FF FF FF  ; TP.DT #4: "67" + fill

; === ABS/BRAKE MESSAGES ===
   6.000000 1  18F0010Bx       Rx   d 8 00 00 00 00 00 00 00 00  ; EBC1: ABS from Brake Controller (SA=0x0B)
   6.100000 1  0CFE6C0Bx       Rx   d 8 00 FF 00 00 00 00 00 00  ; TCO1: Tachograph from Brakes

; === IDLE SCENARIO ===
; EEC1: 0x12C0 = 4800 -> 4800 * 0.125 = 600 RPM (idle)
; Torque = 0x50 = 80 -> 80 - 125 = -45% (engine braking/idle)
   7.000000 1  0CF00400x       Rx   d 8 00 50 50 C0 12 00 00 00  ; EEC1: 600 RPM idle
   7.010000 1  0CF00400x       Rx   d 8 00 50 50 C4 12 00 00 00  ; EEC1: 601 RPM
   7.020000 1  0CF00400x       Rx   d 8 00 50 50 C8 12 00 00 00  ; EEC1: 602 RPM

; ET1: Cooling down 0x78 = 120 -> 120 - 40 = 80°C
   7.100000 1  18FEEE00x       Rx   d 8 78 78 FF FF FF FF FF FF  ; ET1: Coolant 80°C

; CCVS: 0x0000 = 0 -> 0 km/h (stopped)
   7.300000 1  18FEF100x       Rx   d 8 FF 00 00 FF FF FF FF FF  ; CCVS: 0 km/h (stopped)

; ETC2: Neutral (0x7D = 125 -> 125 - 125 = 0 = Neutral)
   7.600000 1  18F00503x       Rx   d 8 7D FF FF 7D FF FF FF FF  ; ETC2: Neutral

; === ENGINE OFF ===
; EEC1: 0x0000 = 0 RPM
   8.000000 1  0CF00400x       Rx   d 8 00 7D 7D 00 00 00 00 00  ; EEC1: 0 RPM (engine off)

; ET1: 0x64 = 100 -> 100 - 40 = 60°C (cooling)
   8.100000 1  18FEEE00x       Rx   d 8 64 64 FF FF FF FF FF FF  ; ET1: Coolant 60°C

; VEP1: 0x00F0 = 240 -> 240 * 0.05 = 12.0V (key off)
   8.500000 1  18FEF700x       Rx   d 8 FF FF FF FF F0 00 FF FF  ; VEP1: Battery 12.0V

; === REQUEST MESSAGE TEST ===
; Request PGN 61444 (0x00F004) from diagnostic tool (SA=0xF9)
; Destination = 0x00 (Engine), Priority = 6
   9.000000 1  18EA00F9x       Rx   d 3 04 F0 00                 ; Request PGN 61444 from tool
   9.010000 1  0CF00400x       Rx   d 8 00 7D 7D 00 00 00 00 00  ; Response: EEC1

; === PROPRIETARY MESSAGE TEST ===
  10.000000 1  18EF0000x       Rx   d 8 FF FF FF FF FF FF FF FF  ; Proprietary A
  10.100000 1  18FF0000x       Rx   d 8 00 01 02 03 04 05 06 07  ; Proprietary B

End TriggerBlock
