# candump -L compatible log file
# Generated: J1939 Heavy-Duty Truck Test Data
# Format: (timestamp) interface canid#data
# Use: candump -l can0 or replay with canplayer

(1706007000.000000) vcan0 0CF00400#007D7D803E000000
(1706007000.010000) vcan0 0CF00400#007D7D843E000000
(1706007000.020000) vcan0 0CF00400#007D7D883E000000
(1706007000.030000) vcan0 0CF00400#007D7D8C3E000000
(1706007000.040000) vcan0 0CF00400#007D7D903E000000
(1706007000.050000) vcan0 18F00300#0000007D803EFFFF
(1706007000.100000) vcan0 18FEEE00#8C8C000000000000
(1706007000.200000) vcan0 18FEEF00#19000000C8000000
(1706007000.300000) vcan0 18FEF100#0000000040100000
(1706007000.400000) vcan0 18FEF600#C800000000000000
(1706007000.500000) vcan0 18FEF700#00009001D8000000
(1706007000.600000) vcan0 18F00503#50A400803E000000
(1706007000.700000) vcan0 18FEE500#FF00000000000000
(1706007000.800000) vcan0 18FEF500#8000FFFF00000000
(1706007000.900000) vcan0 18FEFC00#0064000000000000
(1706007001.000000) vcan0 0CF00400#007D7D803E000000
(1706007001.010000) vcan0 0CF00400#007D7D843E000000
(1706007001.050000) vcan0 18F00300#0000007D803EFFFF
(1706007001.100000) vcan0 18FEEE00#8E8C000000000000
(1706007001.300000) vcan0 18FEF100#00000000441F0000
(1706007001.500000) vcan0 18FEF700#00009401DC000000
(1706007001.600000) vcan0 18F00503#50A400803E000000
(1706007002.000000) vcan0 0CF00400#007D7DC04B000000
(1706007002.010000) vcan0 0CF00400#008C8CC44B000000
(1706007002.100000) vcan0 18FEEE00#908E000000000000
(1706007002.300000) vcan0 18FEF100#0000000080250000
(1706007002.600000) vcan0 18F00503#51A800C04B000000
(1706007003.000000) vcan0 0CF00400#007D7D0050000000
(1706007003.100000) vcan0 18FEEE00#8C8C000000000000
(1706007003.300000) vcan0 18FEF100#0000000000280000
(1706007003.600000) vcan0 18F00503#52AC000050000000
(1706007004.000000) vcan0 18FECA00#00FFC000BE010001
(1706007004.100000) vcan0 18FECA00#00FFC0006E000201
(1706007004.200000) vcan0 18FECB00#00FF000000000000
(1706007005.000000) vcan0 18ECFF00#201700030FFBFE00
(1706007005.010000) vcan0 18EBFF00#0144454D4F2A4D46
(1706007005.060000) vcan0 18EBFF00#02522A44454D4F20
(1706007005.110000) vcan0 18EBFF00#03534E31323334FF
(1706007006.000000) vcan0 18F0010B#0000000000000000
(1706007006.100000) vcan0 0CFE6C0B#00FF000000000000
(1706007007.000000) vcan0 0CF00400#0050500C00000000
(1706007007.100000) vcan0 18FEEE00#7878000000000000
(1706007007.300000) vcan0 18FEF100#0000000000000000
(1706007007.600000) vcan0 18F00503#7D00000C00000000
(1706007008.000000) vcan0 0CF00400#007D7D0000000000
(1706007008.100000) vcan0 18FEEE00#6464000000000000
(1706007008.500000) vcan0 18FEF700#0000800100C80000
(1706007009.000000) vcan0 18EA00F9#00F000
(1706007009.010000) vcan0 0CF00400#007D7D0000000000
(1706007010.000000) vcan0 18EF0000#FFFFFFFFFFFFFFFF
(1706007010.100000) vcan0 18FF0000#0001020304050607
